;$FILEVERSION=1.1
;$STARTTIME=45826.7407589699
;
;   Start time: 2025/6/18 17:46:41.575.0
;   Generated by PCAN-View v5.3.2.952
;
;   Message Number
;   |         Time Offset (ms)
;   |         |        Type
;   |         |        |        ID (hex)
;   |         |        |        |     Data Length
;   |         |        |        |     |   Data Bytes (hex) ...
;   |         |        |        |     |   |
;---+--   ----+----  --+--  ----+---  +  -+ -- -- -- -- -- -- --
     1)        43.0  Rx         0020  5  0A 00 4D 17 01 
     2)        43.1  Rx         0023  5  00 00 00 00 00 
     3)        45.3  Rx         0020  5  0A 00 4D 17 01 
     4)        48.8  Rx         0020  5  0A 00 4D 17 01 
     5)        49.0  Rx         0022  5  0B 00 98 20 01 
     6)        49.5  Rx         0021  5  00 00 00 00 00 
     7)        49.7  Rx         0023  5  00 00 00 00 00 
     8)        53.6  Rx         0020  5  0A 00 4D 17 01 
     9)        53.8  Rx         0022  5  0B 00 98 20 01 
    10)        54.2  Rx         0021  5  00 00 00 00 00 
    11)        54.4  Rx         0023  5  00 00 00 00 00 
    12)        56.5  Rx         0021  5  00 00 00 00 00 
    13)        63.6  Rx         0021  5  00 00 00 00 00 
    14)        63.8  Rx         0022  5  0B 00 97 20 03 
    15)        64.2  Rx         0020  5  0A 00 4D 17 01 
    16)        64.4  Rx         0023  5  00 00 00 00 00 
    17)        66.6  Rx         0020  5  0A 00 4D 17 01 
    18)        66.8  Rx         0023  5  00 00 00 00 00 
    19)        67.2  Rx         0021  5  00 00 00 00 00 
    20)        68.7  Rx         0026  6  E9 0D 99 85 A4 31 
    21)        69.0  Rx         0020  5  0A 00 4D 17 01 
    22)        69.4  Rx         0022  5  0B 00 97 20 03 
    23)        69.6  Rx         0021  5  00 00 00 00 00 
    24)        73.4  Rx         0023  5  00 00 00 00 00 
    25)        73.9  Rx         0020  5  0A 00 4D 17 01 
    26)        74.1  Rx         0022  5  0B 00 97 20 03 
    27)        76.3  Rx         0020  5  0A 00 4D 17 01 
    28)        76.5  Rx         0022  5  0B 00 97 20 03 
    29)        76.9  Rx         0021  5  00 00 00 00 00 
    30)        77.1  Rx         0023  5  00 00 00 00 00 
    31)        79.2  Rx         0021  5  00 00 00 00 00 
    32)        80.8  Rx         0026  6  E9 0D 99 85 A4 31 
    33)        81.0  Rx         0020  5  0A 00 4D 17 01 
    34)        81.5  Rx         0022  5  0B 00 97 20 03 
    35)        81.7  Rx         0021  5  00 00 00 00 00 
    36)        83.8  Rx         0022  5  0B 00 97 20 03 
    37)        84.2  Rx         0021  5  00 00 00 00 00 
    38)        84.5  Rx         0023  5  00 00 00 00 00 
    39)        86.6  Rx         0021  5  00 00 00 00 00 
    40)        86.8  Rx         0023  5  00 00 00 00 00 
    41)        87.2  Rx         0020  5  0A 00 4D 17 01 
    42)        87.4  Rx         0022  5  0B 00 97 20 03 
    43)        87.8  Rx         0021  5  00 00 00 00 00 
    44)        88.0  Rx         0023  5  00 00 00 00 00 
    45)        88.4  Rx         0020  5  0A 00 4D 17 01 
    46)        88.6  Rx         0022  5  0B 00 97 20 03 
    47)        89.1  Rx         0021  5  00 00 00 00 00 
    48)        89.2  Rx         0023  5  00 00 00 00 00 
    49)        89.7  Rx         0020  5  0A 00 4D 17 01 
    50)        90.8  Rx         0020  5  0A 00 4D 17 01 
    51)        91.3  Rx         0021  5  00 00 00 00 00 
    52)        91.8  Rx         0026  6  E9 0D 99 85 A4 31 
    53)        91.9  Rx         0020  5  0A 00 4D 17 01 
    54)        92.4  Rx         0022  5  0B 00 97 20 03 
    55)        92.6  Rx         0021  5  00 00 00 00 00 
    56)        93.0  Rx         0023  5  00 00 00 00 00 
    57)        93.2  Rx         0020  5  0A 00 4D 17 01 
    58)        93.6  Rx         0022  5  0B 00 97 20 03 
    59)        93.8  Rx         0021  5  00 00 00 00 00 
    60)        94.2  Rx         0023  5  00 00 00 00 00 
    61)        94.4  Rx         0020  5  0A 00 4D 17 01 
    62)        94.8  Rx         0022  5  0B 00 97 20 03 
    63)        95.0  Rx         0021  5  00 00 00 00 00 
    64)        95.4  Rx         0023  5  00 00 00 00 00 
    65)        95.6  Rx         0020  5  0A 00 4D 17 01 
    66)        96.0  Rx         0022  5  0B 00 97 20 03 
    67)        96.2  Rx         0021  5  00 00 00 00 00 
    68)        96.6  Rx         0023  5  00 00 00 00 00 
    69)        96.8  Rx         0020  5  0A 00 4D 17 01 
    70)        97.2  Rx         0022  5  0B 00 97 20 01 
    71)        97.4  Rx         0021  5  00 00 00 00 00 
    72)        97.9  Rx         0023  5  00 00 00 00 00 
    73)        98.0  Rx         0020  5  0A 00 4D 17 01 
    74)        98.5  Rx         0022  5  0B 00 97 20 01 
    75)        98.6  Rx         0021  5  00 00 00 00 00 
    76)        99.1  Rx         0023  5  00 00 00 00 00 
    77)        99.2  Rx         0020  5  0A 00 4D 17 01 
    78)        99.5  Rx         0022  5  0B 00 97 20 01 
    79)        99.7  Rx         0021  5  00 00 00 00 00 
    80)       100.0  Rx         0023  5  00 00 00 00 00 
    81)       100.2  Rx         0020  5  0A 00 4D 17 01 
    82)       100.5  Rx         0022  5  0B 00 97 20 01 
    83)       100.8  Rx         0021  5  00 00 00 00 00 
    84)       101.0  Rx         0023  5  00 00 00 00 00 
    85)       101.3  Rx         0020  5  0A 00 4C 17 03 
    86)       102.0  Rx         0021  5  00 00 00 00 00 
    87)       104.5  Rx         0021  5  00 00 00 00 00 
    88)       104.6  Rx         0022  5  0B 00 97 20 01 
    89)       105.1  Rx         0020  5  0A 00 4C 17 03 
    90)       105.3  Rx         0023  5  00 00 00 00 00 
    91)       105.7  Rx         0021  5  00 00 00 00 00 
    92)       105.9  Rx         0022  5  0B 00 97 20 01 
    93)       106.4  Rx         0020  5  0A 00 4C 17 03 
    94)       106.6  Rx         0023  5  00 00 00 00 00 
    95)       107.0  Rx         0021  5  00 00 00 00 00 
    96)       107.2  Rx         0022  5  0B 00 97 20 01 
    97)       107.6  Rx         0020  5  0A 00 4C 17 03 
    98)       107.8  Rx         0023  5  00 00 00 00 00 
    99)       108.2  Rx         0021  5  00 00 00 00 00 
   100)       108.4  Rx         0022  5  0B 00 97 20 01 
   101)       108.8  Rx         0020  5  0A 00 4C 17 03 
   102)       109.0  Rx         0023  5  00 00 00 00 00 
   103)       109.4  Rx         0021  5  00 00 00 00 00 
   104)       109.6  Rx         0022  5  0B 00 97 20 01 
   105)       110.0  Rx         0020  5  0A 00 4C 17 03 
   106)       110.2  Rx         0023  5  00 00 00 00 00 
   107)       110.7  Rx         0021  5  00 00 00 00 00 
   108)       110.8  Rx         0022  5  0B 00 97 20 01 
   109)       111.3  Rx         0020  5  0A 00 4C 17 03 
   110)       111.5  Rx         0023  5  00 00 00 00 00 
   111)       111.9  Rx         0021  5  00 00 00 00 00 
   112)       112.1  Rx         0022  5  0B 00 96 20 03 
   113)       112.5  Rx         0020  5  0A 00 4C 17 03 
   114)       112.8  Rx         0023  5  00 00 00 00 00 
   115)       113.2  Rx         0021  5  00 00 00 00 00 
   116)       116.6  Rx         0022  5  0B 00 96 20 03 
   117)       117.1  Rx         0021  5  00 00 00 00 00 
   118)       117.2  Rx         0023  5  00 00 00 00 00 
   119)       126.5  Rx         0021  5  00 00 00 00 00 
   120)       126.6  Rx         0022  5  0B 00 96 20 03 
   121)       127.1  Rx         0020  5  0A 00 4C 17 03 
   122)       127.3  Rx         0023  5  00 00 00 00 00 
   123)       127.7  Rx         0021  5  00 00 00 00 00 
   124)       127.9  Rx         0022  5  0B 00 96 20 01 
   125)       128.4  Rx         0020  5  0A 00 4C 17 03 
   126)       128.5  Rx         0023  5  00 00 00 00 00 
   127)       133.6  Rx         0021  5  00 00 00 00 00 
   128)       133.8  Rx         0022  5  0B 00 96 20 01 
   129)       134.3  Rx         0020  5  0A 00 4C 17 03 
   130)       134.5  Rx         0023  5  00 00 00 00 00 
   131)       136.6  Rx         0020  5  0A 00 4C 17 03 
   132)       143.8  Rx         0020  5  0A 00 4C 17 03 
   133)       144.0  Rx         0022  5  0B 00 95 20 03 
   134)       144.4  Rx         0021  5  00 00 00 00 00 
   135)       144.6  Rx         0023  5  00 00 00 00 00 
   136)       146.8  Rx         0021  5  00 00 00 00 00 
   137)       146.9  Rx         0023  5  00 00 00 00 00 
   138)       147.4  Rx         0020  5  0A 00 4C 17 03 
   139)       148.6  Rx         0020  5  0A 00 4C 17 03 
   140)       149.2  Rx         0021  5  00 00 00 00 00 
   141)       149.6  Rx         0026  6  E9 0D 99 85 A4 31 
   142)       149.8  Rx         0020  5  0A 00 4C 17 03 
   143)       153.6  Rx         0022  5  0B 00 95 20 03 
   144)       154.2  Rx         0021  5  00 00 00 00 00 
   145)       154.3  Rx         0023  5  00 00 00 00 00 
   146)       156.5  Rx         0021  5  00 00 00 00 00 
   147)       156.7  Rx         0023  5  00 00 00 00 00 
   148)       157.1  Rx         0020  5  0A 00 4C 17 03 
   149)       157.3  Rx         0022  5  0B 00 95 20 03 
   150)       158.9  Rx         0021  5  00 00 00 00 00 
   151)       159.4  Rx         0020  5  0A 00 4C 17 03 
   152)       163.4  Rx         0022  5  0B 00 95 20 01 
   153)       163.8  Rx         0021  5  00 00 00 00 00 
   154)       164.0  Rx         0023  5  00 00 00 00 00 
   155)       166.1  Rx         0021  5  00 00 00 00 00 
   156)       166.3  Rx         0023  5  00 00 00 00 00 
   157)       166.8  Rx         0020  5  0A 00 4C 17 03 
   158)       167.0  Rx         0022  5  0B 00 95 20 01 
   159)       167.4  Rx         0021  5  00 00 00 00 00 
   160)       167.6  Rx         0023  5  00 00 00 00 00 
   161)       168.0  Rx         0020  5  0A 00 4C 17 03 
   162)       168.2  Rx         0022  5  0B 00 95 20 01 
   163)       168.6  Rx         0021  5  00 00 00 00 00 
   164)       168.8  Rx         0023  5  00 00 00 00 00 
   165)       169.2  Rx         0020  5  0A 00 4C 17 03 
   166)       170.4  Rx         0020  5  0A 00 4C 17 03 
   167)       170.9  Rx         0021  5  00 00 00 00 00 
   168)       171.3  Rx         0026  6  E9 0D 99 85 A4 31 
   169)       171.5  Rx         0020  5  0A 00 4C 17 03 
   170)       172.0  Rx         0022  5  0B 00 95 20 01 
   171)       172.2  Rx         0021  5  00 00 00 00 00 
   172)       172.6  Rx         0023  5  00 00 00 00 00 
   173)       172.8  Rx         0020  5  0A 00 4C 17 03 
   174)       173.2  Rx         0022  5  0B 00 95 20 01 
   175)       173.4  Rx         0021  5  00 00 00 00 00 
   176)       173.8  Rx         0023  5  00 00 00 00 00 
   177)       174.0  Rx         0020  5  0A 00 4C 17 03 
   178)       174.4  Rx         0022  5  0B 00 95 20 01 
   179)       174.6  Rx         0021  5  00 00 00 00 00 
   180)       175.0  Rx         0023  5  00 00 00 00 00 
   181)       175.2  Rx         0020  5  0A 00 4C 17 03 
   182)       175.7  Rx         0022  5  0B 00 95 20 01 
   183)       175.8  Rx         0021  5  00 00 00 00 00 
   184)       176.3  Rx         0023  5  00 00 00 00 00 
   185)       176.4  Rx         0020  5  0A 00 4C 17 03 
   186)       176.9  Rx         0022  5  0B 00 95 20 01 
   187)       177.0  Rx         0021  5  00 00 00 00 00 
   188)       177.5  Rx         0023  5  00 00 00 00 00 
   189)       177.6  Rx         0020  5  0A 00 4C 17 03 
   190)       178.1  Rx         0022  5  0B 00 95 20 01 
   191)       178.3  Rx         0021  5  00 00 00 00 00 
   192)       178.7  Rx         0023  5  00 00 00 00 00 
   193)       178.9  Rx         0020  5  0A 00 4C 17 03 
   194)       179.3  Rx         0022  5  0B 00 95 20 01 
   195)       179.5  Rx         0021  5  00 00 00 00 00 
   196)       179.9  Rx         0023  5  00 00 00 00 00 
   197)       180.1  Rx         0020  5  0A 00 4C 17 03 
   198)       180.4  Rx         0022  5  0B 00 95 20 01 
   199)       180.7  Rx         0021  5  00 00 00 00 00 
   200)       181.1  Rx         0023  5  00 00 00 00 00 
   201)       181.3  Rx         0020  5  0A 00 4C 17 03 
   202)       183.5  Rx         0020  5  0A 00 4C 17 03 
   203)       187.7  Rx         0021  5  00 00 00 00 00 
   204)       187.9  Rx         0022  5  0B 00 95 20 01 
   205)       188.4  Rx         0020  5  0A 00 4C 17 03 
   206)       188.6  Rx         0023  5  00 00 00 00 00 
   207)       193.7  Rx         0021  5  00 00 00 00 00 
   208)       195.4  Rx         0020  5  0A 00 4C 17 03 
   209)       195.6  Rx         0022  5  0B 00 94 20 03 
   210)       196.1  Rx         0021  5  00 00 00 00 00 
   211)       196.2  Rx         0023  5  00 00 00 00 00 
   212)       196.7  Rx         0020  5  0A 00 4C 17 03 
   213)       196.9  Rx         0022  5  0B 00 94 20 03 
   214)       200.2  Rx         0020  5  0A 00 4C 17 03 
   215)       200.4  Rx         0022  5  0B 00 94 20 03 
   216)       205.5  Rx         0021  5  00 00 00 00 00 
   217)       209.0  Rx         0021  5  00 00 00 00 00 
   218)       209.2  Rx         0022  5  0B 00 94 20 03 
   219)       209.6  Rx         0020  5  0A 00 4C 17 03 
   220)       209.9  Rx         0023  5  00 00 00 00 00 
   221)       214.9  Rx         0021  5  00 00 00 00 00 
   222)       215.1  Rx         0022  5  0B 00 94 20 03 
   223)       215.6  Rx         0020  5  0A 00 4C 17 03 
   224)       215.8  Rx         0023  5  00 00 00 00 00 
   225)       217.4  Rx         0021  5  00 00 00 00 00 
   226)       217.6  Rx         0026  6  E9 0D 99 85 A4 31 
   227)       218.0  Rx         0020  5  0A 00 4C 17 03 
   228)       218.2  Rx         0022  5  0B 00 94 20 03 
   229)       218.6  Rx         0021  5  00 00 00 00 00 
   230)       218.8  Rx         0023  5  00 00 00 00 00 
   231)       223.9  Rx         0020  5  0A 00 4C 17 01 
   232)       224.1  Rx         0022  5  0B 00 94 20 01 
   233)       227.4  Rx         0020  5  0A 00 4C 17 01 
   234)       229.3  Rx         0021  5  00 00 00 00 00 
   235)       234.6  Rx         0020  5  0A 00 4C 17 01 
   236)       234.7  Rx         0023  5  00 00 00 00 00 
   237)       235.2  Rx         0021  5  00 00 00 00 00 
   238)       235.4  Rx         0022  5  0B 00 94 20 01 
   239)       238.7  Rx         0021  5  00 00 00 00 00 
   240)       240.5  Rx         0020  5  0A 00 4C 17 01 
   241)       244.0  Rx         0020  5  0A 00 4C 17 01 
   242)       244.2  Rx         0022  5  0B 00 93 20 03 
   243)       244.6  Rx         0021  5  00 00 00 00 00 
   244)       244.9  Rx         0023  5  00 00 00 00 00 
   245)       247.0  Rx         0021  5  00 00 00 00 00 
   246)       247.2  Rx         0023  5  00 00 00 00 00 
   247)       247.6  Rx         0020  5  0A 00 4C 17 01 
   248)       247.8  Rx         0022  5  0B 00 93 20 03 
   249)       250.0  Rx         0020  5  0A 00 4C 17 01 
   250)       251.2  Rx         0020  5  0A 00 4C 17 01 
   251)       254.0  Rx         0021  5  00 00 00 00 00 
   252)       254.2  Rx         0022  5  0B 00 93 20 03 
   253)       254.6  Rx         0020  5  0A 00 4C 17 01 
   254)       254.8  Rx         0023  5  00 00 00 00 00 
   255)       257.0  Rx         0020  5  0A 00 4C 17 01 
   256)       257.1  Rx         0023  5  00 00 00 00 00 
   257)       257.6  Rx         0021  5  00 00 00 00 00 
   258)       257.8  Rx         0022  5  0B 00 93 20 03 
   259)       260.0  Rx         0021  5  00 00 00 00 00 
   260)       261.1  Rx         0021  5  00 00 00 00 00 
   261)       263.9  Rx         0022  5  0B 00 93 20 01 
   262)       264.4  Rx         0020  5  0A 00 4C 17 01 
   263)       264.6  Rx         0023  5  00 00 00 00 00 
   264)       266.7  Rx         0020  5  0A 00 4C 17 01 
   265)       266.9  Rx         0023  5  00 00 00 00 00 
   266)       267.4  Rx         0021  5  00 00 00 00 00 
   267)       267.6  Rx         0022  5  0B 00 93 20 01 
   268)       269.7  Rx         0021  5  00 00 00 00 00 
   269)       269.9  Rx         0022  5  0B 00 93 20 01 
   270)       272.6  Rx         0020  5  0A 00 4C 17 01 
   271)       273.8  Rx         0020  5  0A 00 4C 17 01 
   272)       274.3  Rx         0026  6  E9 0D 99 85 A4 31 
   273)       274.4  Rx         0021  5  00 00 00 00 00 
   274)       276.6  Rx         0023  5  00 00 00 00 00 
   275)       277.0  Rx         0021  5  00 00 00 00 00 
   276)       277.2  Rx         0022  5  0B 00 93 20 01 
   277)       277.6  Rx         0020  5  0A 00 4C 17 01 
   278)       277.8  Rx         0023  5  00 00 00 00 00 
   279)       278.2  Rx         0021  5  00 00 00 00 00 
   280)       278.4  Rx         0022  5  0B 00 93 20 01 
   281)       278.8  Rx         0020  5  0A 00 4C 17 01 
   282)       279.0  Rx         0023  5  00 00 00 00 00 
   283)       279.5  Rx         0021  5  00 00 00 00 00 
   284)       279.6  Rx         0022  5  0B 00 93 20 01 
   285)       280.0  Rx         0020  5  0A 00 4C 17 01 
   286)       280.2  Rx         0023  5  00 00 00 00 00 
   287)       280.7  Rx         0021  5  00 00 00 00 00 
   288)       280.8  Rx         0022  5  0B 00 93 20 01 
   289)       281.3  Rx         0020  5  0A 00 4C 17 01 
   290)       281.5  Rx         0023  5  00 00 00 00 00 
   291)       281.9  Rx         0021  5  00 00 00 00 00 
   292)       282.1  Rx         0022  5  0B 00 93 20 01 
   293)       282.5  Rx         0020  5  0A 00 4C 17 01 
   294)       282.7  Rx         0023  5  00 00 00 00 00 
   295)       283.1  Rx         0021  5  00 00 00 00 00 
   296)       284.3  Rx         0021  5  00 00 00 00 00 
   297)       284.7  Rx         0026  6  E9 0D 99 85 A4 31 
   298)       284.9  Rx         0020  5  0A 00 4C 17 01 
   299)       285.3  Rx         0022  5  0B 00 93 20 01 
   300)       285.5  Rx         0021  5  00 00 00 00 00 
   301)       285.9  Rx         0023  5  00 00 00 00 00 
   302)       286.1  Rx         0020  5  0A 00 4C 17 01 
   303)       286.5  Rx         0022  5  0B 00 93 20 01 
   304)       286.7  Rx         0021  5  00 00 00 00 00 
   305)       287.0  Rx         0023  5  00 00 00 00 00 
   306)       287.2  Rx         0020  5  0A 00 4C 17 01 
   307)       287.5  Rx         0022  5  0B 00 93 20 01 
   308)       287.7  Rx         0021  5  00 00 00 00 00 
   309)       287.9  Rx         0023  5  00 00 00 00 00 
   310)       288.2  Rx         0020  5  0A 00 4C 17 01 
   311)       288.4  Rx         0022  5  0B 00 93 20 01 
   312)       288.7  Rx         0021  5  00 00 00 00 00 
   313)       288.9  Rx         0023  5  00 00 00 00 00 
   314)       289.2  Rx         0020  5  0A 00 4C 17 01 
   315)       289.4  Rx         0022  5  0B 00 93 20 01 
   316)       289.7  Rx         0021  5  00 00 00 00 00 
   317)       289.9  Rx         0023  5  00 00 00 00 00 
   318)       290.2  Rx         0020  5  0A 00 4C 17 01 
   319)       290.4  Rx         0022  5  0B 00 93 20 01 
   320)       290.7  Rx         0021  5  00 00 00 00 00 
   321)       291.0  Rx         0023  5  00 00 00 00 00 
   322)       291.3  Rx         0020  5  0A 00 4C 17 01 
   323)       291.4  Rx         0022  5  0B 00 93 20 01 
   324)       291.8  Rx         0021  5  00 00 00 00 00 
   325)       291.9  Rx         0023  5  00 00 00 00 00 
   326)       292.4  Rx         0020  5  0A 00 4C 17 01 
   327)       292.6  Rx         0022  5  0B 00 93 20 01 
   328)       293.0  Rx         0021  5  00 00 00 00 00 
   329)       293.3  Rx         0023  5  00 00 00 00 00 
   330)       293.7  Rx         0020  5  0A 00 4C 17 01 
   331)       293.9  Rx         0022  5  0B 00 93 20 01 
   332)       294.3  Rx         0021  5  00 00 00 00 00 
   333)       294.5  Rx         0023  5  00 00 00 00 00 
   334)       295.0  Rx         0020  5  0A 00 4C 17 01 
   335)       298.3  Rx         0022  5  0B 00 93 20 01 
   336)       298.8  Rx         0020  5  0A 00 4B 17 03 
   337)       299.0  Rx         0023  5  00 00 00 00 00 
   338)       299.4  Rx         0021  5  00 00 00 00 00 
   339)       299.6  Rx         0022  5  0B 00 93 20 01 
   340)       300.0  Rx         0020  5  0A 00 4B 17 03 
   341)       300.3  Rx         0023  5  00 00 00 00 00 
   342)       300.7  Rx         0021  5  00 00 00 00 00 
   343)       300.9  Rx         0022  5  0B 00 93 20 01 
   344)       301.3  Rx         0020  5  0A 00 4B 17 03 
   345)       301.5  Rx         0023  5  00 00 00 00 00 
   346)       301.9  Rx         0021  5  00 00 00 00 00 
   347)       302.0  Rx         0022  5  0B 00 93 20 01 
   348)       314.9  Rx         0021  5  00 00 00 00 00 
   349)       315.1  Rx         0023  5  00 00 00 00 00 
   350)       315.5  Rx         0020  5  0A 00 4B 17 03 
   351)       315.7  Rx         0022  5  0B 00 92 20 03 
   352)       319.0  Rx         0020  5  0A 00 4B 17 03 
   353)       320.8  Rx         0021  5  00 00 00 00 00 
   354)       321.0  Rx         0022  5  0B 00 92 20 03 
   355)       321.4  Rx         0020  5  0A 00 4B 17 03 
   356)       321.6  Rx         0023  5  00 00 00 00 00 
   357)       324.9  Rx         0020  5  0A 00 4B 17 03 
   358)       325.1  Rx         0023  5  00 00 00 00 00 
   359)       325.6  Rx         0021  5  00 00 00 00 00 
   360)       325.8  Rx         0022  5  0B 00 92 20 03 
   361)       327.9  Rx         0021  5  00 00 00 00 00 
   362)       328.1  Rx         0022  5  0B 00 92 20 03 
   363)       328.6  Rx         0020  5  0A 00 4B 17 03 
   364)       328.8  Rx         0023  5  00 00 00 00 00 
   365)       329.7  Rx         0020  5  0A 00 4B 17 03 
   366)       332.4  Rx         0023  5  00 00 00 00 00 
   367)       332.8  Rx         0021  5  00 00 00 00 00 
   368)       333.0  Rx         0022  5  0B 00 92 20 03 
   369)       335.1  Rx         0021  5  00 00 00 00 00 
   370)       335.3  Rx         0022  5  0B 00 92 20 03 
   371)       335.7  Rx         0020  5  0A 00 4B 17 03 
   372)       335.9  Rx         0023  5  00 00 00 00 00 
   373)       338.1  Rx         0020  5  0A 00 4B 17 03 
   374)       338.2  Rx         0023  5  00 00 00 00 00 
   375)       338.7  Rx         0021  5  00 00 00 00 00 
   376)       340.4  Rx         0020  5  0A 00 4B 17 03 
   377)       340.9  Rx         0026  6  E9 0D 99 85 A4 31 
   378)       341.1  Rx         0021  5  00 00 00 00 00 
   379)       344.9  Rx         0022  5  0B 00 92 20 03 
   380)       345.2  Rx         0020  5  0A 00 4B 17 03 
   381)       345.6  Rx         0023  5  00 00 00 00 00 
   382)       345.8  Rx         0021  5  00 00 00 00 00 
   383)       347.9  Rx         0023  5  00 00 00 00 00 
   384)       348.1  Rx         0021  5  00 00 00 00 00 
   385)       348.6  Rx         0022  5  0B 00 92 20 01 
   386)       348.8  Rx         0020  5  0A 00 4B 17 03 
   387)       352.3  Rx         0020  5  0A 00 4B 17 03 
   388)       355.8  Rx         0020  5  0A 00 4B 17 01 
   389)       356.0  Rx         0022  5  0B 00 92 20 01 
   390)       356.5  Rx         0021  5  00 00 00 00 00 
   391)       356.7  Rx         0023  5  00 00 00 00 00 
   392)       358.8  Rx         0021  5  00 00 00 00 00 
   393)       359.0  Rx         0023  5  00 00 00 00 00 
   394)       359.5  Rx         0020  5  0A 00 4B 17 01 
   395)       359.6  Rx         0022  5  0B 00 92 20 01 
   396)       362.4  Rx         0021  5  00 00 00 00 00 
   397)       365.0  Rx         0023  5  00 00 00 00 00 
   398)       365.2  Rx         0020  5  0A 00 4B 17 01 
   399)       365.6  Rx         0022  5  0B 00 92 20 01 
   400)       365.8  Rx         0021  5  00 00 00 00 00 
   401)       366.8  Rx         0022  5  0B 00 92 20 01 
   402)       367.0  Rx         0021  5  00 00 00 00 00 
   403)       367.3  Rx         0023  5  00 00 00 00 00 
   404)       367.5  Rx         0020  5  0A 00 4B 17 01 
   405)       367.7  Rx         0022  5  0B 00 92 20 01 
   406)       368.0  Rx         0021  5  00 00 00 00 00 
   407)       368.2  Rx         0023  5  00 00 00 00 00 
   408)       368.5  Rx         0020  5  0A 00 4B 17 01 
   409)       368.7  Rx         0022  5  0B 00 92 20 01 
   410)       369.1  Rx         0021  5  00 00 00 00 00 
   411)       369.3  Rx         0023  5  00 00 00 00 00 
   412)       369.7  Rx         0020  5  0A 00 4B 17 01 
   413)       369.9  Rx         0022  5  0B 00 92 20 01 
   414)       370.3  Rx         0021  5  00 00 00 00 00 
   415)       370.5  Rx         0023  5  00 00 00 00 00 
   416)       370.9  Rx         0020  5  0A 00 4B 17 01 
   417)       371.1  Rx         0022  5  0B 00 92 20 01 
   418)       371.5  Rx         0021  5  00 00 00 00 00 
   419)       371.7  Rx         0023  5  00 00 00 00 00 
   420)       372.1  Rx         0020  5  0A 00 4B 17 01 
   421)       372.3  Rx         0022  5  0B 00 92 20 01 
   422)       372.8  Rx         0021  5  00 00 00 00 00 
   423)       372.9  Rx         0023  5  00 00 00 00 00 
   424)       373.4  Rx         0020  5  0A 00 4B 17 01 
   425)       374.5  Rx         0020  5  0A 00 4B 17 01 
   426)       374.7  Rx         0026  6  E9 0D 99 85 A4 31 
   427)       375.0  Rx         0021  5  00 00 00 00 00 
   428)       375.2  Rx         0022  5  0B 00 92 20 01 
   429)       375.5  Rx         0020  5  0A 00 4B 17 01 
   430)       375.7  Rx         0023  5  00 00 00 00 00 
   431)       376.1  Rx         0021  5  00 00 00 00 00 
   432)       376.3  Rx         0022  5  0B 00 92 20 01 
   433)       376.7  Rx         0020  5  0A 00 4B 17 01 
   434)       376.9  Rx         0023  5  00 00 00 00 00 
   435)       377.3  Rx         0021  5  00 00 00 00 00 
   436)       377.5  Rx         0022  5  0B 00 92 20 01 
   437)       377.9  Rx         0020  5  0A 00 4B 17 01 
   438)       378.1  Rx         0023  5  00 00 00 00 00 
   439)       378.5  Rx         0021  5  00 00 00 00 00 
   440)       378.7  Rx         0022  5  0B 00 92 20 01 
   441)       379.1  Rx         0020  5  0A 00 4B 17 01 
   442)       379.3  Rx         0023  5  00 00 00 00 00 
   443)       379.7  Rx         0021  5  00 00 00 00 00 
   444)       379.9  Rx         0022  5  0B 00 92 20 01 
   445)       380.3  Rx         0020  5  0A 00 4B 17 01 
   446)       380.5  Rx         0023  5  00 00 00 00 00 
   447)       381.0  Rx         0021  5  00 00 00 00 00 
   448)       381.1  Rx         0022  5  0B 00 92 20 01 
   449)       381.5  Rx         0020  5  0A 00 4B 17 01 
   450)       381.7  Rx         0023  5  00 00 00 00 00 
   451)       382.2  Rx         0021  5  00 00 00 00 00 
   452)       382.3  Rx         0022  5  0B 00 92 20 01 
   453)       382.8  Rx         0020  5  0A 00 4B 17 01 
   454)       382.9  Rx         0023  5  00 00 00 00 00 
   455)       383.4  Rx         0021  5  00 00 00 00 00 
   456)       383.6  Rx         0022  5  0B 00 92 20 01 
   457)       384.0  Rx         0020  5  0A 00 4B 17 01 
   458)       384.2  Rx         0023  5  00 00 00 00 00 
   459)       384.6  Rx         0021  5  00 00 00 00 00 
   460)       393.7  Rx         0023  5  00 00 00 00 00 
   461)       394.2  Rx         0021  5  00 00 00 00 00 
   462)       394.4  Rx         0022  5  0B 00 92 20 01 
   463)       395.9  Rx         0020  5  0A 00 4B 17 01 
   464)       397.7  Rx         0021  5  00 00 00 00 00 
   465)       398.0  Rx         0023  5  00 00 00 00 00 
   466)       404.8  Rx         0021  5  00 00 00 00 00 
   467)       405.0  Rx         0023  5  00 00 00 00 00 
   468)       407.2  Rx         0021  5  00 00 00 00 00 
   469)       408.2  Rx         0021  5  00 00 00 00 00 
   470)       415.3  Rx         0021  5  00 00 00 00 00 
   471)       415.5  Rx         0022  5  0B 00 92 20 01 
   472)       415.9  Rx         0020  5  0A 00 4B 17 01 
   473)       416.1  Rx         0023  5  00 00 00 00 00 
   474)       418.3  Rx         0020  5  0A 00 4B 17 01 
   475)       419.4  Rx         0020  5  0A 00 4B 17 01 
   476)       424.7  Rx         0021  5  00 00 00 00 00 
   477)       424.9  Rx         0023  5  00 00 00 00 00 
   478)       425.4  Rx         0020  5  0A 00 4B 17 01 
   479)       425.5  Rx         0022  5  0B 00 92 20 01 
   480)       428.3  Rx         0021  5  00 00 00 00 00 
   481)       428.8  Rx         0020  5  0A 00 4B 17 01 
   482)       430.6  Rx         0021  5  00 00 00 00 00 
   483)       430.8  Rx         0022  5  0B 00 92 20 01 
   484)       431.2  Rx         0020  5  0A 00 4B 17 01 
   485)       431.4  Rx         0023  5  00 00 00 00 00 
   486)       434.7  Rx         0020  5  0A 00 4B 17 01 
   487)       434.9  Rx         0023  5  00 00 00 00 00 
   488)       435.4  Rx         0021  5  00 00 00 00 00 
   489)       435.6  Rx         0022  5  0B 00 91 20 03 
   490)       438.9  Rx         0021  5  00 00 00 00 00 
   491)       440.6  Rx         0020  5  0A 00 4B 17 01 
   492)       444.2  Rx         0020  5  0A 00 4A 17 03 
   493)       444.4  Rx         0022  5  0B 00 91 20 03 
   494)       447.7  Rx         0020  5  0A 00 4A 17 03 
   495)       447.9  Rx         0022  5  0B 00 91 20 03 
   496)       448.3  Rx         0021  5  00 00 00 00 00 
   497)       448.5  Rx         0023  5  00 00 00 00 00 
   498)       450.7  Rx         0021  5  00 00 00 00 00 
   499)       451.8  Rx         0021  5  00 00 00 00 00 
   500)       452.3  Rx         0026  6  E9 0D 99 85 A4 31 
   501)       452.5  Rx         0020  5  0A 00 4A 17 03 
   502)       453.0  Rx         0022  5  0B 00 91 20 03 
   503)       453.1  Rx         0021  5  00 00 00 00 00 
   504)       455.3  Rx         0022  5  0B 00 91 20 03 
   505)       455.5  Rx         0021  5  00 00 00 00 00 
   506)       455.9  Rx         0023  5  00 00 00 00 00 
   507)       456.1  Rx         0020  5  0A 00 4A 17 03 
   508)       458.2  Rx         0023  5  00 00 00 00 00 
   509)       458.7  Rx         0020  5  0A 00 4A 17 03 
   510)       458.9  Rx         0022  5  0B 00 91 20 03 
   511)       461.0  Rx         0020  5  0A 00 4A 17 03 
   512)       462.3  Rx         0020  5  0A 00 4A 17 03 
   513)       462.8  Rx         0021  5  00 00 00 00 00 
   514)       464.5  Rx         0020  5  0A 00 4A 17 03 
   515)       464.7  Rx         0023  5  00 00 00 00 00 
   516)       465.2  Rx         0021  5  00 00 00 00 00 
   517)       465.3  Rx         0022  5  0B 00 91 20 03 
   518)       467.5  Rx         0021  5  00 00 00 00 00 
   519)       467.7  Rx         0022  5  0B 00 91 20 03 
   520)       468.2  Rx         0020  5  0A 00 4A 17 03 
   521)       468.3  Rx         0023  5  00 00 00 00 00 
   522)       470.5  Rx         0020  5  0A 00 4A 17 03 
   523)       470.7  Rx         0023  5  00 00 00 00 00 
   524)       472.9  Rx         0020  5  0A 00 4A 17 03 
   525)       474.5  Rx         0022  5  0B 00 91 20 03 
   526)       474.7  Rx         0021  5  00 00 00 00 00 
   527)       475.2  Rx         0023  5  00 00 00 00 00 
   528)       475.4  Rx         0020  5  0A 00 4A 17 01 
   529)       477.5  Rx         0023  5  00 00 00 00 00 
   530)       477.9  Rx         0020  5  0A 00 4A 17 01 
   531)       478.2  Rx         0022  5  0B 00 91 20 03 
   532)       480.3  Rx         0020  5  0A 00 4A 17 01 
   533)       480.5  Rx         0022  5  0B 00 91 20 03 
   534)       481.5  Rx         0020  5  0A 00 4A 17 01 
   535)       481.7  Rx         0022  5  0B 00 91 20 03 
   536)       482.0  Rx         0021  5  00 00 00 00 00 
   537)       482.2  Rx         0023  5  00 00 00 00 00 
   538)       482.6  Rx         0020  5  0A 00 4A 17 01 
   539)       482.8  Rx         0022  5  0B 00 91 20 03 
   540)       483.3  Rx         0021  5  00 00 00 00 00 
   541)       483.4  Rx         0023  5  00 00 00 00 00 
   542)       483.9  Rx         0020  5  0A 00 4A 17 01 
   543)       485.0  Rx         0020  5  0A 00 4A 17 01 
   544)       485.2  Rx         0026  6  E9 0D 99 85 A4 31 
   545)       485.5  Rx         0021  5  00 00 00 00 00 
   546)       485.7  Rx         0022  5  0B 00 91 20 03 
   547)       486.1  Rx         0020  5  0A 00 4A 17 01 
   548)       486.2  Rx         0023  5  00 00 00 00 00 
   549)       486.6  Rx         0021  5  00 00 00 00 00 
   550)       486.8  Rx         0022  5  0B 00 91 20 03 
   551)       487.2  Rx         0020  5  0A 00 4A 17 01 
   552)       487.5  Rx         0023  5  00 00 00 00 00 
   553)       487.8  Rx         0021  5  00 00 00 00 00 
   554)       488.1  Rx         0022  5  0B 00 91 20 03 
   555)       488.4  Rx         0020  5  0A 00 4A 17 01 
   556)       488.6  Rx         0023  5  00 00 00 00 00 
   557)       489.0  Rx         0021  5  00 00 00 00 00 
   558)       489.3  Rx         0022  5  0B 00 91 20 03 
   559)       489.6  Rx         0020  5  0A 00 4A 17 01 
   560)       489.8  Rx         0023  5  00 00 00 00 00 
   561)       490.3  Rx         0021  5  00 00 00 00 00 
   562)       490.4  Rx         0022  5  0B 00 91 20 03 
   563)       490.8  Rx         0020  5  0A 00 4A 17 01 
   564)       491.0  Rx         0023  5  00 00 00 00 00 
   565)       491.3  Rx         0021  5  00 00 00 00 00 
   566)       491.5  Rx         0022  5  0B 00 91 20 03 
   567)       491.8  Rx         0020  5  0A 00 4A 17 01 
   568)       492.0  Rx         0023  5  00 00 00 00 00 
   569)       492.3  Rx         0021  5  00 00 00 00 00 
   570)       492.5  Rx         0022  5  0B 00 91 20 03 
   571)       492.8  Rx         0020  5  0A 00 4A 17 01 
   572)       493.0  Rx         0023  5  00 00 00 00 00 
   573)       493.6  Rx         0021  5  00 00 00 00 00 
   574)       493.8  Rx         0022  5  0B 00 91 20 03 
   575)       494.2  Rx         0020  5  0A 00 4A 17 01 
   576)       494.4  Rx         0023  5  00 00 00 00 00 
   577)       494.8  Rx         0021  5  00 00 00 00 00 
   578)       497.2  Rx         0021  5  00 00 00 00 00 
   579)       497.4  Rx         0022  5  0B 00 91 20 03 
   580)       497.9  Rx         0020  5  0A 00 4A 17 01 
   581)       498.1  Rx         0023  5  00 00 00 00 00 
   582)       498.5  Rx         0021  5  00 00 00 00 00 
   583)       498.7  Rx         0022  5  0B 00 91 20 03 
   584)       499.2  Rx         0020  5  0A 00 4A 17 01 
   585)       499.4  Rx         0023  5  00 00 00 00 00 
   586)       499.8  Rx         0021  5  00 00 00 00 00 
   587)       500.0  Rx         0022  5  0B 00 91 20 03 
   588)       500.4  Rx         0020  5  0A 00 4A 17 01 
   589)       500.6  Rx         0023  5  00 00 00 00 00 
   590)       501.0  Rx         0021  5  00 00 00 00 00 
   591)       501.2  Rx         0022  5  0B 00 91 20 03 
   592)       501.5  Rx         0020  5  0A 00 4A 17 01 
   593)       501.8  Rx         0023  5  00 00 00 00 00 
   594)       502.2  Rx         0021  5  00 00 00 00 00 
   595)       502.4  Rx         0022  5  0B 00 91 20 03 
   596)       502.8  Rx         0020  5  0A 00 4A 17 01 
   597)       503.0  Rx         0023  5  00 00 00 00 00 
   598)       503.4  Rx         0021  5  00 00 00 00 00 
   599)       503.6  Rx         0022  5  0B 00 91 20 03 
   600)       504.1  Rx         0020  5  0A 00 49 17 03 
   601)       504.2  Rx         0023  5  00 00 00 00 00 
   602)       504.7  Rx         0021  5  00 00 00 00 00 
   603)       504.9  Rx         0022  5  0B 00 91 20 03 
   604)       505.3  Rx         0020  5  0A 00 49 17 03 
   605)       505.5  Rx         0023  5  00 00 00 00 00 
   606)       506.0  Rx         0021  5  00 00 00 00 00 
   607)       506.2  Rx         0022  5  0B 00 91 20 03 
   608)       506.6  Rx         0020  5  0A 00 49 17 03 
   609)       506.8  Rx         0023  5  00 00 00 00 00 
   610)       507.3  Rx         0021  5  00 00 00 00 00 
   611)       517.7  Rx         0023  5  00 00 00 00 00 
   612)       518.2  Rx         0021  5  00 00 00 00 00 
   613)       518.4  Rx         0022  5  0B 00 91 20 01 
   614)       520.0  Rx         0020  5  0A 00 49 17 03 
   615)       520.5  Rx         0021  5  00 00 00 00 00 
   616)       522.6  Rx         0023  5  00 00 00 00 00 
   617)       523.0  Rx         0021  5  00 00 00 00 00 
   618)       523.2  Rx         0022  5  0B 00 91 20 01 
   619)       525.4  Rx         0021  5  00 00 00 00 00 
   620)       525.5  Rx         0022  5  0B 00 91 20 01 
   621)       526.0  Rx         0020  5  0A 00 49 17 03 
   622)       526.2  Rx         0023  5  00 00 00 00 00 
   623)       528.3  Rx         0020  5  0A 00 49 17 03 
   624)       528.5  Rx         0023  5  00 00 00 00 00 
   625)       528.9  Rx         0021  5  00 00 00 00 00 
   626)       529.2  Rx         0022  5  0B 00 91 20 01 
   627)       532.0  Rx         0020  5  0A 00 49 17 03 
   628)       533.1  Rx         0020  5  0A 00 49 17 03 
   629)       533.4  Rx         0026  6  E9 0D 99 85 A4 31 
   630)       533.9  Rx         0021  5  00 00 00 00 00 
   631)       534.1  Rx         0022  5  0B 00 91 20 01 
   632)       534.5  Rx         0020  5  0A 00 49 17 03 
   633)       534.7  Rx         0023  5  00 00 00 00 00 
   634)       535.1  Rx         0021  5  00 00 00 00 00 
   635)       535.3  Rx         0022  5  0B 00 91 20 01 
   636)       540.4  Rx         0020  5  0A 00 49 17 03 
   637)       540.6  Rx         0023  5  00 00 00 00 00 
   638)       542.8  Rx         0020  5  0A 00 49 17 03 
   639)       543.3  Rx         0021  5  00 00 00 00 00 
   640)       543.7  Rx         0026  6  E9 0D 99 85 A4 31 
   641)       543.9  Rx         0020  5  0A 00 49 17 03 
   642)       544.1  Rx         0022  5  0B 00 91 20 01 
   643)       544.4  Rx         0021  5  00 00 00 00 00 
   644)       544.6  Rx         0023  5  00 00 00 00 00 
   645)       545.0  Rx         0020  5  0A 00 49 17 03 
   646)       545.2  Rx         0022  5  0B 00 91 20 01 
   647)       545.6  Rx         0021  5  00 00 00 00 00 
   648)       545.8  Rx         0023  5  00 00 00 00 00 
   649)       546.2  Rx         0020  5  0A 00 49 17 03 
   650)       546.4  Rx         0022  5  0B 00 91 20 01 
   651)       546.8  Rx         0021  5  00 00 00 00 00 
   652)       547.0  Rx         0023  5  00 00 00 00 00 
   653)       547.4  Rx         0020  5  0A 00 49 17 03 
   654)       547.6  Rx         0022  5  0B 00 91 20 01 
   655)       548.1  Rx         0021  5  00 00 00 00 00 
   656)       548.2  Rx         0023  5  00 00 00 00 00 
   657)       548.7  Rx         0020  5  0A 00 49 17 03 
   658)       548.8  Rx         0022  5  0B 00 91 20 01 
   659)       549.3  Rx         0021  5  00 00 00 00 00 
   660)       549.4  Rx         0023  5  00 00 00 00 00 
   661)       549.9  Rx         0020  5  0A 00 49 17 03 
   662)       550.1  Rx         0022  5  0B 00 91 20 01 
   663)       550.5  Rx         0021  5  00 00 00 00 00 
   664)       550.7  Rx         0023  5  00 00 00 00 00 
   665)       551.1  Rx         0020  5  0A 00 49 17 03 
   666)       551.3  Rx         0022  5  0B 00 91 20 01 
   667)       551.7  Rx         0021  5  00 00 00 00 00 
   668)       551.9  Rx         0023  5  00 00 00 00 00 
   669)       552.3  Rx         0020  5  0A 00 49 17 03 
   670)       554.0  Rx         0021  5  00 00 00 00 00 
   671)       554.2  Rx         0022  5  0B 00 91 20 01 
   672)       554.5  Rx         0020  5  0A 00 49 17 03 
   673)       554.7  Rx         0023  5  00 00 00 00 00 
   674)       555.2  Rx         0021  5  00 00 00 00 00 
   675)       555.4  Rx         0022  5  0B 00 91 20 01 
   676)       555.8  Rx         0020  5  0A 00 49 17 03 
   677)       556.0  Rx         0023  5  00 00 00 00 00 
   678)       556.4  Rx         0021  5  00 00 00 00 00 
   679)       556.6  Rx         0022  5  0B 00 91 20 01 
   680)       557.0  Rx         0020  5  0A 00 49 17 03 
   681)       557.2  Rx         0023  5  00 00 00 00 00 
   682)       557.6  Rx         0021  5  00 00 00 00 00 
   683)       557.8  Rx         0022  5  0B 00 91 20 01 
   684)       558.2  Rx         0020  5  0A 00 49 17 03 
   685)       558.4  Rx         0023  5  00 00 00 00 00 
   686)       558.9  Rx         0021  5  00 00 00 00 00 
   687)       559.0  Rx         0022  5  0B 00 91 20 01 
   688)       559.5  Rx         0020  5  0A 00 49 17 03 
   689)       559.6  Rx         0023  5  00 00 00 00 00 
   690)       560.1  Rx         0021  5  00 00 00 00 00 
   691)       560.3  Rx         0022  5  0B 00 91 20 01 
   692)       560.7  Rx         0020  5  0A 00 49 17 03 
   693)       560.9  Rx         0023  5  00 00 00 00 00 
   694)       561.3  Rx         0021  5  00 00 00 00 00 
   695)       561.5  Rx         0022  5  0B 00 91 20 01 
   696)       561.9  Rx         0020  5  0A 00 49 17 03 
   697)       562.1  Rx         0023  5  00 00 00 00 00 
   698)       562.5  Rx         0021  5  00 00 00 00 00 
   699)       562.7  Rx         0022  5  0B 00 91 20 01 
   700)       563.1  Rx         0020  5  0A 00 49 17 03 
   701)       563.3  Rx         0023  5  00 00 00 00 00 
   702)       576.8  Rx         0021  5  00 00 00 00 00 
   703)       578.3  Rx         0023  5  00 00 00 00 00 
   704)       578.7  Rx         0020  5  0A 00 49 17 01 
   705)       578.9  Rx         0022  5  0B 00 91 20 01 
   706)       585.7  Rx         0020  5  0A 00 49 17 01 
   707)       587.5  Rx         0021  5  00 00 00 00 00 
   708)       591.0  Rx         0021  5  00 00 00 00 00 
   709)       591.2  Rx         0022  5  0B 00 91 20 01 
   710)       594.5  Rx         0021  5  00 00 00 00 00 
   711)       594.8  Rx         0022  5  0B 00 91 20 01 
   712)       597.5  Rx         0020  5  0A 00 48 17 03 
   713)       598.0  Rx         0021  5  00 00 00 00 00 
   714)       599.8  Rx         0020  5  0A 00 48 17 03 
   715)       600.0  Rx         0022  5  0B 00 91 20 01 
   716)       600.5  Rx         0021  5  00 00 00 00 00 
   717)       600.7  Rx         0023  5  00 00 00 00 00 
   718)       601.1  Rx         0020  5  0A 00 48 17 03 
   719)       601.3  Rx         0022  5  0B 00 91 20 01 
   720)       606.4  Rx         0021  5  00 00 00 00 00 
   721)       606.6  Rx         0023  5  00 00 00 00 00 
   722)       607.1  Rx         0020  5  0A 00 48 17 03 
   723)       607.3  Rx         0022  5  0B 00 91 20 01 
   724)       608.8  Rx         0021  5  00 00 00 00 00 
   725)       610.0  Rx         0021  5  00 00 00 00 00 
   726)       610.4  Rx         0026  6  E9 0D 99 85 A4 31 
   727)       610.6  Rx         0020  5  0A 00 48 17 03 
   728)       615.7  Rx         0022  5  0B 00 91 20 01 
   729)       615.9  Rx         0021  5  00 00 00 00 00 
   730)       616.4  Rx         0023  5  00 00 00 00 00 
   731)       616.6  Rx         0020  5  0A 00 48 17 03 
   732)       619.9  Rx         0020  5  0A 00 48 17 01 
   733)       621.5  Rx         0026  6  E9 0D 99 85 A4 31 
   734)       621.7  Rx         0021  5  00 00 00 00 00 
   735)       622.2  Rx         0022  5  0B 00 91 20 01 
   736)       622.4  Rx         0020  5  0A 00 48 17 01 
   737)       625.7  Rx         0022  5  0B 00 91 20 01 
   738)       625.9  Rx         0020  5  0A 00 48 17 01 
   739)       626.4  Rx         0023  5  00 00 00 00 00 
   740)       626.6  Rx         0021  5  00 00 00 00 00 
   741)       629.8  Rx         0023  5  00 00 00 00 00 
   742)       630.4  Rx         0021  5  00 00 00 00 00 
   743)       630.6  Rx         0022  5  0B 00 91 20 01 
   744)       632.2  Rx         0020  5  0A 00 48 17 01 
   745)       632.7  Rx         0021  5  00 00 00 00 00 
   746)       634.5  Rx         0020  5  0A 00 48 17 01 
   747)       634.7  Rx         0023  5  00 00 00 00 00 
   748)       635.1  Rx         0021  5  00 00 00 00 00 
   749)       635.4  Rx         0022  5  0B 00 91 20 01 
   750)       637.5  Rx         0021  5  00 00 00 00 00 
   751)       637.7  Rx         0022  5  0B 00 91 20 01 
   752)       638.1  Rx         0020  5  0A 00 48 17 01 
   753)       638.3  Rx         0023  5  00 00 00 00 00 
   754)       640.5  Rx         0020  5  0A 00 48 17 01 
   755)       640.6  Rx         0023  5  00 00 00 00 00 
   756)       641.1  Rx         0021  5  00 00 00 00 00 
   757)       641.3  Rx         0022  5  0B 00 91 20 01 
   758)       642.9  Rx         0020  5  0A 00 48 17 01 
   759)       643.4  Rx         0021  5  00 00 00 00 00 
   760)       643.7  Rx         0026  6  E9 0D 99 85 A4 31 
   761)       643.9  Rx         0020  5  0A 00 48 17 01 
   762)       644.2  Rx         0022  5  0B 00 91 20 01 
   763)       644.5  Rx         0021  5  00 00 00 00 00 
   764)       644.7  Rx         0023  5  00 00 00 00 00 
   765)       645.0  Rx         0020  5  0A 00 48 17 01 
   766)       645.3  Rx         0022  5  0B 00 91 20 01 
   767)       645.6  Rx         0021  5  00 00 00 00 00 
   768)       645.8  Rx         0023  5  00 00 00 00 00 
   769)       654.5  Rx         0020  5  0A 00 48 17 01 
   770)       658.0  Rx         0020  5  0A 00 48 17 01 
   771)       658.2  Rx         0022  5  0B 00 91 20 01 
   772)       658.7  Rx         0021  5  00 00 00 00 00 
   773)       658.9  Rx         0023  5  00 00 00 00 00 
   774)       659.8  Rx         0021  5  00 00 00 00 00 
   775)       660.0  Rx         0023  5  00 00 00 00 00 
   776)       660.3  Rx         0020  5  0A 00 48 17 01 
   777)       660.5  Rx         0022  5  0B 00 91 20 01 
   778)       660.8  Rx         0021  5  00 00 00 00 00 
   779)       661.0  Rx         0023  5  00 00 00 00 00 
   780)       661.6  Rx         0020  5  0A 00 48 17 01 
   781)       661.7  Rx         0022  5  0B 00 91 20 01 
   782)       662.2  Rx         0021  5  00 00 00 00 00 
   783)       662.3  Rx         0023  5  00 00 00 00 00 
   784)       662.8  Rx         0020  5  0A 00 48 17 01 
   785)       662.9  Rx         0022  5  0B 00 91 20 01 
   786)       663.4  Rx         0021  5  00 00 00 00 00 
   787)       663.6  Rx         0023  5  00 00 00 00 00 
   788)       664.0  Rx         0020  5  0A 00 48 17 01 
   789)       664.2  Rx         0022  5  0B 00 91 20 01 
   790)       664.5  Rx         0021  5  00 00 00 00 00 
   791)       664.7  Rx         0023  5  00 00 00 00 00 
   792)       665.0  Rx         0020  5  0A 00 48 17 01 
   793)       665.5  Rx         0021  5  00 00 00 00 00 
   794)       666.0  Rx         0020  5  0A 00 48 17 01 
   795)       666.5  Rx         0021  5  00 00 00 00 00 
   796)       667.0  Rx         0020  5  0A 00 48 17 01 
   797)       667.2  Rx         0026  6  E9 0D 99 85 A4 31 
   798)       667.5  Rx         0021  5  00 00 00 00 00 
   799)       667.7  Rx         0022  5  0B 00 91 20 01 
   800)       668.2  Rx         0020  5  0A 00 48 17 01 
   801)       668.4  Rx         0023  5  00 00 00 00 00 
   802)       668.9  Rx         0021  5  00 00 00 00 00 
   803)       669.1  Rx         0022  5  0B 00 91 20 01 
   804)       669.5  Rx         0020  5  0A 00 48 17 01 
   805)       669.7  Rx         0023  5  00 00 00 00 00 
   806)       670.1  Rx         0021  5  00 00 00 00 00 
   807)       670.4  Rx         0022  5  0B 00 91 20 01 
   808)       670.8  Rx         0020  5  0A 00 48 17 01 
   809)       671.0  Rx         0023  5  00 00 00 00 00 
   810)       671.4  Rx         0021  5  00 00 00 00 00 
   811)       671.6  Rx         0022  5  0B 00 91 20 01 
   812)       672.1  Rx         0020  5  0A 00 47 17 03 
   813)       672.2  Rx         0023  5  00 00 00 00 00 
   814)       672.7  Rx         0021  5  00 00 00 00 00 
   815)       672.9  Rx         0022  5  0B 00 91 20 01 
   816)       673.3  Rx         0020  5  0A 00 47 17 03 
   817)       673.5  Rx         0023  5  00 00 00 00 00 
   818)       674.0  Rx         0021  5  00 00 00 00 00 
   819)       674.2  Rx         0022  5  0B 00 91 20 01 
   820)       674.6  Rx         0020  5  0A 00 47 17 03 
   821)       674.8  Rx         0023  5  00 00 00 00 00 
   822)       675.3  Rx         0021  5  00 00 00 00 00 
   823)       675.4  Rx         0022  5  0B 00 91 20 01 
   824)       675.9  Rx         0020  5  0A 00 47 17 03 
   825)       676.1  Rx         0023  5  00 00 00 00 00 
   826)       676.5  Rx         0021  5  00 00 00 00 00 
   827)       687.1  Rx         0021  5  00 00 00 00 00 
   828)       688.3  Rx         0021  5  00 00 00 00 00 
   829)       688.5  Rx         0026  6  E9 0D 99 85 A4 31 
   830)       688.8  Rx         0020  5  0A 00 47 17 03 
   831)       689.0  Rx         0022  5  0B 00 91 20 01 
   832)       695.8  Rx         0020  5  0A 00 47 17 03 
   833)       696.0  Rx         0022  5  0B 00 91 20 01 
   834)       696.4  Rx         0021  5  00 00 00 00 00 
   835)       696.6  Rx         0023  5  00 00 00 00 00 
   836)       697.6  Rx         0021  5  00 00 00 00 00 
   837)       698.7  Rx         0021  5  00 00 00 00 00 
   838)       699.2  Rx         0026  6  E9 0D 99 85 A4 31 
   839)       699.4  Rx         0020  5  0A 00 47 17 03 
   840)       701.5  Rx         0023  5  00 00 00 00 00 
   841)       701.9  Rx         0020  5  0A 00 47 17 03 
   842)       702.1  Rx         0022  5  0B 00 91 20 01 
   843)       706.0  Rx         0021  5  00 00 00 00 00 
   844)       706.2  Rx         0023  5  00 00 00 00 00 
   845)       706.7  Rx         0020  5  0A 00 47 17 03 
   846)       706.8  Rx         0022  5  0B 00 91 20 01 
   847)       709.0  Rx         0020  5  0A 00 47 17 03 
   848)       710.8  Rx         0021  5  00 00 00 00 00 
   849)       711.3  Rx         0026  6  E9 0D 99 85 A4 31 
   850)       711.5  Rx         0020  5  0A 00 47 17 03 
   851)       711.9  Rx         0022  5  0B 00 91 20 01 
   852)       712.1  Rx         0021  5  00 00 00 00 00 
   853)       716.0  Rx         0023  5  00 00 00 00 00 
   854)       716.4  Rx         0020  5  0A 00 47 17 03 
   855)       716.6  Rx         0022  5  0B 00 91 20 01 
   856)       718.8  Rx         0020  5  0A 00 47 17 03 
   857)       719.0  Rx         0022  5  0B 00 91 20 01 
   858)       719.4  Rx         0021  5  00 00 00 00 00 
   859)       719.6  Rx         0023  5  00 00 00 00 00 
   860)       720.6  Rx         0021  5  00 00 00 00 00 
   861)       721.7  Rx         0021  5  00 00 00 00 00 
   862)       725.2  Rx         0021  5  00 00 00 00 00 
   863)       725.4  Rx         0022  5  0B 00 91 20 01 
   864)       727.5  Rx         0021  5  00 00 00 00 00 
   865)       727.8  Rx         0022  5  0B 00 91 20 01 
   866)       728.2  Rx         0020  5  0A 00 47 17 03 
   867)       728.4  Rx         0023  5  00 00 00 00 00 
   868)       730.5  Rx         0020  5  0A 00 47 17 03 
   869)       732.2  Rx         0026  6  E9 0D 99 85 A4 31 
   870)       732.4  Rx         0021  5  00 00 00 00 00 
   871)       732.8  Rx         0022  5  0B 00 91 20 01 
   872)       733.0  Rx         0020  5  0A 00 47 17 03 
   873)       733.4  Rx         0023  5  00 00 00 00 00 
   874)       733.6  Rx         0021  5  00 00 00 00 00 
   875)       734.0  Rx         0022  5  0B 00 91 20 01 
   876)       734.2  Rx         0020  5  0A 00 47 17 03 
   877)       734.7  Rx         0023  5  00 00 00 00 00 
   878)       734.8  Rx         0021  5  00 00 00 00 00 
   879)       735.3  Rx         0022  5  0B 00 91 20 01 
   880)       735.4  Rx         0020  5  0A 00 47 17 03 
   881)       735.9  Rx         0023  5  00 00 00 00 00 
   882)       736.1  Rx         0021  5  00 00 00 00 00 
   883)       736.5  Rx         0022  5  0B 00 91 20 01 
   884)       736.7  Rx         0020  5  0A 00 47 17 03 
   885)       737.1  Rx         0023  5  00 00 00 00 00 
   886)       737.3  Rx         0021  5  00 00 00 00 00 
   887)       737.7  Rx         0022  5  0B 00 91 20 01 
   888)       737.9  Rx         0020  5  0A 00 47 17 03 
   889)       738.3  Rx         0023  5  00 00 00 00 00 
   890)       738.5  Rx         0021  5  00 00 00 00 00 
   891)       738.9  Rx         0022  5  0B 00 91 20 01 
   892)       739.1  Rx         0020  5  0A 00 47 17 03 
   893)       739.5  Rx         0023  5  00 00 00 00 00 
   894)       739.7  Rx         0021  5  00 00 00 00 00 
   895)       740.1  Rx         0022  5  0B 00 91 20 01 
   896)       740.3  Rx         0020  5  0A 00 47 17 03 
   897)       740.7  Rx         0023  5  00 00 00 00 00 
   898)       740.9  Rx         0021  5  00 00 00 00 00 
   899)       742.6  Rx         0020  5  0A 00 47 17 03 
   900)       742.8  Rx         0026  6  E9 0D 99 85 A4 31 
   901)       743.3  Rx         0021  5  00 00 00 00 00 
   902)       743.4  Rx         0022  5  0B 00 91 20 01 
   903)       743.9  Rx         0020  5  0A 00 47 17 03 
   904)       744.0  Rx         0023  5  00 00 00 00 00 
   905)       744.4  Rx         0021  5  00 00 00 00 00 
   906)       744.6  Rx         0022  5  0B 00 91 20 01 
   907)       745.0  Rx         0020  5  0A 00 47 17 03 
   908)       745.2  Rx         0023  5  00 00 00 00 00 
   909)       745.6  Rx         0021  5  00 00 00 00 00 
   910)       745.8  Rx         0022  5  0B 00 91 20 01 
   911)       746.2  Rx         0020  5  0A 00 47 17 03 
   912)       746.4  Rx         0023  5  00 00 00 00 00 
   913)       746.8  Rx         0021  5  00 00 00 00 00 
   914)       747.1  Rx         0022  5  0B 00 91 20 01 
   915)       747.4  Rx         0020  5  0A 00 47 17 03 
   916)       747.6  Rx         0023  5  00 00 00 00 00 
   917)       748.1  Rx         0021  5  00 00 00 00 00 
   918)       748.2  Rx         0022  5  0B 00 91 20 01 
   919)       748.7  Rx         0020  5  0A 00 47 17 03 
   920)       748.9  Rx         0023  5  00 00 00 00 00 
   921)       749.3  Rx         0021  5  00 00 00 00 00 
   922)       749.5  Rx         0022  5  0B 00 91 20 01 
   923)       749.9  Rx         0020  5  0A 00 47 17 03 
   924)       750.1  Rx         0023  5  00 00 00 00 00 
   925)       750.5  Rx         0021  5  00 00 00 00 00 
   926)       750.7  Rx         0022  5  0B 00 91 20 01 
   927)       751.1  Rx         0020  5  0A 00 47 17 03 
   928)       751.3  Rx         0023  5  00 00 00 00 00 
   929)       751.7  Rx         0021  5  00 00 00 00 00 
   930)       751.9  Rx         0022  5  0B 00 91 20 01 
   931)       752.3  Rx         0020  5  0A 00 47 17 03 
   932)       752.5  Rx         0023  5  00 00 00 00 00 
   933)       752.9  Rx         0021  5  00 00 00 00 00 
   934)       753.5  Rx         0020  5  0A 00 47 17 03 
   935)       754.1  Rx         0021  5  00 00 00 00 00 
   936)       757.2  Rx         0020  5  0A 00 47 17 03 
   937)       757.4  Rx         0022  5  0B 00 91 20 01 
   938)       757.8  Rx         0021  5  00 00 00 00 00 
   939)       758.0  Rx         0023  5  00 00 00 00 00 
   940)       758.4  Rx         0020  5  0A 00 47 17 01 
   941)       758.6  Rx         0022  5  0B 00 91 20 01 
   942)       759.1  Rx         0021  5  00 00 00 00 00 
   943)       759.3  Rx         0023  5  00 00 00 00 00 
   944)       759.7  Rx         0020  5  0A 00 47 17 01 
   945)       759.9  Rx         0022  5  0B 00 91 20 01 
   946)       760.3  Rx         0021  5  00 00 00 00 00 
   947)       760.5  Rx         0023  5  00 00 00 00 00 
   948)       760.9  Rx         0020  5  0A 00 47 17 01 
   949)       761.1  Rx         0022  5  0B 00 91 20 01 
   950)       761.5  Rx         0021  5  00 00 00 00 00 
   951)       761.7  Rx         0023  5  00 00 00 00 00 
   952)       762.1  Rx         0020  5  0A 00 47 17 01 
   953)       762.3  Rx         0022  5  0B 00 91 20 01 
   954)       762.7  Rx         0021  5  00 00 00 00 00 
   955)       762.9  Rx         0023  5  00 00 00 00 00 
   956)       763.4  Rx         0020  5  0A 00 47 17 01 
   957)       766.7  Rx         0022  5  0B 00 91 20 01 
   958)       766.9  Rx         0020  5  0A 00 47 17 01 
   959)       767.4  Rx         0023  5  00 00 00 00 00 
   960)       767.6  Rx         0021  5  00 00 00 00 00 
   961)       768.0  Rx         0022  5  0B 00 91 20 01 
   962)       768.2  Rx         0020  5  0A 00 47 17 01 
   963)       768.7  Rx         0023  5  00 00 00 00 00 
   964)       768.9  Rx         0021  5  00 00 00 00 00 
   965)       769.3  Rx         0022  5  0B 00 91 20 01 
   966)       769.5  Rx         0020  5  0A 00 47 17 01 
   967)       769.9  Rx         0023  5  00 00 00 00 00 
   968)       770.1  Rx         0021  5  00 00 00 00 00 
   969)       770.5  Rx         0022  5  0B 00 91 20 01 
   970)       770.7  Rx         0020  5  0A 00 47 17 01 
   971)       771.1  Rx         0023  5  00 00 00 00 00 
   972)       771.3  Rx         0021  5  00 00 00 00 00 
   973)       771.7  Rx         0022  5  0B 00 91 20 01 
   974)       771.8  Rx         0020  5  0A 00 47 17 01 
   975)       772.3  Rx         0023  5  00 00 00 00 00 
   976)       772.5  Rx         0021  5  00 00 00 00 00 
   977)       773.0  Rx         0022  5  0B 00 91 20 01 
   978)       773.1  Rx         0020  5  0A 00 47 17 01 
   979)       773.6  Rx         0023  5  00 00 00 00 00 
   980)       773.8  Rx         0021  5  00 00 00 00 00 
   981)       774.2  Rx         0022  5  0B 00 91 20 01 
   982)       774.4  Rx         0020  5  0A 00 47 17 01 
   983)       780.1  Rx         0023  5  00 00 00 00 00 
   984)       780.3  Rx         0020  5  0A 00 47 17 01 
   985)       780.8  Rx         0022  5  0B 00 91 20 01 
   986)       781.0  Rx         0021  5  00 00 00 00 00 
   987)       781.2  Rx         0023  5  00 00 00 00 00 
   988)       785.2  Rx         0020  5  0A 00 47 17 01 
   989)       785.3  Rx         0022  5  0B 00 91 20 01 
   990)       787.0  Rx         0021  5  00 00 00 00 00 
   991)       787.5  Rx         0020  5  0A 00 47 17 01 
   992)       789.3  Rx         0021  5  00 00 00 00 00 
   993)       789.4  Rx         0022  5  0B 00 91 20 01 
   994)       789.9  Rx         0020  5  0A 00 47 17 01 
   995)       790.1  Rx         0023  5  00 00 00 00 00 
   996)       790.5  Rx         0021  5  00 00 00 00 00 
   997)       790.7  Rx         0022  5  0B 00 91 20 01 
   998)       796.4  Rx         0021  5  00 00 00 00 00 
   999)       796.6  Rx         0022  5  0B 00 91 20 01 
  1000)       797.0  Rx         0020  5  0A 00 47 17 01 
  1001)       797.2  Rx         0023  5  00 00 00 00 00 
  1002)       798.2  Rx         0020  5  0A 00 47 17 01 
  1003)       798.7  Rx         0021  5  00 00 00 00 00 
  1004)       799.2  Rx         0020  5  0A 00 47 17 01 
  1005)       799.7  Rx         0026  6  E9 0D 99 85 A4 31 
  1006)       799.9  Rx         0021  5  00 00 00 00 00 
  1007)       800.3  Rx         0022  5  0B 00 91 20 01 
  1008)       800.5  Rx         0020  5  0A 00 47 17 01 
  1009)       800.9  Rx         0023  5  00 00 00 00 00 
  1010)       801.1  Rx         0021  5  00 00 00 00 00 
  1011)       801.5  Rx         0022  5  0B 00 91 20 01 
  1012)       801.7  Rx         0020  5  0A 00 47 17 01 
  1013)       802.1  Rx         0023  5  00 00 00 00 00 
  1014)       802.3  Rx         0021  5  00 00 00 00 00 
  1015)       802.7  Rx         0022  5  0B 00 91 20 01 
  1016)       802.9  Rx         0020  5  0A 00 47 17 01 
  1017)       803.3  Rx         0023  5  00 00 00 00 00 
  1018)       803.5  Rx         0021  5  00 00 00 00 00 
  1019)       803.9  Rx         0022  5  0B 00 91 20 01 
  1020)       804.1  Rx         0020  5  0A 00 47 17 01 
  1021)       804.5  Rx         0023  5  00 00 00 00 00 
  1022)       804.7  Rx         0021  5  00 00 00 00 00 
  1023)       805.1  Rx         0022  5  0B 00 91 20 01 
  1024)       805.4  Rx         0020  5  0A 00 47 17 01 
  1025)       805.8  Rx         0023  5  00 00 00 00 00 
  1026)       806.0  Rx         0021  5  00 00 00 00 00 
  1027)       806.4  Rx         0022  5  0B 00 91 20 01 
  1028)       806.5  Rx         0020  5  0A 00 47 17 01 
  1029)       807.0  Rx         0023  5  00 00 00 00 00 
  1030)       807.2  Rx         0021  5  00 00 00 00 00 
  1031)       808.9  Rx         0020  5  0A 00 47 17 01 
  1032)       809.5  Rx         0021  5  00 00 00 00 00 
  1033)       809.6  Rx         0026  6  E9 0D 99 85 A4 31 
  1034)       810.0  Rx         0020  5  0A 00 47 17 01 
  1035)       810.1  Rx         0022  5  0B 00 91 20 01 
  1036)       810.6  Rx         0021  5  00 00 00 00 00 
  1037)       810.8  Rx         0023  5  00 00 00 00 00 
  1038)       811.2  Rx         0020  5  0A 00 46 17 03 
  1039)       811.4  Rx         0022  5  0B 00 91 20 01 
  1040)       811.8  Rx         0021  5  00 00 00 00 00 
  1041)       812.0  Rx         0023  5  00 00 00 00 00 
  1042)       812.4  Rx         0020  5  0A 00 46 17 03 
  1043)       812.6  Rx         0022  5  0B 00 91 20 01 
  1044)       820.0  Rx         0021  5  00 00 00 00 00 
  1045)       821.6  Rx         0026  6  E9 0D 99 85 A4 31 
  1046)       821.8  Rx         0020  5  0A 00 46 17 03 
  1047)       822.2  Rx         0022  5  0B 00 91 20 01 
  1048)       822.4  Rx         0021  5  00 00 00 00 00 
  1049)       825.7  Rx         0022  5  0B 00 91 20 01 
  1050)       825.9  Rx         0021  5  00 00 00 00 00 
  1051)       826.4  Rx         0023  5  00 00 00 00 00 
  1052)       826.5  Rx         0020  5  0A 00 46 17 03 
  1053)       829.8  Rx         0023  5  00 00 00 00 00 
  1054)       830.3  Rx         0020  5  0A 00 46 17 03 
  1055)       830.5  Rx         0022  5  0B 00 91 20 01 
  1056)       832.1  Rx         0021  5  00 00 00 00 00 
  1057)       835.6  Rx         0021  5  00 00 00 00 00 
  1058)       835.8  Rx         0022  5  0B 00 91 20 01 
  1059)       836.2  Rx         0020  5  0A 00 46 17 01 
  1060)       836.4  Rx         0023  5  00 00 00 00 00 
  1061)       839.8  Rx         0020  5  0A 00 46 17 01 
  1062)       839.9  Rx         0023  5  00 00 00 00 00 
  1063)       843.3  Rx         0020  5  0A 00 46 17 01 
  1064)       846.8  Rx         0020  5  0A 00 46 17 01 
  1065)       847.0  Rx         0022  5  0B 00 91 20 01 
  1066)       847.4  Rx         0021  5  00 00 00 00 00 
  1067)       847.7  Rx         0023  5  00 00 00 00 00 
  1068)       851.0  Rx         0021  5  00 00 00 00 00 
  1069)       851.2  Rx         0023  5  00 00 00 00 00 
  1070)       851.6  Rx         0020  5  0A 00 46 17 01 
  1071)       851.8  Rx         0022  5  0B 00 91 20 01 
  1072)       853.4  Rx         0021  5  00 00 00 00 00 
  1073)       856.9  Rx         0021  5  00 00 00 00 00 
  1074)       857.0  Rx         0022  5  0B 00 91 20 01 
  1075)       857.5  Rx         0020  5  0A 00 46 17 01 
  1076)       857.7  Rx         0023  5  00 00 00 00 00 
  1077)       861.1  Rx         0020  5  0A 00 46 17 01 
  1078)       861.2  Rx         0023  5  00 00 00 00 00 
  1079)       861.7  Rx         0021  5  00 00 00 00 00 
  1080)       861.9  Rx         0022  5  0B 00 91 20 01 
  1081)       865.3  Rx         0021  5  00 00 00 00 00 
  1082)       865.8  Rx         0026  6  E9 0D 99 85 A4 31 
  1083)       866.0  Rx         0020  5  0A 00 46 17 01 
  1084)       866.4  Rx         0022  5  0B 00 91 20 01 
  1085)       866.6  Rx         0021  5  00 00 00 00 00 
  1086)       867.0  Rx         0023  5  00 00 00 00 00 
  1087)       867.2  Rx         0020  5  0A 00 46 17 01 
  1088)       874.9  Rx         0021  5  00 00 00 00 00 
  1089)       876.0  Rx         0021  5  00 00 00 00 00 
  1090)       878.3  Rx         0023  5  00 00 00 00 00 
  1091)       878.4  Rx         0021  5  00 00 00 00 00 
  1092)       878.9  Rx         0022  5  0B 00 91 20 01 
  1093)       879.1  Rx         0020  5  0A 00 45 17 03 
  1094)       881.2  Rx         0022  5  0B 00 91 20 01 
  1095)       881.4  Rx         0020  5  0A 00 45 17 03 
  1096)       881.8  Rx         0023  5  00 00 00 00 00 
  1097)       882.1  Rx         0021  5  00 00 00 00 00 
  1098)       887.5  Rx         0020  5  0A 00 45 17 03 
  1099)       887.9  Rx         0026  6  E9 0D 99 85 A4 31 
  1100)       888.2  Rx         0021  5  00 00 00 00 00 
  1101)       888.6  Rx         0022  5  0B 00 91 20 01 
  1102)       888.8  Rx         0020  5  0A 00 45 17 03 
  1103)       889.2  Rx         0023  5  00 00 00 00 00 
  1104)       889.4  Rx         0021  5  00 00 00 00 00 
  1105)       896.2  Rx         0023  5  00 00 00 00 00 
  1106)       896.7  Rx         0021  5  00 00 00 00 00 
  1107)       897.9  Rx         0021  5  00 00 00 00 00 
  1108)       899.0  Rx         0021  5  00 00 00 00 00 
  1109)       899.2  Rx         0022  5  0B 00 91 20 01 
  1110)       899.7  Rx         0020  5  0A 00 45 17 03 
  1111)       899.9  Rx         0023  5  00 00 00 00 00 
  1112)       902.0  Rx         0020  5  0A 00 45 17 03 
  1113)       902.2  Rx         0023  5  00 00 00 00 00 
  1114)       906.1  Rx         0021  5  00 00 00 00 00 
  1115)       906.3  Rx         0022  5  0B 00 90 20 03 
  1116)       907.9  Rx         0020  5  0A 00 45 17 01 
  1117)       908.4  Rx         0021  5  00 00 00 00 00 
  1118)       908.9  Rx         0020  5  0A 00 45 17 01 
  1119)       910.1  Rx         0020  5  0A 00 45 17 01 
  1120)       910.3  Rx         0022  5  0B 00 90 20 03 
  1121)       910.6  Rx         0021  5  00 00 00 00 00 
  1122)       910.8  Rx         0023  5  00 00 00 00 00 
  1123)       911.1  Rx         0020  5  0A 00 45 17 01 
  1124)       911.3  Rx         0022  5  0B 00 90 20 03 
  1125)       911.6  Rx         0021  5  00 00 00 00 00 
  1126)       911.8  Rx         0023  5  00 00 00 00 00 
  1127)       912.2  Rx         0020  5  0A 00 45 17 01 
  1128)       912.4  Rx         0022  5  0B 00 90 20 03 
  1129)       912.8  Rx         0021  5  00 00 00 00 00 
  1130)       913.0  Rx         0023  5  00 00 00 00 00 
  1131)       913.4  Rx         0020  5  0A 00 45 17 01 
  1132)       913.6  Rx         0022  5  0B 00 90 20 03 
  1133)       914.0  Rx         0021  5  00 00 00 00 00 
  1134)       914.2  Rx         0023  5  00 00 00 00 00 
  1135)       914.7  Rx         0020  5  0A 00 45 17 01 
  1136)       914.8  Rx         0022  5  0B 00 90 20 03 
  1137)       915.3  Rx         0021  5  00 00 00 00 00 
  1138)       915.4  Rx         0023  5  00 00 00 00 00 
  1139)       915.9  Rx         0020  5  0A 00 45 17 01 
  1140)       916.0  Rx         0022  5  0B 00 90 20 03 
  1141)       916.5  Rx         0021  5  00 00 00 00 00 
  1142)       916.6  Rx         0023  5  00 00 00 00 00 
  1143)       917.1  Rx         0020  5  0A 00 45 17 01 
  1144)       917.2  Rx         0022  5  0B 00 90 20 03 
  1145)       917.7  Rx         0021  5  00 00 00 00 00 
  1146)       917.8  Rx         0023  5  00 00 00 00 00 
  1147)       918.2  Rx         0020  5  0A 00 45 17 01 
  1148)       918.4  Rx         0022  5  0B 00 90 20 03 
  1149)       918.8  Rx         0021  5  00 00 00 00 00 
  1150)       919.1  Rx         0023  5  00 00 00 00 00 
  1151)       919.4  Rx         0020  5  0A 00 45 17 01 
  1152)       921.2  Rx         0021  5  00 00 00 00 00 
  1153)       921.4  Rx         0026  6  E9 0D 99 85 A4 31 
  1154)       921.7  Rx         0020  5  0A 00 45 17 01 
  1155)       921.9  Rx         0022  5  0B 00 90 20 03 
  1156)       922.3  Rx         0021  5  00 00 00 00 00 
  1157)       922.5  Rx         0023  5  00 00 00 00 00 
  1158)       922.9  Rx         0020  5  0A 00 45 17 01 
  1159)       923.1  Rx         0022  5  0B 00 90 20 03 
  1160)       923.5  Rx         0021  5  00 00 00 00 00 
  1161)       923.7  Rx         0023  5  00 00 00 00 00 
  1162)       924.1  Rx         0020  5  0A 00 45 17 01 
  1163)       924.3  Rx         0022  5  0B 00 90 20 03 
  1164)       924.7  Rx         0021  5  00 00 00 00 00 
  1165)       924.9  Rx         0023  5  00 00 00 00 00 
  1166)       925.3  Rx         0020  5  0A 00 45 17 01 
  1167)       925.5  Rx         0022  5  0B 00 90 20 03 
  1168)       926.1  Rx         0021  5  00 00 00 00 00 
  1169)       926.3  Rx         0023  5  00 00 00 00 00 
  1170)       926.7  Rx         0020  5  0A 00 45 17 01 
  1171)       927.0  Rx         0022  5  0B 00 90 20 03 
  1172)       927.4  Rx         0021  5  00 00 00 00 00 
  1173)       927.6  Rx         0023  5  00 00 00 00 00 
  1174)       928.0  Rx         0020  5  0A 00 44 17 03 
  1175)       928.2  Rx         0022  5  0B 00 90 20 03 
  1176)       928.7  Rx         0021  5  00 00 00 00 00 
  1177)       928.8  Rx         0023  5  00 00 00 00 00 
  1178)       929.3  Rx         0020  5  0A 00 44 17 03 
  1179)       929.5  Rx         0022  5  0B 00 90 20 03 
  1180)       929.9  Rx         0021  5  00 00 00 00 00 
  1181)       930.1  Rx         0023  5  00 00 00 00 00 
  1182)       930.6  Rx         0020  5  0A 00 44 17 03 
  1183)       930.8  Rx         0022  5  0B 00 90 20 03 
  1184)       931.2  Rx         0021  5  00 00 00 00 00 
  1185)       931.4  Rx         0023  5  00 00 00 00 00 
  1186)       931.9  Rx         0020  5  0A 00 44 17 03 
  1187)       935.2  Rx         0022  5  0B 00 90 20 03 
  1188)       935.4  Rx         0020  5  0A 00 44 17 03 
  1189)       935.9  Rx         0023  5  00 00 00 00 00 
  1190)       936.0  Rx         0021  5  00 00 00 00 00 
  1191)       936.5  Rx         0022  5  0B 00 90 20 03 
  1192)       936.7  Rx         0020  5  0A 00 44 17 03 
  1193)       937.2  Rx         0023  5  00 00 00 00 00 
  1194)       937.3  Rx         0021  5  00 00 00 00 00 
  1195)       937.8  Rx         0022  5  0B 00 90 20 03 
  1196)       938.0  Rx         0020  5  0A 00 44 17 03 
  1197)       938.4  Rx         0023  5  00 00 00 00 00 
  1198)       938.6  Rx         0021  5  00 00 00 00 00 
  1199)       939.0  Rx         0022  5  0B 00 90 20 03 
  1200)       939.2  Rx         0020  5  0A 00 44 17 03 
  1201)       939.6  Rx         0023  5  00 00 00 00 00 
  1202)       939.8  Rx         0021  5  00 00 00 00 00 
  1203)       940.2  Rx         0022  5  0B 00 90 20 03 
  1204)       940.4  Rx         0020  5  0A 00 44 17 03 
  1205)       940.8  Rx         0023  5  00 00 00 00 00 
  1206)       941.0  Rx         0021  5  00 00 00 00 00 
  1207)       941.5  Rx         0022  5  0B 00 90 20 03 
  1208)       941.6  Rx         0020  5  0A 00 44 17 03 
  1209)       942.1  Rx         0023  5  00 00 00 00 00 
  1210)       942.3  Rx         0021  5  00 00 00 00 00 
  1211)       945.7  Rx         0022  5  0B 00 90 20 01 
  1212)       945.9  Rx         0021  5  00 00 00 00 00 
  1213)       946.3  Rx         0023  5  00 00 00 00 00 
  1214)       946.5  Rx         0020  5  0A 00 44 17 03 
  1215)       946.9  Rx         0022  5  0B 00 90 20 01 
  1216)       947.1  Rx         0021  5  00 00 00 00 00 
  1217)       947.6  Rx         0023  5  00 00 00 00 00 
  1218)       947.8  Rx         0020  5  0A 00 44 17 03 
  1219)       948.3  Rx         0022  5  0B 00 90 20 01 
  1220)       948.4  Rx         0021  5  00 00 00 00 00 
  1221)       948.8  Rx         0023  5  00 00 00 00 00 
  1222)       949.0  Rx         0020  5  0A 00 44 17 03 
  1223)       949.4  Rx         0022  5  0B 00 90 20 01 
  1224)       949.6  Rx         0021  5  00 00 00 00 00 
  1225)       955.9  Rx         0026  6  E9 0D 99 85 A4 31 
  1226)       956.2  Rx         0020  5  0A 00 44 17 03 
  1227)       956.6  Rx         0022  5  0B 00 90 20 01 
  1228)       956.8  Rx         0021  5  00 00 00 00 00 
  1229)       957.3  Rx         0023  5  00 00 00 00 00 
  1230)       957.4  Rx         0020  5  0A 00 44 17 03 
  1231)       959.6  Rx         0023  5  00 00 00 00 00 
  1232)       959.8  Rx         0020  5  0A 00 44 17 03 
  1233)       960.2  Rx         0022  5  0B 00 90 20 01 
  1234)       960.4  Rx         0021  5  00 00 00 00 00 
  1235)       961.4  Rx         0022  5  0B 00 90 20 01 
  1236)       961.6  Rx         0021  5  00 00 00 00 00 
  1237)       961.9  Rx         0023  5  00 00 00 00 00 
  1238)       962.1  Rx         0020  5  0A 00 44 17 03 
  1239)       962.3  Rx         0022  5  0B 00 90 20 01 
  1240)       962.8  Rx         0021  5  00 00 00 00 00 
  1241)       962.9  Rx         0023  5  00 00 00 00 00 
  1242)       963.4  Rx         0020  5  0A 00 44 17 03 
  1243)       963.6  Rx         0022  5  0B 00 90 20 01 
  1244)       964.0  Rx         0021  5  00 00 00 00 00 
  1245)       964.2  Rx         0023  5  00 00 00 00 00 
  1246)       964.6  Rx         0020  5  0A 00 44 17 03 
  1247)       965.8  Rx         0020  5  0A 00 44 17 03 
  1248)       966.3  Rx         0021  5  00 00 00 00 00 
  1249)       966.7  Rx         0026  6  E9 0D 99 85 A4 31 
  1250)       966.9  Rx         0020  5  0A 00 44 17 03 
  1251)       967.3  Rx         0022  5  0B 00 90 20 01 
  1252)       967.5  Rx         0021  5  00 00 00 00 00 
  1253)       967.9  Rx         0023  5  00 00 00 00 00 
  1254)       968.1  Rx         0020  5  0A 00 44 17 03 
  1255)       968.5  Rx         0022  5  0B 00 90 20 01 
  1256)       968.7  Rx         0021  5  00 00 00 00 00 
  1257)       969.1  Rx         0023  5  00 00 00 00 00 
  1258)       969.3  Rx         0020  5  0A 00 44 17 03 
  1259)       969.7  Rx         0022  5  0B 00 90 20 01 
  1260)       969.9  Rx         0021  5  00 00 00 00 00 
  1261)       970.3  Rx         0023  5  00 00 00 00 00 
  1262)       970.5  Rx         0020  5  0A 00 44 17 03 
  1263)       970.9  Rx         0022  5  0B 00 90 20 01 
  1264)       971.1  Rx         0021  5  00 00 00 00 00 
  1265)       971.5  Rx         0023  5  00 00 00 00 00 
  1266)       971.7  Rx         0020  5  0A 00 44 17 03 
  1267)       972.1  Rx         0022  5  0B 00 90 20 01 
  1268)       972.3  Rx         0021  5  00 00 00 00 00 
  1269)       972.8  Rx         0023  5  00 00 00 00 00 
  1270)       972.9  Rx         0020  5  0A 00 44 17 03 
  1271)       973.4  Rx         0022  5  0B 00 90 20 01 
  1272)       973.6  Rx         0021  5  00 00 00 00 00 
  1273)       974.0  Rx         0023  5  00 00 00 00 00 
  1274)       974.2  Rx         0020  5  0A 00 44 17 03 
  1275)       974.5  Rx         0022  5  0B 00 90 20 01 
  1276)       974.8  Rx         0021  5  00 00 00 00 00 
  1277)       975.1  Rx         0023  5  00 00 00 00 00 
  1278)       975.4  Rx         0020  5  0A 00 44 17 03 
  1279)       980.8  Rx         0021  5  00 00 00 00 00 
  1280)       981.0  Rx         0023  5  00 00 00 00 00 
  1281)       981.5  Rx         0020  5  0A 00 44 17 03 
  1282)       981.7  Rx         0022  5  0B 00 90 20 01 
  1283)       986.8  Rx         0021  5  00 00 00 00 00 
  1284)       987.0  Rx         0023  5  00 00 00 00 00 
  1285)       987.4  Rx         0020  5  0A 00 44 17 03 
  1286)       988.6  Rx         0020  5  0A 00 44 17 03 
  1287)       989.1  Rx         0021  5  00 00 00 00 00 
  1288)       996.3  Rx         0021  5  00 00 00 00 00 
  1289)       996.5  Rx         0022  5  0B 00 8F 20 03 
  1290)       996.9  Rx         0020  5  0A 00 44 17 03 
  1291)       997.1  Rx         0023  5  00 00 00 00 00 
  1292)       999.3  Rx         0020  5  0A 00 44 17 03 
  1293)      1000.4  Rx         0020  5  0A 00 44 17 03 
  1294)      1007.5  Rx         0020  5  0A 00 44 17 03 
  1295)      1007.6  Rx         0022  5  0B 00 8F 20 03 
  1296)      1008.1  Rx         0021  5  00 00 00 00 00 
  1297)      1008.3  Rx         0023  5  00 00 00 00 00 
  1298)      1010.4  Rx         0021  5  00 00 00 00 00 
  1299)      1011.6  Rx         0021  5  00 00 00 00 00 
  1300)      1011.8  Rx         0026  6  E9 0D 99 85 A4 31 
  1301)      1012.2  Rx         0020  5  0A 00 44 17 03 
  1302)      1012.4  Rx         0022  5  0B 00 8F 20 03 
  1303)      1017.5  Rx         0021  5  00 00 00 00 00 
  1304)      1017.7  Rx         0023  5  00 00 00 00 00 
  1305)      1018.2  Rx         0020  5  0A 00 44 17 01 
  1306)      1018.3  Rx         0022  5  0B 00 8F 20 03 
  1307)      1021.6  Rx         0020  5  0A 00 44 17 01 
  1308)      1021.8  Rx         0026  6  E9 0D 99 85 A4 31 
  1309)      1022.3  Rx         0021  5  00 00 00 00 00 
  1310)      1022.5  Rx         0022  5  0B 00 8F 20 03 
  1311)      1027.6  Rx         0020  5  0A 00 44 17 01 
  1312)      1027.8  Rx         0023  5  00 00 00 00 00 
  1313)      1028.2  Rx         0021  5  00 00 00 00 00 
  1314)      1028.4  Rx         0022  5  0B 00 8F 20 03 
  1315)      1031.7  Rx         0021  5  00 00 00 00 00 
  1316)      1033.5  Rx         0020  5  0A 00 43 17 03 
  1317)      1033.7  Rx         0022  5  0B 00 8F 20 01 
  1318)      1034.2  Rx         0021  5  00 00 00 00 00 
  1319)      1034.3  Rx         0023  5  00 00 00 00 00 
  1320)      1036.5  Rx         0021  5  00 00 00 00 00 
  1321)      1036.7  Rx         0023  5  00 00 00 00 00 
  1322)      1037.1  Rx         0020  5  0A 00 43 17 03 
  1323)      1037.3  Rx         0022  5  0B 00 8F 20 01 
  1324)      1039.5  Rx         0020  5  0A 00 43 17 03 
  1325)      1039.7  Rx         0022  5  0B 00 8F 20 01 
  1326)      1040.1  Rx         0021  5  00 00 00 00 00 
  1327)      1040.3  Rx         0023  5  00 00 00 00 00 
  1328)      1042.5  Rx         0021  5  00 00 00 00 00 
  1329)      1042.7  Rx         0023  5  00 00 00 00 00 
  1330)      1043.6  Rx         0021  5  00 00 00 00 00 
  1331)      1046.6  Rx         0020  5  0A 00 43 17 03 
  1332)      1046.7  Rx         0023  5  00 00 00 00 00 
  1333)      1047.2  Rx         0021  5  00 00 00 00 00 
  1334)      1047.4  Rx         0022  5  0B 00 8E 20 03 
  1335)      1049.5  Rx         0021  5  00 00 00 00 00 
  1336)      1049.7  Rx         0022  5  0B 00 8E 20 03 
  1337)      1050.1  Rx         0020  5  0A 00 43 17 03 
  1338)      1050.3  Rx         0023  5  00 00 00 00 00 
  1339)      1052.5  Rx         0020  5  0A 00 43 17 03 
  1340)      1052.7  Rx         0023  5  00 00 00 00 00 
  1341)      1054.8  Rx         0020  5  0A 00 43 17 03 
  1342)      1056.1  Rx         0020  5  0A 00 43 17 03 
  1343)      1056.5  Rx         0026  6  E9 0D 99 85 A4 31 
  1344)      1056.6  Rx         0021  5  00 00 00 00 00 
  1345)      1057.1  Rx         0022  5  0B 00 8E 20 03 
  1346)      1057.3  Rx         0020  5  0A 00 43 17 03 
  1347)      1059.4  Rx         0022  5  0B 00 8E 20 03 
  1348)      1059.9  Rx         0020  5  0A 00 43 17 03 
  1349)      1060.0  Rx         0023  5  00 00 00 00 00 
  1350)      1062.2  Rx         0020  5  0A 00 43 17 03 
  1351)      1062.4  Rx         0023  5  00 00 00 00 00 
  1352)      1065.8  Rx         0020  5  0A 00 43 17 03 
  1353)      1066.3  Rx         0021  5  00 00 00 00 00 
  1354)      1068.4  Rx         0023  5  00 00 00 00 00 
  1355)      1068.7  Rx         0021  5  00 00 00 00 00 
  1356)      1069.1  Rx         0022  5  0B 00 8E 20 03 
  1357)      1069.3  Rx         0020  5  0A 00 43 17 01 
  1358)      1070.2  Rx         0022  5  0B 00 8E 20 03 
  1359)      1070.5  Rx         0020  5  0A 00 43 17 01 
  1360)      1070.7  Rx         0023  5  00 00 00 00 00 
  1361)      1071.0  Rx         0021  5  00 00 00 00 00 
  1362)      1071.2  Rx         0022  5  0B 00 8E 20 03 
  1363)      1071.5  Rx         0020  5  0A 00 43 17 01 
  1364)      1071.6  Rx         0023  5  00 00 00 00 00 
  1365)      1072.0  Rx         0021  5  00 00 00 00 00 
  1366)      1072.2  Rx         0022  5  0B 00 8E 20 03 
  1367)      1072.6  Rx         0020  5  0A 00 43 17 01 
  1368)      1072.8  Rx         0023  5  00 00 00 00 00 
  1369)      1073.2  Rx         0021  5  00 00 00 00 00 
  1370)      1073.4  Rx         0022  5  0B 00 8E 20 03 
  1371)      1073.8  Rx         0020  5  0A 00 43 17 01 
  1372)      1074.0  Rx         0023  5  00 00 00 00 00 
  1373)      1074.4  Rx         0021  5  00 00 00 00 00 
  1374)      1074.6  Rx         0022  5  0B 00 8E 20 03 
  1375)      1075.0  Rx         0020  5  0A 00 43 17 01 
  1376)      1075.2  Rx         0023  5  00 00 00 00 00 
  1377)      1075.6  Rx         0021  5  00 00 00 00 00 
  1378)      1075.8  Rx         0022  5  0B 00 8E 20 01 
  1379)      1076.2  Rx         0020  5  0A 00 43 17 01 
  1380)      1076.4  Rx         0023  5  00 00 00 00 00 
  1381)      1076.8  Rx         0021  5  00 00 00 00 00 
  1382)      1078.0  Rx         0021  5  00 00 00 00 00 
  1383)      1078.5  Rx         0020  5  0A 00 43 17 01 
  1384)      1078.9  Rx         0026  6  E9 0D 99 85 A4 31 
  1385)      1079.1  Rx         0021  5  00 00 00 00 00 
  1386)      1079.5  Rx         0022  5  0B 00 8E 20 01 
  1387)      1079.7  Rx         0020  5  0A 00 43 17 01 
  1388)      1080.1  Rx         0023  5  00 00 00 00 00 
  1389)      1080.3  Rx         0021  5  00 00 00 00 00 
  1390)      1080.7  Rx         0022  5  0B 00 8E 20 01 
  1391)      1080.9  Rx         0020  5  0A 00 43 17 01 
  1392)      1081.3  Rx         0023  5  00 00 00 00 00 
  1393)      1081.5  Rx         0021  5  00 00 00 00 00 
  1394)      1081.9  Rx         0022  5  0B 00 8E 20 01 
  1395)      1082.1  Rx         0020  5  0A 00 43 17 01 
  1396)      1082.5  Rx         0023  5  00 00 00 00 00 
  1397)      1082.7  Rx         0021  5  00 00 00 00 00 
  1398)      1083.1  Rx         0022  5  0B 00 8E 20 01 
  1399)      1083.3  Rx         0020  5  0A 00 43 17 01 
  1400)      1083.6  Rx         0023  5  00 00 00 00 00 
  1401)      1083.8  Rx         0021  5  00 00 00 00 00 
  1402)      1084.1  Rx         0022  5  0B 00 8E 20 01 
  1403)      1084.3  Rx         0020  5  0A 00 43 17 01 
  1404)      1084.8  Rx         0023  5  00 00 00 00 00 
  1405)      1085.0  Rx         0021  5  00 00 00 00 00 
  1406)      1085.4  Rx         0022  5  0B 00 8E 20 01 
  1407)      1085.6  Rx         0020  5  0A 00 43 17 01 
  1408)      1086.1  Rx         0023  5  00 00 00 00 00 
  1409)      1086.2  Rx         0021  5  00 00 00 00 00 
  1410)      1086.7  Rx         0022  5  0B 00 8E 20 01 
  1411)      1086.9  Rx         0020  5  0A 00 43 17 01 
  1412)      1087.4  Rx         0023  5  00 00 00 00 00 
  1413)      1087.5  Rx         0021  5  00 00 00 00 00 
  1414)      1088.0  Rx         0022  5  0B 00 8E 20 01 
  1415)      1088.2  Rx         0020  5  0A 00 43 17 01 
  1416)      1088.6  Rx         0023  5  00 00 00 00 00 
  1417)      1088.8  Rx         0021  5  00 00 00 00 00 
  1418)      1090.6  Rx         0020  5  0A 00 43 17 01 
  1419)      1092.3  Rx         0021  5  00 00 00 00 00 
  1420)      1092.5  Rx         0023  5  00 00 00 00 00 
  1421)      1093.0  Rx         0020  5  0A 00 43 17 01 
  1422)      1093.2  Rx         0022  5  0B 00 8E 20 01 
  1423)      1093.6  Rx         0021  5  00 00 00 00 00 
  1424)      1093.8  Rx         0023  5  00 00 00 00 00 
  1425)      1094.3  Rx         0020  5  0A 00 43 17 01 
  1426)      1094.4  Rx         0022  5  0B 00 8E 20 01 
  1427)      1094.9  Rx         0021  5  00 00 00 00 00 
  1428)      1095.1  Rx         0023  5  00 00 00 00 00 
  1429)      1095.5  Rx         0020  5  0A 00 43 17 01 
  1430)      1095.7  Rx         0022  5  0B 00 8E 20 01 
  1431)      1096.1  Rx         0021  5  00 00 00 00 00 
  1432)      1096.3  Rx         0023  5  00 00 00 00 00 
  1433)      1096.7  Rx         0020  5  0A 00 43 17 01 
  1434)      1096.9  Rx         0022  5  0B 00 8E 20 01 
  1435)      1097.3  Rx         0021  5  00 00 00 00 00 
  1436)      1097.5  Rx         0023  5  00 00 00 00 00 
  1437)      1097.9  Rx         0020  5  0A 00 43 17 01 
  1438)      1098.1  Rx         0022  5  0B 00 8E 20 01 
  1439)      1098.5  Rx         0021  5  00 00 00 00 00 
  1440)      1098.8  Rx         0023  5  00 00 00 00 00 
  1441)      1099.2  Rx         0020  5  0A 00 43 17 01 
  1442)      1099.3  Rx         0022  5  0B 00 8E 20 01 
  1443)      1099.8  Rx         0021  5  00 00 00 00 00 
  1444)      1100.0  Rx         0023  5  00 00 00 00 00 
  1445)      1100.5  Rx         0020  5  0A 00 43 17 01 
  1446)      1103.8  Rx         0022  5  0B 00 8D 20 03 
  1447)      1104.0  Rx         0020  5  0A 00 43 17 01 
  1448)      1104.5  Rx         0023  5  00 00 00 00 00 
  1449)      1104.7  Rx         0021  5  00 00 00 00 00 
  1450)      1105.1  Rx         0022  5  0B 00 8D 20 03 
  1451)      1105.3  Rx         0020  5  0A 00 43 17 01 
  1452)      1111.8  Rx         0021  5  00 00 00 00 00 
  1453)      1112.2  Rx         0026  6  E9 0D 99 85 A4 31 
  1454)      1112.4  Rx         0020  5  0A 00 43 17 01 
  1455)      1112.8  Rx         0022  5  0B 00 8D 20 03 
  1456)      1113.0  Rx         0021  5  00 00 00 00 00 
  1457)      1114.5  Rx         0023  5  00 00 00 00 00 
  1458)      1114.9  Rx         0020  5  0A 00 43 17 01 
  1459)      1115.1  Rx         0022  5  0B 00 8D 20 03 
  1460)      1117.2  Rx         0020  5  0A 00 43 17 01 
  1461)      1117.4  Rx         0022  5  0B 00 8D 20 03 
  1462)      1117.9  Rx         0021  5  00 00 00 00 00 
  1463)      1118.1  Rx         0023  5  00 00 00 00 00 
  1464)      1120.2  Rx         0021  5  00 00 00 00 00 
  1465)      1120.4  Rx         0023  5  00 00 00 00 00 
  1466)      1120.9  Rx         0020  5  0A 00 43 17 01 
  1467)      1121.0  Rx         0022  5  0B 00 8D 20 03 
  1468)      1122.1  Rx         0020  5  0A 00 42 17 03 
  1469)      1122.5  Rx         0021  5  00 00 00 00 00 
  1470)      1123.2  Rx         0020  5  0A 00 42 17 03 
  1471)      1123.4  Rx         0026  6  E9 0D 99 85 A4 31 
  1472)      1123.8  Rx         0021  5  00 00 00 00 00 
  1473)      1124.0  Rx         0022  5  0B 00 8D 20 03 
  1474)      1124.4  Rx         0020  5  0A 00 42 17 03 
  1475)      1124.6  Rx         0023  5  00 00 00 00 00 
  1476)      1125.0  Rx         0021  5  00 00 00 00 00 
  1477)      1125.2  Rx         0022  5  0B 00 8D 20 03 
  1478)      1125.6  Rx         0020  5  0A 00 42 17 03 
  1479)      1125.8  Rx         0023  5  00 00 00 00 00 
  1480)      1126.2  Rx         0021  5  00 00 00 00 00 
  1481)      1126.4  Rx         0022  5  0B 00 8D 20 03 
  1482)      1126.8  Rx         0020  5  0A 00 42 17 03 
  1483)      1127.0  Rx         0023  5  00 00 00 00 00 
  1484)      1127.5  Rx         0021  5  00 00 00 00 00 
  1485)      1127.6  Rx         0022  5  0B 00 8D 20 03 
  1486)      1128.0  Rx         0020  5  0A 00 42 17 03 
  1487)      1128.2  Rx         0023  5  00 00 00 00 00 
  1488)      1128.7  Rx         0021  5  00 00 00 00 00 
  1489)      1128.8  Rx         0022  5  0B 00 8D 20 03 
  1490)      1129.3  Rx         0020  5  0A 00 42 17 03 
  1491)      1129.5  Rx         0023  5  00 00 00 00 00 
  1492)      1129.9  Rx         0021  5  00 00 00 00 00 
  1493)      1130.1  Rx         0022  5  0B 00 8D 20 01 
  1494)      1130.5  Rx         0020  5  0A 00 42 17 03 
  1495)      1130.7  Rx         0023  5  00 00 00 00 00 
  1496)      1131.1  Rx         0021  5  00 00 00 00 00 
  1497)      1131.3  Rx         0022  5  0B 00 8D 20 01 
  1498)      1131.7  Rx         0020  5  0A 00 42 17 03 
  1499)      1131.9  Rx         0023  5  00 00 00 00 00 
  1500)      1132.3  Rx         0021  5  00 00 00 00 00 
  1501)      1132.5  Rx         0022  5  0B 00 8D 20 01 
  1502)      1132.9  Rx         0020  5  0A 00 42 17 03 
  1503)      1133.1  Rx         0023  5  00 00 00 00 00 
  1504)      1133.5  Rx         0021  5  00 00 00 00 00 
  1505)      1135.3  Rx         0020  5  0A 00 42 17 03 
  1506)      1135.5  Rx         0026  6  E9 0D 99 85 A4 31 
  1507)      1135.8  Rx         0021  5  00 00 00 00 00 
  1508)      1136.0  Rx         0022  5  0B 00 8D 20 01 
  1509)      1136.3  Rx         0020  5  0A 00 42 17 03 
  1510)      1136.5  Rx         0023  5  00 00 00 00 00 
  1511)      1136.9  Rx         0021  5  00 00 00 00 00 
  1512)      1137.1  Rx         0022  5  0B 00 8C 20 03 
  1513)      1137.5  Rx         0020  5  0A 00 42 17 03 
  1514)      1137.7  Rx         0023  5  00 00 00 00 00 
  1515)      1138.1  Rx         0021  5  00 00 00 00 00 
  1516)      1138.3  Rx         0022  5  0B 00 8C 20 03 
  1517)      1138.7  Rx         0020  5  0A 00 42 17 03 
  1518)      1138.9  Rx         0023  5  00 00 00 00 00 
  1519)      1145.8  Rx         0020  5  0A 00 42 17 03 
  1520)      1147.5  Rx         0021  5  00 00 00 00 00 
  1521)      1147.7  Rx         0023  5  00 00 00 00 00 
  1522)      1148.2  Rx         0020  5  0A 00 42 17 03 
  1523)      1148.4  Rx         0022  5  0B 00 8C 20 03 
  1524)      1151.7  Rx         0020  5  0A 00 42 17 03 
  1525)      1151.9  Rx         0022  5  0B 00 8C 20 03 
  1526)      1155.8  Rx         0021  5  00 00 00 00 00 
  1527)      1156.9  Rx         0021  5  00 00 00 00 00 
  1528)      1160.5  Rx         0021  5  00 00 00 00 00 
  1529)      1160.6  Rx         0022  5  0B 00 8C 20 03 
  1530)      1161.1  Rx         0020  5  0A 00 42 17 03 
  1531)      1161.3  Rx         0023  5  00 00 00 00 00 
  1532)      1166.4  Rx         0021  5  00 00 00 00 00 
  1533)      1166.5  Rx         0022  5  0B 00 8C 20 01 
  1534)      1167.0  Rx         0020  5  0A 00 42 17 03 
  1535)      1167.2  Rx         0023  5  00 00 00 00 00 
  1536)      1168.8  Rx         0021  5  00 00 00 00 00 
  1537)      1169.7  Rx         0026  6  E9 0D 99 85 A4 31 
  1538)      1170.1  Rx         0021  5  00 00 00 00 00 
  1539)      1170.2  Rx         0022  5  0B 00 8C 20 01 
  1540)      1173.0  Rx         0020  5  0A 00 42 17 03 
  1541)      1173.2  Rx         0023  5  00 00 00 00 00 
  1542)      1176.5  Rx         0020  5  0A 00 42 17 03 
  1543)      1176.7  Rx         0023  5  00 00 00 00 00 
  1544)      1180.0  Rx         0020  5  0A 00 42 17 03 
  1545)      1181.9  Rx         0021  5  00 00 00 00 00 
  1546)      1182.0  Rx         0022  5  0B 00 8C 20 01 
  1547)      1182.5  Rx         0020  5  0A 00 42 17 03 
  1548)      1182.7  Rx         0023  5  00 00 00 00 00 
  1549)      1183.1  Rx         0021  5  00 00 00 00 00 
  1550)      1183.3  Rx         0022  5  0B 00 8B 20 03 
  1551)      1188.4  Rx         0020  5  0A 00 42 17 03 
  1552)      1188.6  Rx         0023  5  00 00 00 00 00 
  1553)      1189.1  Rx         0021  5  00 00 00 00 00 
  1554)      1190.3  Rx         0021  5  00 00 00 00 00 
  1555)      1190.8  Rx         0020  5  0A 00 42 17 01 
  1556)      1191.0  Rx         0026  6  E9 0D 99 85 A4 31 
  1557)      1191.5  Rx         0021  5  00 00 00 00 00 
  1558)      1191.7  Rx         0022  5  0B 00 8B 20 03 
  1559)      1192.1  Rx         0020  5  0A 00 42 17 01 
  1560)      1192.3  Rx         0023  5  00 00 00 00 00 
  1561)      1197.4  Rx         0021  5  00 00 00 00 00 
  1562)      1197.6  Rx         0022  5  0B 00 8B 20 01 
  1563)      1198.0  Rx         0020  5  0A 00 42 17 01 
  1564)      1198.2  Rx         0023  5  00 00 00 00 00 
  1565)      1200.4  Rx         0020  5  0A 00 42 17 01 
  1566)      1200.5  Rx         0023  5  00 00 00 00 00 
  1567)      1201.0  Rx         0021  5  00 00 00 00 00 
  1568)      1202.2  Rx         0021  5  00 00 00 00 00 
  1569)      1202.4  Rx         0026  6  E9 0D 99 85 A4 31 
  1570)      1202.7  Rx         0020  5  0A 00 42 17 01 
  1571)      1202.9  Rx         0022  5  0B 00 8B 20 01 
  1572)      1203.4  Rx         0021  5  00 00 00 00 00 
  1573)      1203.6  Rx         0023  5  00 00 00 00 00 
  1574)      1207.5  Rx         0020  5  0A 00 42 17 01 
  1575)      1207.7  Rx         0022  5  0B 00 8B 20 01 
  1576)      1208.1  Rx         0021  5  00 00 00 00 00 
  1577)      1208.3  Rx         0023  5  00 00 00 00 00 
  1578)      1210.4  Rx         0021  5  00 00 00 00 00 
  1579)      1210.7  Rx         0023  5  00 00 00 00 00 
  1580)      1211.1  Rx         0020  5  0A 00 42 17 01 
  1581)      1211.3  Rx         0022  5  0B 00 8B 20 01 
  1582)      1212.9  Rx         0021  5  00 00 00 00 00 
  1583)      1213.5  Rx         0020  5  0A 00 42 17 01 
  1584)      1213.7  Rx         0026  6  E9 0D 99 85 A4 31 
  1585)      1214.0  Rx         0021  5  00 00 00 00 00 
  1586)      1214.2  Rx         0022  5  0B 00 8A 20 03 
  1587)      1216.4  Rx         0021  5  00 00 00 00 00 
  1588)      1216.6  Rx         0022  5  0B 00 8A 20 03 
  1589)      1218.8  Rx         0021  5  00 00 00 00 00 
  1590)      1218.9  Rx         0022  5  0B 00 8A 20 03 
  1591)      1219.4  Rx         0020  5  0A 00 42 17 01 
  1592)      1219.6  Rx         0023  5  00 00 00 00 00 
  1593)      1220.0  Rx         0021  5  00 00 00 00 00 
  1594)      1220.2  Rx         0022  5  0B 00 8A 20 03 
  1595)      1220.6  Rx         0020  5  0A 00 42 17 01 
  1596)      1220.8  Rx         0023  5  00 00 00 00 00 
  1597)      1221.2  Rx         0021  5  00 00 00 00 00 
  1598)      1221.4  Rx         0022  5  0B 00 8A 20 03 
  1599)      1221.8  Rx         0020  5  0A 00 42 17 01 
  1600)      1222.0  Rx         0023  5  00 00 00 00 00 
  1601)      1222.4  Rx         0021  5  00 00 00 00 00 
  1602)      1222.6  Rx         0022  5  0B 00 8A 20 03 
  1603)      1223.0  Rx         0020  5  0A 00 42 17 01 
  1604)      1223.2  Rx         0023  5  00 00 00 00 00 
  1605)      1223.6  Rx         0021  5  00 00 00 00 00 
  1606)      1224.7  Rx         0021  5  00 00 00 00 00 
  1607)      1225.3  Rx         0020  5  0A 00 42 17 01 
  1608)      1225.6  Rx         0026  6  E9 0D 99 85 A4 31 
  1609)      1225.9  Rx         0021  5  00 00 00 00 00 
  1610)      1226.2  Rx         0022  5  0B 00 8A 20 03 
  1611)      1226.5  Rx         0020  5  0A 00 42 17 01 
  1612)      1226.8  Rx         0023  5  00 00 00 00 00 
  1613)      1227.1  Rx         0021  5  00 00 00 00 00 
  1614)      1227.4  Rx         0022  5  0B 00 8A 20 03 
  1615)      1227.7  Rx         0020  5  0A 00 42 17 01 
  1616)      1228.1  Rx         0023  5  00 00 00 00 00 
  1617)      1228.2  Rx         0021  5  00 00 00 00 00 
  1618)      1228.7  Rx         0022  5  0B 00 8A 20 03 
  1619)      1228.8  Rx         0020  5  0A 00 42 17 01 
  1620)      1229.1  Rx         0023  5  00 00 00 00 00 
  1621)      1229.4  Rx         0021  5  00 00 00 00 00 
  1622)      1229.6  Rx         0022  5  0B 00 8A 20 03 
  1623)      1229.9  Rx         0020  5  0A 00 42 17 01 
  1624)      1230.1  Rx         0023  5  00 00 00 00 00 
  1625)      1230.4  Rx         0021  5  00 00 00 00 00 
  1626)      1230.6  Rx         0022  5  0B 00 8A 20 03 
  1627)      1230.9  Rx         0020  5  0A 00 42 17 01 
  1628)      1231.1  Rx         0023  5  00 00 00 00 00 
  1629)      1231.4  Rx         0021  5  00 00 00 00 00 
  1630)      1231.6  Rx         0022  5  0B 00 8A 20 03 
  1631)      1231.9  Rx         0020  5  0A 00 42 17 01 
  1632)      1232.0  Rx         0023  5  00 00 00 00 00 
  1633)      1232.4  Rx         0021  5  00 00 00 00 00 
  1634)      1232.6  Rx         0022  5  0B 00 8A 20 03 
  1635)      1233.1  Rx         0020  5  0A 00 42 17 01 
  1636)      1233.3  Rx         0023  5  00 00 00 00 00 
  1637)      1233.8  Rx         0021  5  00 00 00 00 00 
  1638)      1234.4  Rx         0020  5  0A 00 42 17 01 
  1639)      1238.6  Rx         0021  5  00 00 00 00 00 
  1640)      1238.8  Rx         0023  5  00 00 00 00 00 
  1641)      1239.3  Rx         0020  5  0A 00 42 17 01 
  1642)      1239.5  Rx         0022  5  0B 00 8A 20 01 
  1643)      1239.9  Rx         0021  5  00 00 00 00 00 
  1644)      1240.1  Rx         0023  5  00 00 00 00 00 
  1645)      1240.5  Rx         0020  5  0A 00 42 17 01 
  1646)      1240.8  Rx         0022  5  0B 00 8A 20 01 
  1647)      1241.2  Rx         0021  5  00 00 00 00 00 
  1648)      1241.4  Rx         0023  5  00 00 00 00 00 
  1649)      1241.8  Rx         0020  5  0A 00 42 17 01 
  1650)      1242.0  Rx         0022  5  0B 00 8A 20 01 
  1651)      1242.4  Rx         0021  5  00 00 00 00 00 
  1652)      1242.6  Rx         0023  5  00 00 00 00 00 
  1653)      1243.0  Rx         0020  5  0A 00 42 17 01 
  1654)      1243.1  Rx         0022  5  0B 00 8A 20 01 
  1655)      1243.6  Rx         0021  5  00 00 00 00 00 
  1656)      1243.8  Rx         0023  5  00 00 00 00 00 
  1657)      1244.2  Rx         0020  5  0A 00 42 17 01 
  1658)      1256.5  Rx         0021  5  00 00 00 00 00 
  1659)      1258.3  Rx         0020  5  0A 00 42 17 01 
  1660)      1258.4  Rx         0026  6  E9 0D 99 85 A4 31 
  1661)      1258.9  Rx         0021  5  00 00 00 00 00 
  1662)      1259.1  Rx         0022  5  0B 00 89 20 03 
  1663)      1262.4  Rx         0021  5  00 00 00 00 00 
  1664)      1262.6  Rx         0022  5  0B 00 89 20 03 
  1665)      1267.7  Rx         0020  5  0A 00 42 17 01 
  1666)      1269.3  Rx         0026  6  E9 0D 99 85 A4 31 
  1667)      1269.4  Rx         0021  5  00 00 00 00 00 
  1668)      1269.9  Rx         0022  5  0B 00 89 20 01 
  1669)      1270.1  Rx         0020  5  0A 00 42 17 01 
  1670)      1270.5  Rx         0023  5  00 00 00 00 00 
  1671)      1270.7  Rx         0021  5  00 00 00 00 00 
  1672)      1271.2  Rx         0022  5  0B 00 89 20 01 
  1673)      1271.4  Rx         0020  5  0A 00 42 17 01 
  1674)      1276.4  Rx         0023  5  00 00 00 00 00 
  1675)      1276.8  Rx         0021  5  00 00 00 00 00 
  1676)      1278.5  Rx         0020  5  0A 00 42 17 01 
  1677)      1279.0  Rx         0026  6  E9 0D 99 85 A4 31 
  1678)      1279.2  Rx         0021  5  00 00 00 00 00 
  1679)      1279.6  Rx         0022  5  0B 00 89 20 01 
  1680)      1279.9  Rx         0020  5  0A 00 42 17 01 
  1681)      1281.9  Rx         0022  5  0B 00 89 20 01 
  1682)      1282.5  Rx         0020  5  0A 00 42 17 01 
  1683)      1282.7  Rx         0023  5  00 00 00 00 00 
  1684)      1286.6  Rx         0021  5  00 00 00 00 00 
  1685)      1286.8  Rx         0022  5  0B 00 88 20 03 
  1686)      1288.9  Rx         0021  5  00 00 00 00 00 
  1687)      1290.6  Rx         0026  6  E9 0D 99 85 A4 31 
  1688)      1290.7  Rx         0020  5  0A 00 42 17 01 
  1689)      1291.2  Rx         0022  5  0B 00 88 20 03 
  1690)      1291.4  Rx         0021  5  00 00 00 00 00 
  1691)      1291.8  Rx         0023  5  00 00 00 00 00 
  1692)      1292.0  Rx         0020  5  0A 00 42 17 01 
  1693)      1292.5  Rx         0022  5  0B 00 88 20 03 
  1694)      1292.7  Rx         0021  5  00 00 00 00 00 
  1695)      1297.7  Rx         0023  5  00 00 00 00 00 
  1696)      1297.9  Rx         0020  5  0A 00 42 17 01 
  1697)      1298.4  Rx         0022  5  0B 00 88 20 03 
  1698)      1298.6  Rx         0021  5  00 00 00 00 00 
  1699)      1300.9  Rx         0021  5  00 00 00 00 00 
  1700)      1303.1  Rx         0023  5  00 00 00 00 00 
  1701)      1303.3  Rx         0021  5  00 00 00 00 00 
  1702)      1303.5  Rx         0022  5  0B 00 88 20 01 
  1703)      1303.8  Rx         0020  5  0A 00 42 17 01 
  1704)      1304.2  Rx         0023  5  00 00 00 00 00 
  1705)      1304.4  Rx         0021  5  00 00 00 00 00 
  1706)      1304.8  Rx         0022  5  0B 00 88 20 01 
  1707)      1305.0  Rx         0020  5  0A 00 42 17 01 
  1708)      1305.4  Rx         0023  5  00 00 00 00 00 
  1709)      1305.6  Rx         0021  5  00 00 00 00 00 
  1710)      1306.0  Rx         0022  5  0B 00 88 20 01 
  1711)      1306.2  Rx         0020  5  0A 00 42 17 01 
  1712)      1306.6  Rx         0023  5  00 00 00 00 00 
  1713)      1306.8  Rx         0021  5  00 00 00 00 00 
  1714)      1307.2  Rx         0022  5  0B 00 88 20 01 
  1715)      1307.4  Rx         0020  5  0A 00 42 17 01 
  1716)      1307.8  Rx         0023  5  00 00 00 00 00 
  1717)      1308.0  Rx         0021  5  00 00 00 00 00 
  1718)      1308.4  Rx         0022  5  0B 00 88 20 01 
  1719)      1308.6  Rx         0020  5  0A 00 42 17 01 
  1720)      1309.0  Rx         0023  5  00 00 00 00 00 
  1721)      1309.2  Rx         0021  5  00 00 00 00 00 
  1722)      1309.6  Rx         0022  5  0B 00 88 20 01 
  1723)      1309.9  Rx         0020  5  0A 00 42 17 01 
  1724)      1310.2  Rx         0023  5  00 00 00 00 00 
  1725)      1310.5  Rx         0021  5  00 00 00 00 00 
  1726)      1310.9  Rx         0022  5  0B 00 88 20 01 
  1727)      1311.1  Rx         0020  5  0A 00 42 17 01 
  1728)      1311.5  Rx         0023  5  00 00 00 00 00 
  1729)      1311.6  Rx         0021  5  00 00 00 00 00 
  1730)      1313.1  Rx         0026  6  E9 0D 99 85 A4 31 
  1731)      1313.4  Rx         0020  5  0A 00 42 17 01 
  1732)      1313.6  Rx         0022  5  0B 00 88 20 01 
  1733)      1314.0  Rx         0021  5  00 00 00 00 00 
  1734)      1314.2  Rx         0023  5  00 00 00 00 00 
  1735)      1314.6  Rx         0020  5  0A 00 42 17 01 
  1736)      1314.8  Rx         0022  5  0B 00 88 20 01 
  1737)      1315.2  Rx         0021  5  00 00 00 00 00 
  1738)      1315.4  Rx         0023  5  00 00 00 00 00 
  1739)      1315.8  Rx         0020  5  0A 00 42 17 01 
  1740)      1316.0  Rx         0022  5  0B 00 88 20 01 
  1741)      1316.4  Rx         0021  5  00 00 00 00 00 
  1742)      1316.6  Rx         0023  5  00 00 00 00 00 
  1743)      1317.0  Rx         0020  5  0A 00 42 17 01 
