;$FILEVERSION=1.1
;$STARTTIME=45831.6889274306
;
;   Start time: 2025/6/23 16:32:03.330.0
;   Generated by PCAN-View v5.3.2.952
;
;   Message Number
;   |         Time Offset (ms)
;   |         |        Type
;   |         |        |        ID (hex)
;   |         |        |        |     Data Length
;   |         |        |        |     |   Data Bytes (hex) ...
;   |         |        |        |     |   |
;---+--   ----+----  --+--  ----+---  +  -+ -- -- -- -- -- -- --
 11940)     10669.0  Rx         0023  5  00 00 00 00 00 
 11941)     10669.3  Rx         0025  8  26 02 D0 02 32 02 F8 03 
 11942)     10669.5  Rx         0021  5  00 00 00 00 00 
 11943)     10669.6  Rx         0022  5  0B 00 94 1E 01 
 11944)     10669.9  Rx         0024  5  00 00 1F 13 00 
 11945)     10670.0  Rx         0020  5  0A 00 30 1A 03 
 11946)     10670.4  Rx         0031  6  C3 80 27 80 D1 80 
 11947)     10670.6  Rx         0021  5  00 00 00 00 00 
 11948)     10670.8  Rx         0025  8  26 02 CE 02 30 02 F8 03 
 11949)     10671.1  Rx         0020  5  0A 00 30 1A 03 
 11950)     10671.3  Rx         0024  5  00 00 1F 13 00 
 11951)     10671.6  Rx         0021  5  00 00 00 00 00 
 11952)     10672.1  Rx         0020  5  0A 00 30 1A 03 
 11953)     10672.3  Rx         0025  8  25 02 CD 02 2F 02 F4 03 
 11954)     10672.6  Rx         0021  5  00 00 00 00 00 
 11955)     10672.8  Rx         0024  5  00 00 FB 12 00 
 11956)     10673.0  Rx         0030  6  55 1B FF 85 0A BA 
 11957)     10673.2  Rx         0020  5  0A 00 31 1A 01 
 11958)     10673.7  Rx         0021  5  00 00 00 00 00 
 11959)     10673.9  Rx         0025  8  27 02 CB 02 2F 02 F5 03 
 11960)     10674.2  Rx         0020  5  0A 00 31 1A 01 
 11961)     10674.5  Rx         0024  5  00 00 1F 13 00 
 11962)     10674.8  Rx         0021  5  00 00 00 00 00 
 11963)     10674.9  Rx         0031  6  D1 80 42 80 DD 80 
 11964)     10675.2  Rx         0020  5  0A 00 31 1A 01 
 11965)     10675.5  Rx         0025  8  25 02 C9 02 2E 02 F7 03 
 11966)     10675.7  Rx         0021  5  00 00 00 00 00 
 11967)     10676.0  Rx         0024  5  00 00 1F 13 00 
 11968)     10676.3  Rx         0020  5  0A 00 31 1A 01 
 11969)     10676.6  Rx         0030  6  3E 1B E8 85 F3 B9 
 11970)     10676.8  Rx         0021  5  00 00 00 00 00 
 11971)     10677.0  Rx         0025  8  27 02 C8 02 2C 02 F3 03 
 11972)     10677.3  Rx         0020  5  0A 00 31 1A 01 
 11973)     10677.5  Rx         0024  5  00 00 1F 13 00 
 11974)     10677.8  Rx         0021  5  00 00 00 00 00 
 11975)     10678.3  Rx         0020  5  0A 00 31 1A 01 
 11976)     10678.6  Rx         0025  8  26 02 C6 02 2B 02 F0 03 
 11977)     10678.9  Rx         0021  5  00 00 00 00 00 
 11978)     10679.1  Rx         0024  5  00 00 FB 12 00 
 11979)     10679.2  Rx         0031  6  D1 80 42 80 DD 80 
 11980)     10679.4  Rx         0020  5  0A 00 31 1A 03 
 11981)     10679.9  Rx         0021  5  00 00 00 00 00 
 11982)     10680.2  Rx         0025  8  26 02 C6 02 2A 02 F2 03 
 11983)     10680.4  Rx         0020  5  0A 00 31 1A 03 
 11984)     10680.6  Rx         0024  5  00 00 1F 13 00 
 11985)     10680.9  Rx         0021  5  00 00 00 00 00 
 11986)     10681.5  Rx         0020  5  0A 00 31 1A 03 
 11987)     10681.7  Rx         0025  8  28 02 C5 02 2A 02 F0 03 
 11988)     10681.9  Rx         0030  6  3E 1B E8 85 F3 B9 
 11989)     10682.1  Rx         0021  5  00 00 00 00 00 
 11990)     10682.3  Rx         0024  5  00 00 1F 13 00 
 11991)     10682.6  Rx         0020  5  0A 00 31 1A 03 
 11992)     10683.1  Rx         0021  5  00 00 00 00 00 
 11993)     10683.3  Rx         0025  8  2A 02 C5 02 29 02 F0 03 
 11994)     10683.6  Rx         0020  5  0A 00 31 1A 03 
 11995)     10683.8  Rx         0024  5  00 00 FB 12 00 
 11996)     10684.1  Rx         0021  5  00 00 00 00 00 
 11997)     10684.3  Rx         0031  6  D1 80 42 80 DD 80 
 11998)     10684.6  Rx         0020  5  0A 00 31 1A 03 
 11999)     10684.9  Rx         0025  8  28 02 C3 02 28 02 F0 03 
 12000)     10685.1  Rx         0021  5  00 00 00 00 00 
 12001)     10685.3  Rx         0024  5  00 00 1F 13 00 
 12002)     10685.6  Rx         0020  5  0A 00 31 1A 03 
 12003)     10686.0  Rx         0030  6  27 1B D1 85 E8 B9 
 12004)     10686.2  Rx         0021  5  00 00 00 00 00 
 12005)     10686.4  Rx         0025  8  2A 02 C2 02 28 02 EA 03 
 12006)     10686.7  Rx         0020  5  0A 00 31 1A 03 
 12007)     10686.9  Rx         0024  5  00 00 FB 12 00 
 12008)     10687.2  Rx         0021  5  00 00 00 00 00 
 12009)     10687.6  Rx         0031  6  9A 80 45 80 F6 80 
 12010)     10687.8  Rx         0020  5  0A 00 31 1A 03 
 12011)     10688.0  Rx         0025  8  2A 02 C2 02 26 02 E8 03 
 12012)     10688.3  Rx         0021  5  00 00 00 00 00 
 12013)     10688.5  Rx         0024  5  00 00 1F 13 00 
 12014)     10688.8  Rx         0020  5  0A 00 31 1A 03 
 12015)     10689.3  Rx         0021  5  00 00 00 00 00 
 12016)     10689.6  Rx         0025  8  2B 02 C0 02 25 02 E7 03 
 12017)     10689.8  Rx         0020  5  0A 00 31 1A 03 
 12018)     10690.0  Rx         0024  5  00 00 1F 13 00 
 12019)     10690.2  Rx         0030  6  27 1B D1 85 E8 B9 
 12020)     10690.4  Rx         0021  5  00 00 00 00 00 
 12021)     10691.0  Rx         0020  5  0A 00 31 1A 03 
 12022)     10691.2  Rx         0025  8  2C 02 C1 02 25 02 E6 03 
 12023)     10691.5  Rx         0021  5  00 00 00 00 00 
 12024)     10691.7  Rx         0024  5  00 00 FB 12 00 
 12025)     10692.0  Rx         0020  5  0A 00 31 1A 03 
 12026)     10692.5  Rx         0021  5  00 00 00 00 00 
 12027)     10692.7  Rx         0025  8  2C 02 C0 02 25 02 E3 03 
 12028)     10692.9  Rx         0031  6  9A 80 45 80 F6 80 
 12029)     10693.1  Rx         0020  5  0A 00 31 1A 03 
 12030)     10693.3  Rx         0024  5  00 00 FB 12 00 
 12031)     10693.6  Rx         0021  5  00 00 00 00 00 
 12032)     10694.1  Rx         0020  5  0A 00 31 1A 03 
 12033)     10694.3  Rx         0025  8  2C 02 BF 02 24 02 DF 03 
 12034)     10694.6  Rx         0021  5  00 00 00 00 00 
 12035)     10694.9  Rx         0030  6  10 1B AF 85 DD B9 
 12036)     10695.0  Rx         0024  5  00 00 1F 13 00 
 12037)     10695.2  Rx         0020  5  0A 00 31 1A 03 
 12038)     10695.8  Rx         0021  5  00 00 00 00 00 
 12039)     10696.0  Rx         0025  8  2F 02 BF 02 21 02 DD 03 
 12040)     10696.2  Rx         0020  5  0A 00 31 1A 03 
 12041)     10696.5  Rx         0031  6  2C 80 30 80 07 81 
 12042)     10696.7  Rx         0024  5  00 00 FB 12 00 
 12043)     10696.9  Rx         0021  5  00 00 00 00 00 
 12044)     10697.4  Rx         0020  5  0A 00 31 1A 03 
 12045)     10697.6  Rx         0025  8  2F 02 BE 02 21 02 D9 03 
 12046)     10697.9  Rx         0021  5  00 00 00 00 00 
 12047)     10698.1  Rx         0024  5  00 00 1F 13 00 
 12048)     10698.4  Rx         0020  5  0A 00 31 1A 03 
 12049)     10698.9  Rx         0030  6  10 1B AF 85 DD B9 
 12050)     10699.1  Rx         0021  5  00 00 00 00 00 
 12051)     10699.3  Rx         0025  8  2E 02 BD 02 20 02 D8 03 
 12052)     10699.5  Rx         0020  5  0A 00 31 1A 03 
 12053)     10699.8  Rx         0024  5  00 00 FB 12 00 
 12054)     10700.1  Rx         0021  5  00 00 00 00 00 
 12055)     10700.6  Rx         0020  5  0A 00 31 1A 03 
 12056)     10700.8  Rx         0025  8  30 02 BC 02 20 02 D4 03 
 12057)     10701.1  Rx         0021  5  00 00 00 00 00 
 12058)     10701.3  Rx         0024  5  00 00 1F 13 00 
 12059)     10701.5  Rx         0031  6  2C 80 30 80 07 81 
 12060)     10701.7  Rx         0020  5  0A 00 31 1A 03 
 12061)     10702.3  Rx         0025  8  31 02 BB 02 1E 02 D4 03 
 12062)     10702.4  Rx         0021  5  00 00 00 00 00 
 12063)     10702.7  Rx         0024  5  00 00 1F 13 00 
 12064)     10703.0  Rx         0020  5  0A 00 31 1A 03 
 12065)     10703.5  Rx         0021  5  00 00 00 00 00 
 12066)     10703.7  Rx         0025  8  31 02 BA 02 1E 02 D3 03 
 12067)     10704.0  Rx         0020  5  0A 00 31 1A 03 
 12068)     10704.2  Rx         0030  6  10 1B AF 85 DD B9 
 12069)     10704.4  Rx         0024  5  00 00 1F 13 00 
 12070)     10704.6  Rx         0021  5  00 00 00 00 00 
 12071)     10705.1  Rx         0020  5  0A 00 31 1A 03 
 12072)     10705.3  Rx         0025  8  34 02 B8 02 1C 02 D0 03 
 12073)     10705.6  Rx         0021  5  00 00 00 00 00 
 12074)     10705.8  Rx         0024  5  00 00 FB 12 00 
 12075)     10706.0  Rx         0031  6  C2 7F 28 80 22 81 
 12076)     10706.2  Rx         0020  5  0A 00 31 1A 03 
 12077)     10706.7  Rx         0025  8  33 02 B6 02 1D 02 CF 03 
 12078)     10706.9  Rx         0021  5  00 00 00 00 00 
 12079)     10707.2  Rx         0024  5  00 00 1F 13 00 
 12080)     10707.4  Rx         0020  5  0A 00 31 1A 03 
 12081)     10707.6  Rx         0030  6  FA 1A 8D 85 E8 B9 
 12082)     10708.0  Rx         0021  5  00 00 00 00 00 
 12083)     10708.2  Rx         0025  8  33 02 B3 02 1C 02 CC 03 
 12084)     10708.4  Rx         0020  5  0A 00 31 1A 03 
 12085)     10708.6  Rx         0024  5  00 00 FB 12 00 
 12086)     10708.9  Rx         0021  5  00 00 00 00 00 
 12087)     10709.4  Rx         0020  5  0A 00 31 1A 03 
 12088)     10709.7  Rx         0025  8  31 02 B1 02 1B 02 CB 03 
 12089)     10710.0  Rx         0021  5  00 00 00 00 00 
 12090)     10710.2  Rx         0031  6  C2 7F 28 80 22 81 
 12091)     10710.3  Rx         0024  5  00 00 1F 13 00 
 12092)     10710.6  Rx         0020  5  0A 00 31 1A 03 
 12093)     10711.1  Rx         0021  5  00 00 00 00 00 
 12094)     10711.3  Rx         0025  8  37 02 B0 02 19 02 C7 03 
 12095)     10711.6  Rx         0020  5  0A 00 31 1A 03 
 12096)     10711.8  Rx         0024  5  00 00 FB 12 00 
 12097)     10712.1  Rx         0021  5  00 00 00 00 00 
 12098)     10712.6  Rx         0020  5  0A 00 31 1A 03 
 12099)     10712.8  Rx         0025  8  36 02 AF 02 1A 02 C7 03 
 12100)     10713.0  Rx         0030  6  FA 1A 8D 85 E8 B9 
 12101)     10713.2  Rx         0021  5  00 00 00 00 00 
 12102)     10713.4  Rx         0024  5  00 00 FB 12 00 
 12103)     10713.7  Rx         0020  5  0A 00 31 1A 03 
 12104)     10714.3  Rx         0021  5  00 00 00 00 00 
 12105)     10714.5  Rx         0025  8  38 02 AC 02 19 02 C5 03 
 12106)     10714.7  Rx         0020  5  0A 00 31 1A 03 
 12107)     10715.0  Rx         0031  6  9C 7F 0F 80 43 81 
 12108)     10715.1  Rx         0024  5  00 00 1F 13 00 
 12109)     10715.3  Rx         0021  5  00 00 00 00 00 
 12110)     10715.8  Rx         0020  5  0A 00 30 1A 03 
 12111)     10716.1  Rx         0025  8  39 02 AB 02 18 02 C1 03 
 12112)     10716.4  Rx         0021  5  00 00 00 00 00 
 12113)     10716.6  Rx         0024  5  00 00 1F 13 00 
 12114)     10716.7  Rx         0030  6  D8 1A 6B 85 F3 B9 
 12115)     10717.0  Rx         0020  5  0A 00 30 1A 03 
 12116)     10717.4  Rx         0021  5  00 00 00 00 00 
 12117)     10717.7  Rx         0025  8  39 02 A6 02 18 02 C0 03 
 12118)     10717.9  Rx         0020  5  0A 00 30 1A 03 
 12119)     10718.2  Rx         0024  5  00 00 1F 13 00 
 12120)     10718.4  Rx         0021  5  00 00 00 00 00 
 12121)     10719.0  Rx         0020  5  0A 00 30 1A 03 
 12122)     10719.2  Rx         0025  8  3A 02 A7 02 17 02 BC 03 
 12123)     10719.4  Rx         0031  6  9C 7F 0F 80 43 81 
 12124)     10719.6  Rx         0021  5  00 00 00 00 00 
 12125)     10719.8  Rx         0024  5  00 00 1F 13 00 
 12126)     10720.1  Rx         0020  5  0A 00 30 1A 03 
 12127)     10720.6  Rx         0021  5  00 00 00 00 00 
 12128)     10720.8  Rx         0025  8  39 02 A3 02 16 02 BA 03 
 12129)     10721.1  Rx         0020  5  0A 00 30 1A 03 
 12130)     10721.4  Rx         0024  5  00 00 1F 13 00 
 12131)     10721.6  Rx         0021  5  00 00 00 00 00 
 12132)     10721.9  Rx         0030  6  D8 1A 6B 85 F3 B9 
 12133)     10722.1  Rx         0020  5  0A 00 30 1A 03 
 12134)     10722.4  Rx         0025  8  3B 02 A5 02 16 02 BB 03 
 12135)     10722.6  Rx         0021  5  00 00 00 00 00 
 12136)     10722.9  Rx         0024  5  00 00 FB 12 00 
 12137)     10723.1  Rx         0020  5  0A 00 30 1A 03 
 12138)     10723.7  Rx         0021  5  00 00 00 00 00 
 12139)     10723.9  Rx         0025  8  3C 02 A3 02 15 02 B8 03 
 12140)     10724.2  Rx         0020  5  0A 00 30 1A 01 
 12141)     10724.3  Rx         0031  6  9C 7F 0F 80 43 81 
 12142)     10724.6  Rx         0024  5  00 00 1F 13 00 
 12143)     10724.7  Rx         0021  5  00 00 00 00 00 
 12144)     10725.2  Rx         0020  5  0A 00 30 1A 01 
 12145)     10725.5  Rx         0025  8  3F 02 A2 02 14 02 B4 03 
 12146)     10725.8  Rx         0021  5  00 00 00 00 00 
 12147)     10726.0  Rx         0030  6  AA 1A 49 85 FF B9 
 12148)     10726.2  Rx         0024  5  00 00 1F 13 00 
 12149)     10726.4  Rx         0020  5  0A 00 2F 1A 03 
 12150)     10726.9  Rx         0021  5  00 00 00 00 00 
 12151)     10727.2  Rx         0025  8  40 02 A0 02 13 02 AF 03 
 12152)     10727.4  Rx         0020  5  0A 00 2F 1A 03 
 12153)     10727.6  Rx         0024  5  00 00 FB 12 00 
 12154)     10727.8  Rx         0031  6  9A 7F E7 7F 64 81 
 12155)     10728.0  Rx         0021  5  00 00 00 00 00 
 12156)     10728.5  Rx         0025  8  3F 02 9D 02 12 02 AF 03 
 12157)     10728.7  Rx         0020  5  0A 00 2F 1A 03 
 12158)     10729.0  Rx         0024  5  00 00 1F 13 00 
 12159)     10729.2  Rx         0021  5  00 00 00 00 00 
 12160)     10729.8  Rx         0020  5  0A 00 2F 1A 03 
 12161)     10730.0  Rx         0025  8  40 02 9D 02 11 02 A8 03 
 12162)     10730.3  Rx         0021  5  00 00 00 00 00 
 12163)     10730.5  Rx         0030  6  AA 1A 49 85 FF B9 
 12164)     10730.7  Rx         0024  5  00 00 FB 12 00 
 12165)     10730.9  Rx         0020  5  0A 00 2F 1A 01 
 12166)     10731.3  Rx         0021  5  00 00 00 00 00 
 12167)     10731.6  Rx         0025  8  3E 02 9A 02 11 02 A4 03 
 12168)     10731.8  Rx         0020  5  0A 00 2E 1A 03 
 12169)     10732.1  Rx         0024  5  00 00 1F 13 00 
 12170)     10732.4  Rx         0021  5  00 00 00 00 00 
 12171)     10732.9  Rx         0020  5  0A 00 2E 1A 03 
 12172)     10733.1  Rx         0025  8  40 02 9A 02 11 02 A4 03 
 12173)     10733.3  Rx         0031  6  9A 7F E7 7F 64 81 
 12174)     10733.5  Rx         0021  5  00 00 00 00 00 
 12175)     10733.7  Rx         0024  5  00 00 1F 13 00 
 12176)     10734.0  Rx         0020  5  0A 00 2E 1A 03 
 12177)     10734.5  Rx         0021  5  00 00 00 00 00 
 12178)     10734.7  Rx         0025  8  42 02 9A 02 10 02 A1 03 
 12179)     10735.0  Rx         0020  5  0A 00 2E 1A 03 
 12180)     10735.2  Rx         0030  6  7D 1A 27 85 0A BA 
 12181)     10735.4  Rx         0024  5  00 00 1F 13 00 
 12182)     10735.6  Rx         0021  5  00 00 00 00 00 
 12183)     10736.1  Rx         0020  5  0A 00 2E 1A 01 
 12184)     10736.4  Rx         0025  8  44 02 9A 02 0F 02 9C 03 
 12185)     10736.6  Rx         0021  5  00 00 00 00 00 
 12186)     10736.9  Rx         0031  6  A6 7F BC 7F 70 81 
 12187)     10737.1  Rx         0024  5  00 00 1F 13 00 
 12188)     10737.2  Rx         0020  5  0A 00 2E 1A 01 
 12189)     10737.8  Rx         0021  5  00 00 00 00 00 
 12190)     10738.0  Rx         0025  8  43 02 97 02 0D 02 98 03 
 12191)     10738.3  Rx         0020  5  0A 00 2E 1A 01 
 12192)     10738.5  Rx         0024  5  00 00 1F 13 00 
 12193)     10738.8  Rx         0021  5  00 00 00 00 00 
 12194)     10739.2  Rx         0030  6  7D 1A 27 85 0A BA 
 12195)     10739.4  Rx         0020  5  0A 00 2E 1A 01 
 12196)     10739.7  Rx         0025  8  42 02 96 02 0D 02 95 03 
 12197)     10740.0  Rx         0021  5  00 00 00 00 00 
 12198)     10740.1  Rx         0024  5  00 00 1F 13 03 
 12199)     10740.4  Rx         0020  5  0A 00 2D 1A 03 
 12200)     10740.9  Rx         0021  5  00 00 00 00 00 
 12201)     10741.2  Rx         0025  8  42 02 94 02 0D 02 90 03 
 12202)     10741.4  Rx         0020  5  0A 00 2D 1A 03 
 12203)     10741.7  Rx         0024  5  00 00 1F 13 00 
 12204)     10741.9  Rx         0031  6  A6 7F BC 7F 70 81 
 12205)     10742.0  Rx         0021  5  00 00 00 00 00 
 12206)     10742.6  Rx         0025  8  45 02 96 02 0D 02 93 03 
 12207)     10742.8  Rx         0020  5  0A 00 2D 1A 03 
 12208)     10743.1  Rx         0024  5  00 00 FB 12 00 
 12209)     10743.3  Rx         0021  5  00 00 00 00 00 
 12210)     10743.8  Rx         0020  5  0A 00 2D 1A 01 
 12211)     10744.0  Rx         0025  8  46 02 96 02 0B 02 8D 03 
 12212)     10744.3  Rx         0021  5  00 00 00 00 00 
 12213)     10744.5  Rx         0030  6  7D 1A 27 85 0A BA 
 12214)     10744.7  Rx         0024  5  00 00 1F 13 03 
 12215)     10744.9  Rx         0020  5  0A 00 2D 1A 01 
 12216)     10745.4  Rx         0021  5  00 00 00 00 00 
 12217)     10745.6  Rx         0025  8  48 02 96 02 0B 02 89 03 
 12218)     10745.9  Rx         0020  5  0A 00 2D 1A 01 
 12219)     10746.1  Rx         0024  5  00 00 1F 13 00 
 12220)     10746.4  Rx         0031  6  78 7F AB 7F 55 81 
 12221)     10746.5  Rx         0021  5  00 00 00 00 00 
 12222)     10747.0  Rx         0025  8  48 02 95 02 0C 02 89 03 
 12223)     10747.2  Rx         0020  5  0A 00 2C 1A 03 
 12224)     10747.5  Rx         0024  5  00 00 FB 12 00 
 12225)     10747.8  Rx         0021  5  00 00 00 00 00 
 12226)     10748.3  Rx         0020  5  0A 00 2C 1A 01 
 12227)     10748.5  Rx         0025  8  47 02 94 02 0A 02 81 03 
 12228)     10748.7  Rx         0030  6  5A 1A F9 84 16 BA 
 12229)     10748.9  Rx         0021  5  00 00 00 00 00 
 12230)     10749.1  Rx         0024  5  00 00 1F 13 00 
 12231)     10749.4  Rx         0020  5  0A 00 2C 1A 01 
 12232)     10749.9  Rx         0021  5  00 00 00 00 00 
 12233)     10750.1  Rx         0025  8  47 02 93 02 0B 02 82 03 
 12234)     10750.4  Rx         0020  5  0A 00 2B 1A 03 
 12235)     10750.6  Rx         0024  5  00 00 1F 13 00 
 12236)     10750.9  Rx         0021  5  00 00 00 00 00 
 12237)     10751.2  Rx         0031  6  78 7F AB 7F 55 81 
 12238)     10751.4  Rx         0020  5  0A 00 2B 1A 01 
 12239)     10751.6  Rx         0025  8  46 02 92 02 0A 02 7D 03 
 12240)     10751.9  Rx         0021  5  00 00 00 00 00 
 12241)     10752.2  Rx         0024  5  00 00 1F 13 00 
 12242)     10752.5  Rx         0020  5  0A 00 2B 1A 01 
 12243)     10753.0  Rx         0021  5  00 00 00 00 00 
 12244)     10753.2  Rx         0025  8  49 02 93 02 0A 02 79 03 
 12245)     10753.4  Rx         0020  5  0A 00 2B 1A 01 
 12246)     10753.6  Rx         0030  6  5A 1A F9 84 16 BA 
 12247)     10753.9  Rx         0024  5  00 00 1F 13 03 
 12248)     10754.0  Rx         0021  5  00 00 00 00 00 
 12249)     10754.5  Rx         0020  5  0A 00 2B 1A 01 
 12250)     10754.8  Rx         0025  8  4B 02 93 02 09 02 77 03 
 12251)     10755.1  Rx         0021  5  00 00 00 00 00 
 12252)     10755.3  Rx         0024  5  00 00 FB 12 00 
 12253)     10755.5  Rx         0031  6  5E 7F B9 7F 36 81 
 12254)     10755.7  Rx         0020  5  0A 00 2B 1A 01 
 12255)     10756.2  Rx         0021  5  00 00 00 00 00 
 12256)     10756.4  Rx         0025  8  4C 02 91 02 09 02 72 03 
 12257)     10756.7  Rx         0020  5  0A 00 2B 1A 01 
 12258)     10756.9  Rx         0024  5  00 00 FB 12 00 
 12259)     10757.1  Rx         0030  6  2D 1A E3 84 2C BA 
 12260)     10757.4  Rx         0021  5  00 00 00 00 00 
 12261)     10757.9  Rx         0025  8  4A 02 8E 02 08 02 70 03 
 12262)     10758.0  Rx         0020  5  0A 00 2A 1A 03 
 12263)     10758.4  Rx         0024  5  00 00 1F 13 03 
 12264)     10758.6  Rx         0021  5  00 00 00 00 00 
 12265)     10759.1  Rx         0020  5  0A 00 2A 1A 03 
 12266)     10759.3  Rx         0025  8  4B 02 8D 02 07 02 6A 03 
 12267)     10759.5  Rx         0022  5  0B 00 93 1E 01 
 12268)     10759.7  Rx         0021  5  00 00 00 00 00 
 12269)     10759.9  Rx         0024  5  00 00 1F 13 00 
 12270)     10760.1  Rx         0031  6  5E 7F B9 7F 36 81 
 12271)     10760.3  Rx         0020  5  0A 00 2A 1A 03 
 12272)     10760.5  Rx         0023  5  00 00 00 00 00 
 12273)     10760.7  Rx         0026  6  60 07 88 84 7C 38 
 12274)     10760.9  Rx         0021  5  00 00 00 00 00 
 12275)     10761.1  Rx         0023  5  00 00 00 00 00 
 12276)     10761.4  Rx         0025  8  4C 02 8D 02 08 02 66 03 
 12277)     10761.5  Rx         0020  5  0A 00 29 1A 03 
 12278)     10761.8  Rx         0024  5  00 00 1F 13 00 
 12279)     10762.1  Rx         0021  5  00 00 00 00 00 
 12280)     10762.5  Rx         0020  5  0A 00 29 1A 03 
 12281)     10762.8  Rx         0025  8  4E 02 8D 02 07 02 62 03 
 12282)     10763.0  Rx         0026  6  AA 08 43 84 1C 39 
 12283)     10763.2  Rx         0021  5  00 00 00 00 00 
 12284)     10763.4  Rx         0024  5  00 00 1F 13 00 
 12285)     10763.5  Rx         0022  5  0B 00 90 1E 03 
 12286)     10763.7  Rx         0020  5  0A 00 29 1A 03 
 12287)     10763.9  Rx         0030  6  2D 1A E3 84 2C BA 
 12288)     10764.1  Rx         0023  5  00 00 00 00 00 
 12289)     10764.3  Rx         0021  5  00 00 00 00 00 
 12290)     10764.5  Rx         0025  8  4E 02 8C 02 08 02 61 03 
 12291)     10764.7  Rx         0022  5  0B 00 90 1E 01 
 12292)     10764.9  Rx         0020  5  0A 00 29 1A 03 
 12293)     10765.1  Rx         0024  5  00 00 FB 12 00 
 12294)     10765.3  Rx         0023  5  00 00 00 00 00 
 12295)     10765.5  Rx         0021  5  00 00 00 00 00 
 12296)     10765.7  Rx         0031  6  DC 7F CD 7F 24 81 
 12297)     10765.9  Rx         0022  5  0B 00 90 1E 01 
 12298)     10766.1  Rx         0020  5  0A 00 29 1A 03 
 12299)     10766.3  Rx         0025  8  4F 02 8A 02 07 02 5D 03 
 12300)     10766.5  Rx         0023  5  00 00 00 00 00 
 12301)     10766.7  Rx         0021  5  00 00 00 00 00 
 12302)     10766.9  Rx         0024  5  00 00 1F 13 00 
 12303)     10767.0  Rx         0022  5  0B 00 90 1E 01 
 12304)     10767.2  Rx         0020  5  0A 00 29 1A 03 
 12305)     10767.4  Rx         0030  6  0B 1A C0 84 2C BA 
 12306)     10767.6  Rx         0023  5  00 00 00 00 00 
 12307)     10767.8  Rx         0021  5  00 00 00 00 00 
 12308)     10768.0  Rx         0025  8  4D 02 89 02 07 02 58 03 
 12309)     10768.2  Rx         0022  5  0B 00 90 1E 01 
 12310)     10768.4  Rx         0020  5  0A 00 29 1A 01 
 12311)     10768.6  Rx         0024  5  00 00 1F 13 00 
 12312)     10768.8  Rx         0023  5  00 00 00 00 00 
 12313)     10769.0  Rx         0021  5  00 00 00 00 00 
 12314)     10769.3  Rx         0022  5  0B 00 90 1E 01 
 12315)     10769.6  Rx         0025  8  4F 02 89 02 06 02 54 03 
 12316)     10769.7  Rx         0020  5  0A 00 29 1A 01 
 12317)     10769.9  Rx         0023  5  00 00 00 00 00 
 12318)     10770.1  Rx         0024  5  00 00 FB 12 03 
 12319)     10770.3  Rx         0021  5  00 00 00 00 00 
 12320)     10770.5  Rx         0022  5  0B 00 90 1E 01 
 12321)     10770.7  Rx         0031  6  DC 7F CD 7F 24 81 
 12322)     10770.9  Rx         0020  5  0A 00 29 1A 01 
 12323)     10771.1  Rx         0025  8  4F 02 89 02 06 02 51 03 
 12324)     10771.3  Rx         0023  5  00 00 00 00 00 
 12325)     10771.5  Rx         0021  5  00 00 00 00 00 
 12326)     10771.7  Rx         0024  5  00 00 FB 12 00 
 12327)     10771.9  Rx         0022  5  0B 00 8F 1E 03 
 12328)     10772.1  Rx         0020  5  0A 00 28 1A 03 
 12329)     10772.3  Rx         0023  5  00 00 00 00 00 
 12330)     10772.5  Rx         0021  5  00 00 00 00 00 
 12331)     10772.8  Rx         0025  8  50 02 89 02 07 02 4E 03 
 12332)     10773.1  Rx         0020  5  0A 00 28 1A 03 
 12333)     10773.2  Rx         0030  6  0B 1A C0 84 2C BA 
 12334)     10773.4  Rx         0024  5  00 00 1F 13 03 
 12335)     10773.6  Rx         0021  5  00 00 00 00 00 
 12336)     10774.0  Rx         0026  6  BB 07 88 84 10 39 
 12337)     10774.2  Rx         0020  5  0A 00 28 1A 01 
 12338)     10774.4  Rx         0025  8  50 02 8A 02 05 02 4A 03 
 12339)     10774.6  Rx         0022  5  0B 00 8F 1E 03 
 12340)     10774.8  Rx         0021  5  00 00 00 00 00 
 12341)     10775.0  Rx         0024  5  00 00 1F 13 00 
 12342)     10775.2  Rx         0023  5  00 00 00 00 00 
 12343)     10775.4  Rx         0020  5  0A 00 28 1A 01 
 12344)     10775.5  Rx         0031  6  76 80 C8 7F 26 81 
 12345)     10775.7  Rx         0022  5  0B 00 8F 1E 03 
 12346)     10775.9  Rx         0021  5  00 00 00 00 00 
 12347)     10776.2  Rx         0025  8  52 02 8A 02 06 02 47 03 
 12348)     10776.3  Rx         0023  5  00 00 00 00 00 
 12349)     10776.5  Rx         0020  5  0A 00 28 1A 01 
 12350)     10776.7  Rx         0024  5  00 00 1F 13 00 
 12351)     10776.9  Rx         0022  5  0B 00 8F 1E 03 
 12352)     10777.1  Rx         0021  5  00 00 00 00 00 
 12353)     10777.3  Rx         0030  6  E9 19 9E 84 21 BA 
 12354)     10777.5  Rx         0023  5  00 00 00 00 00 
 12355)     10777.7  Rx         0020  5  0A 00 28 1A 01 
 12356)     10777.9  Rx         0025  8  51 02 88 02 05 02 41 03 
 12357)     10778.1  Rx         0022  5  0B 00 8F 1E 01 
 12358)     10778.3  Rx         0021  5  00 00 00 00 00 
 12359)     10778.5  Rx         0024  5  00 00 67 13 00 
 12360)     10778.6  Rx         0023  5  00 00 00 00 00 
 12361)     10778.9  Rx         0020  5  0A 00 28 1A 01 
 12362)     10779.2  Rx         0022  5  0B 00 8E 1E 03 
 12363)     10779.4  Rx         0021  5  00 00 00 00 00 
 12364)     10779.6  Rx         0025  8  50 02 86 02 04 02 3A 03 
 12365)     10779.8  Rx         0023  5  00 00 00 00 00 
 12366)     10780.0  Rx         0020  5  0A 00 27 1A 03 
 12367)     10780.2  Rx         0024  5  00 00 1F 13 00 
 12368)     10780.4  Rx         0022  5  0B 00 8E 1E 03 
 12369)     10780.5  Rx         0021  5  00 00 00 00 00 
 12370)     10780.7  Rx         0031  6  76 80 C8 7F 26 81 
 12371)     10780.9  Rx         0023  5  00 00 00 00 00 
 12372)     10781.1  Rx         0020  5  0A 00 27 1A 03 
 12373)     10781.3  Rx         0025  8  51 02 87 02 04 02 38 03 
 12374)     10781.6  Rx         0022  5  0B 00 8E 1E 03 
 12375)     10781.7  Rx         0021  5  00 00 00 00 00 
 12376)     10781.9  Rx         0024  5  00 00 1F 13 00 
 12377)     10782.1  Rx         0023  5  00 00 00 00 00 
 12378)     10782.3  Rx         0020  5  0A 00 27 1A 01 
 12379)     10782.6  Rx         0022  5  0B 00 8E 1E 03 
 12380)     10782.8  Rx         0025  8  4F 02 87 02 05 02 33 03 
 12381)     10783.0  Rx         0021  5  00 00 00 00 00 
 12382)     10783.2  Rx         0023  5  00 00 00 00 00 
 12383)     10783.4  Rx         0024  5  00 00 1F 13 00 
 12384)     10783.6  Rx         0020  5  0A 00 27 1A 01 
 12385)     10783.8  Rx         0030  6  E9 19 9E 84 21 BA 
 12386)     10784.1  Rx         0021  5  00 00 00 00 00 
 12387)     10784.4  Rx         0025  8  51 02 87 02 04 02 2E 03 
 12388)     10784.6  Rx         0020  5  0A 00 27 1A 01 
 12389)     10784.8  Rx         0024  5  00 00 1F 13 00 
 12390)     10785.0  Rx         0026  6  33 07 65 84 EE 38 
 12391)     10785.2  Rx         0021  5  00 00 00 00 00 
 12392)     10785.5  Rx         0031  6  F2 80 B0 7F 36 81 
 12393)     10785.6  Rx         0022  5  0B 00 8E 1E 03 
 12394)     10785.8  Rx         0020  5  0A 00 27 1A 01 
 12395)     10786.1  Rx         0025  8  51 02 87 02 04 02 2D 03 
 12396)     10786.2  Rx         0023  5  00 00 00 00 00 
 12397)     10786.5  Rx         0021  5  00 00 00 00 00 
 12398)     10786.6  Rx         0024  5  00 00 1F 13 00 
 12399)     10786.8  Rx         0022  5  0B 00 8E 1E 01 
 12400)     10787.0  Rx         0020  5  0A 00 27 1A 01 
 12401)     10787.2  Rx         0030  6  BB 19 7C 84 0A BA 
 12402)     10787.4  Rx         0023  5  00 00 00 00 00 
 12403)     10787.6  Rx         0021  5  00 00 00 00 00 
 12404)     10787.8  Rx         0025  8  52 02 87 02 04 02 29 03 
 12405)     10788.0  Rx         0022  5  0B 00 8E 1E 01 
 12406)     10788.2  Rx         0020  5  0A 00 26 1A 03 
 12407)     10788.4  Rx         0024  5  00 00 1F 13 00 
 12408)     10788.6  Rx         0023  5  00 00 00 00 00 
 12409)     10788.8  Rx         0021  5  00 00 00 00 00 
 12410)     10789.1  Rx         0022  5  0B 00 8E 1E 01 
 12411)     10789.3  Rx         0025  8  52 02 87 02 04 02 23 03 
 12412)     10789.5  Rx         0020  5  0A 00 26 1A 03 
 12413)     10789.7  Rx         0023  5  00 00 00 00 00 
 12414)     10789.9  Rx         0024  5  00 00 1F 13 00 
 12415)     10790.1  Rx         0021  5  00 00 00 00 00 
 12416)     10790.3  Rx         0022  5  0B 00 8E 1E 01 
 12417)     10790.5  Rx         0031  6  F2 80 B0 7F 36 81 
 12418)     10790.6  Rx         0020  5  0A 00 26 1A 01 
 12419)     10790.9  Rx         0023  5  00 00 00 00 00 
 12420)     10791.1  Rx         0025  8  4F 02 86 02 03 02 20 03 
 12421)     10791.3  Rx         0021  5  00 00 00 00 00 
 12422)     10791.4  Rx         0022  5  0B 00 8E 1E 01 
 12423)     10791.7  Rx         0024  5  00 00 1F 13 00 
 12424)     10791.8  Rx         0020  5  0A 00 26 1A 01 
 12425)     10792.0  Rx         0023  5  00 00 00 00 00 
 12426)     10792.3  Rx         0021  5  00 00 00 00 00 
 12427)     10792.5  Rx         0022  5  0B 00 8E 1E 01 
 12428)     10792.8  Rx         0025  8  52 02 86 02 04 02 1E 03 
 12429)     10792.9  Rx         0020  5  0A 00 26 1A 01 
 12430)     10793.1  Rx         0023  5  00 00 00 00 00 
 12431)     10793.3  Rx         0024  5  00 00 1F 13 03 
 12432)     10793.5  Rx         0021  5  00 00 00 00 00 
 12433)     10793.7  Rx         0030  6  BB 19 7C 84 0A BA 
 12434)     10794.0  Rx         0020  5  0A 00 26 1A 01 
 12435)     10794.3  Rx         0025  8  53 02 87 02 04 02 1B 03 
 12436)     10794.5  Rx         0021  5  00 00 00 00 00 
 12437)     10794.7  Rx         0024  5  00 00 1F 13 03 
 12438)     10794.9  Rx         0026  6  0B 08 0A 84 D7 38 
 12439)     10795.2  Rx         0020  5  0A 00 26 1A 01 
 12440)     10795.4  Rx         0031  6  C6 80 9E 7F 3A 81 
 12441)     10795.6  Rx         0022  5  0B 00 8E 1E 01 
 12442)     10795.8  Rx         0021  5  00 00 00 00 00 
 12443)     10796.0  Rx         0025  8  53 02 87 02 04 02 19 03 
 12444)     10796.2  Rx         0023  5  00 00 00 00 00 
 12445)     10796.4  Rx         0020  5  0A 00 25 1A 03 
 12446)     10796.6  Rx         0024  5  00 00 1F 13 00 
 12447)     10796.7  Rx         0022  5  0B 00 8D 1E 03 
 12448)     10797.0  Rx         0021  5  00 00 00 00 00 
 12449)     10797.1  Rx         0030  6  8E 19 65 84 F3 B9 
 12450)     10797.3  Rx         0023  5  00 00 00 00 00 
 12451)     10797.5  Rx         0020  5  0A 00 25 1A 03 
 12452)     10797.7  Rx         0025  8  53 02 87 02 03 02 16 03 
 12453)     10797.9  Rx         0022  5  0B 00 8D 1E 03 
 12454)     10798.1  Rx         0021  5  00 00 00 00 00 
 12455)     10798.3  Rx         0024  5  00 00 1F 13 00 
 12456)     10798.5  Rx         0023  5  00 00 00 00 00 
 12457)     10798.7  Rx         0020  5  0A 00 25 1A 01 
 12458)     10799.0  Rx         0022  5  0B 00 8D 1E 03 
 12459)     10799.2  Rx         0021  5  00 00 00 00 00 
 12460)     10799.4  Rx         0025  8  53 02 86 02 03 02 12 03 
 12461)     10799.6  Rx         0023  5  00 00 00 00 00 
 12462)     10799.8  Rx         0020  5  0A 00 25 1A 01 
 12463)     10800.0  Rx         0024  5  00 00 1F 13 00 
 12464)     10800.2  Rx         0022  5  0B 00 8D 1E 01 
 12465)     10800.4  Rx         0021  5  00 00 00 00 00 
 12466)     10800.6  Rx         0031  6  C6 80 9E 7F 3A 81 
 12467)     10800.8  Rx         0023  5  00 00 00 00 00 
 12468)     10801.0  Rx         0020  5  0A 00 25 1A 01 
 12469)     10801.2  Rx         0025  8  52 02 84 02 02 02 11 03 
 12470)     10801.4  Rx         0022  5  0B 00 8D 1E 01 
 12471)     10801.6  Rx         0021  5  00 00 00 00 00 
 12472)     10801.8  Rx         0024  5  00 00 1F 13 00 
 12473)     10801.9  Rx         0023  5  00 00 00 00 00 
 12474)     10802.2  Rx         0020  5  0A 00 25 1A 01 
 12475)     10802.4  Rx         0022  5  0B 00 8D 1E 01 
 12476)     10802.7  Rx         0025  8  53 02 85 02 03 02 0E 03 
 12477)     10802.9  Rx         0021  5  00 00 00 00 00 
 12478)     10803.1  Rx         0023  5  00 00 00 00 00 
 12479)     10803.3  Rx         0024  5  00 00 1F 13 00 
 12480)     10803.5  Rx         0020  5  0A 00 24 1A 03 
 12481)     10803.7  Rx         0022  5  0B 00 8D 1E 01 
 12482)     10803.8  Rx         0030  6  8E 19 65 84 F3 B9 
 12483)     10804.0  Rx         0021  5  00 00 00 00 00 
 12484)     10804.2  Rx         0023  5  00 00 00 00 00 
 12485)     10804.5  Rx         0025  8  54 02 84 02 02 02 0D 03 
 12486)     10804.6  Rx         0020  5  0A 00 24 1A 03 
 12487)     10804.9  Rx         0024  5  00 00 1F 13 00 
 12488)     10805.1  Rx         0021  5  00 00 00 00 00 
 12489)     10805.5  Rx         0031  6  3B 80 B4 7F 46 81 
 12490)     10805.7  Rx         0020  5  0A 00 24 1A 03 
 12491)     10805.9  Rx         0025  8  52 02 83 02 01 02 0A 03 
 12492)     10806.1  Rx         0026  6  4F 08 0A 84 05 39 
 12493)     10806.3  Rx         0021  5  00 00 00 00 00 
 12494)     10806.5  Rx         0024  5  00 00 1F 13 00 
 12495)     10806.7  Rx         0022  5  0B 00 8D 1E 01 
 12496)     10806.9  Rx         0020  5  0A 00 24 1A 03 
 12497)     10807.1  Rx         0030  6  60 19 43 84 F3 B9 
 12498)     10807.3  Rx         0023  5  00 00 00 00 00 
 12499)     10807.5  Rx         0021  5  00 00 00 00 00 
 12500)     10807.7  Rx         0025  8  54 02 83 02 01 02 0A 03 
 12501)     10808.0  Rx         0022  5  0B 00 8D 1E 01 
 12502)     10808.1  Rx         0020  5  0A 00 24 1A 01 
 12503)     10808.3  Rx         0024  5  00 00 1F 13 00 
 12504)     10808.5  Rx         0023  5  00 00 00 00 00 
 12505)     10808.7  Rx         0021  5  00 00 00 00 00 
 12506)     10809.0  Rx         0031  6  3B 80 B4 7F 46 81 
 12507)     10809.2  Rx         0022  5  0B 00 8D 1E 01 
 12508)     10809.4  Rx         0020  5  0A 00 24 1A 01 
 12509)     10809.6  Rx         0025  8  53 02 82 02 01 02 06 03 
 12510)     10809.8  Rx         0023  5  00 00 00 00 00 
 12511)     10810.0  Rx         0021  5  00 00 00 00 00 
 12512)     10810.2  Rx         0024  5  00 00 1F 13 00 
 12513)     10810.4  Rx         0022  5  0B 00 8C 1E 03 
 12514)     10810.6  Rx         0020  5  0A 00 23 1A 03 
 12515)     10810.9  Rx         0023  5  00 00 00 00 00 
 12516)     10811.1  Rx         0021  5  00 00 00 00 00 
 12517)     10811.3  Rx         0025  8  55 02 84 02 01 02 05 03 
 12518)     10811.5  Rx         0022  5  0B 00 8C 1E 03 
 12519)     10811.7  Rx         0020  5  0A 00 23 1A 03 
 12520)     10811.9  Rx         0024  5  00 00 43 13 00 
 12521)     10812.1  Rx         0023  5  00 00 00 00 00 
 12522)     10812.3  Rx         0021  5  00 00 00 00 00 
 12523)     10812.4  Rx         0030  6  60 19 43 84 F3 B9 
 12524)     10812.7  Rx         0022  5  0B 00 8C 1E 03 
 12525)     10812.8  Rx         0020  5  0A 00 23 1A 03 
 12526)     10813.1  Rx         0025  8  56 02 83 02 02 02 05 03 
 12527)     10813.3  Rx         0023  5  00 00 00 00 00 
 12528)     10813.5  Rx         0021  5  00 00 00 00 00 
 12529)     10813.6  Rx         0024  5  00 00 43 13 03 
 12530)     10813.8  Rx         0022  5  0B 00 8C 1E 03 
 12531)     10814.0  Rx         0020  5  0A 00 22 1A 03 
 12532)     10814.3  Rx         0023  5  00 00 00 00 00 
 12533)     10814.6  Rx         0025  8  58 02 84 02 02 02 04 03 
 12534)     10814.8  Rx         0021  5  00 00 00 00 00 
 12535)     10815.0  Rx         0022  5  0B 00 8C 1E 03 
 12536)     10815.1  Rx         0024  5  00 00 43 13 03 
 12537)     10815.3  Rx         0020  5  0A 00 22 1A 03 
 12538)     10815.5  Rx         0023  5  00 00 00 00 00 
 12539)     10815.7  Rx         0031  6  3B 80 B4 7F 46 81 
 12540)     10815.9  Rx         0021  5  00 00 00 00 00 
 12541)     10816.2  Rx         0025  8  59 02 84 02 01 02 02 03 
 12542)     10816.4  Rx         0020  5  0A 00 22 1A 03 
 12543)     10816.6  Rx         0024  5  00 00 1F 13 03 
 12544)     10816.9  Rx         0021  5  00 00 00 00 00 
 12545)     10817.3  Rx         0030  6  3E 19 21 84 FF B9 
 12546)     10817.6  Rx         0020  5  0A 00 22 1A 03 
 12547)     10817.8  Rx         0025  8  57 02 82 02 00 02 FF 02 
 12548)     10818.0  Rx         0026  6  38 08 5A 84 49 39 
 12549)     10818.2  Rx         0021  5  00 00 00 00 00 
 12550)     10818.4  Rx         0024  5  00 00 1F 13 03 
 12551)     10818.5  Rx         0022  5  0B 00 8C 1E 03 
 12552)     10818.8  Rx         0020  5  0A 00 22 1A 01 
 12553)     10819.1  Rx         0023  5  00 00 00 00 00 
 12554)     10819.3  Rx         0021  5  00 00 00 00 00 
 12555)     10819.5  Rx         0025  8  58 02 82 02 00 02 FF 02 
 12556)     10819.7  Rx         0022  5  0B 00 8C 1E 03 
 12557)     10819.9  Rx         0020  5  0A 00 22 1A 01 
 12558)     10820.1  Rx         0024  5  00 00 1F 13 00 
 12559)     10820.3  Rx         0023  5  00 00 00 00 00 
 12560)     10820.5  Rx         0021  5  00 00 00 00 00 
 12561)     10820.6  Rx         0031  6  AE 7F CA 7F 53 81 
 12562)     10820.8  Rx         0022  5  0B 00 8C 1E 03 
 12563)     10821.0  Rx         0020  5  0A 00 22 1A 01 
 12564)     10821.3  Rx         0025  8  57 02 81 02 FF 01 FD 02 
 12565)     10821.4  Rx         0023  5  00 00 00 00 00 
 12566)     10821.7  Rx         0021  5  00 00 00 00 00 
 12567)     10821.8  Rx         0024  5  00 00 1F 13 00 
 12568)     10822.0  Rx         0022  5  0B 00 8C 1E 03 
 12569)     10822.2  Rx         0020  5  0A 00 22 1A 01 
 12570)     10822.5  Rx         0023  5  00 00 00 00 00 
 12571)     10822.8  Rx         0025  8  59 02 82 02 FF 01 FF 02 
 12572)     10823.0  Rx         0021  5  00 00 00 00 00 
 12573)     10823.1  Rx         0022  5  0B 00 8C 1E 03 
 12574)     10823.3  Rx         0024  5  00 00 43 13 03 
 12575)     10823.5  Rx         0020  5  0A 00 21 1A 03 
 12576)     10823.7  Rx         0023  5  00 00 00 00 00 
 12577)     10823.9  Rx         0030  6  3E 19 21 84 FF B9 
 12578)     10824.1  Rx         0021  5  00 00 00 00 00 
 12579)     10824.3  Rx         0022  5  0B 00 8C 1E 03 
 12580)     10824.5  Rx         0025  8  5A 02 82 02 FF 01 FE 02 
 12581)     10824.7  Rx         0020  5  0A 00 21 1A 01 
 12582)     10824.9  Rx         0023  5  00 00 00 00 00 
 12583)     10825.1  Rx         0024  5  00 00 1F 13 00 
 12584)     10825.3  Rx         0021  5  00 00 00 00 00 
 12585)     10825.5  Rx         0022  5  0B 00 8C 1E 03 
 12586)     10825.7  Rx         0031  6  3B 7F BE 7F 5A 81 
 12587)     10825.9  Rx         0020  5  0A 00 21 1A 01 
 12588)     10826.1  Rx         0023  5  00 00 00 00 00 
 12589)     10826.3  Rx         0025  8  5A 02 82 02 FE 01 FC 02 
 12590)     10826.5  Rx         0021  5  00 00 00 00 00 
 12591)     10826.6  Rx         0022  5  0B 00 8C 1E 03 
 12592)     10826.9  Rx         0024  5  00 00 43 13 00 
 12593)     10827.0  Rx         0020  5  0A 00 20 1A 03 
 12594)     10827.2  Rx         0023  5  00 00 00 00 00 
 12595)     10827.4  Rx         0030  6  10 19 F4 83 16 BA 
 12596)     10827.6  Rx         0021  5  00 00 00 00 00 
 12597)     10827.8  Rx         0025  8  59 02 80 02 FE 01 FB 02 
 12598)     10828.1  Rx         0020  5  0A 00 20 1A 03 
 12599)     10828.4  Rx         0024  5  00 00 43 13 03 
 12600)     10828.7  Rx         0021  5  00 00 00 00 00 
 12601)     10829.2  Rx         0020  5  0A 00 20 1A 03 
 12602)     10829.4  Rx         0025  8  59 02 81 02 FD 01 F8 02 
 12603)     10829.7  Rx         0021  5  00 00 00 00 00 
 12604)     10829.8  Rx         0026  6  16 08 B5 84 99 39 
 12605)     10830.1  Rx         0024  5  00 00 43 13 03 
 12606)     10830.2  Rx         0020  5  0A 00 20 1A 01 
 12607)     10830.4  Rx         0022  5  0B 00 8C 1E 01 
 12608)     10830.6  Rx         0031  6  3B 7F BE 7F 5A 81 
 12609)     10830.8  Rx         0021  5  00 00 00 00 00 
 12610)     10831.0  Rx         0023  5  00 00 00 00 00 
 12611)     10831.3  Rx         0025  8  5C 02 81 02 FD 01 F9 02 
 12612)     10831.4  Rx         0020  5  0A 00 20 1A 01 
 12613)     10831.6  Rx         0022  5  0B 00 8C 1E 01 
 12614)     10831.8  Rx         0024  5  00 00 43 13 00 
 12615)     10832.0  Rx         0021  5  00 00 00 00 00 
 12616)     10832.2  Rx         0023  5  00 00 00 00 00 
 12617)     10832.5  Rx         0020  5  0A 00 20 1A 01 
 12618)     10832.7  Rx         0022  5  0B 00 8C 1E 01 
 12619)     10833.0  Rx         0025  8  5B 02 81 02 FD 01 F9 02 
 12620)     10833.1  Rx         0021  5  00 00 00 00 00 
 12621)     10833.3  Rx         0023  5  00 00 00 00 00 
 12622)     10833.5  Rx         0024  5  00 00 43 13 00 
 12623)     10833.7  Rx         0020  5  0A 00 1F 1A 03 
 12624)     10833.9  Rx         0022  5  0B 00 8C 1E 01 
 12625)     10834.1  Rx         0030  6  10 19 F4 83 16 BA 
 12626)     10834.3  Rx         0021  5  00 00 00 00 00 
 12627)     10834.5  Rx         0023  5  00 00 00 00 00 
 12628)     10834.7  Rx         0025  8  5C 02 7F 02 FD 01 F7 02 
 12629)     10834.9  Rx         0020  5  0A 00 1F 1A 01 
 12630)     10835.1  Rx         0022  5  0B 00 8C 1E 01 
 12631)     10835.3  Rx         0024  5  00 00 43 13 03 
 12632)     10835.5  Rx         0021  5  00 00 00 00 00 
 12633)     10835.7  Rx         0023  5  00 00 00 00 00 
 12634)     10835.9  Rx         0031  6  20 7F AF 7F 5F 81 
 12635)     10836.1  Rx         0020  5  0A 00 1E 1A 03 
 12636)     10836.2  Rx         0022  5  0B 00 8C 1E 01 
 12637)     10836.5  Rx         0025  8  5E 02 7F 02 FD 01 F6 02 
 12638)     10836.7  Rx         0021  5  00 00 00 00 00 
 12639)     10836.8  Rx         0023  5  00 00 00 00 00 
 12640)     10837.1  Rx         0024  5  00 00 43 13 03 
 12641)     10837.2  Rx         0020  5  0A 00 1E 1A 03 
 12642)     10837.5  Rx         0030  6  E3 18 D1 83 2C BA 
 12643)     10837.7  Rx         0021  5  00 00 00 00 00 
 12644)     10838.0  Rx         0025  8  5F 02 7E 02 FB 01 F4 02 
 12645)     10838.3  Rx         0020  5  0A 00 1E 1A 03 
 12646)     10838.5  Rx         0024  5  00 00 1F 13 00 
 12647)     10838.8  Rx         0021  5  00 00 00 00 00 
 12648)     10839.2  Rx         0020  5  0A 00 1E 1A 03 
 12649)     10839.5  Rx         0025  8  5C 02 7D 02 FC 01 F1 02 
 12650)     10839.7  Rx         0026  6  22 08 F9 84 E9 39 
 12651)     10839.9  Rx         0021  5  00 00 00 00 00 
 12652)     10840.0  Rx         0024  5  00 00 43 13 03 
 12653)     10840.3  Rx         0022  5  0B 00 8C 1E 01 
 12654)     10840.4  Rx         0020  5  0A 00 1E 1A 01 
 12655)     10840.6  Rx         0031  6  20 7F AF 7F 5F 81 
 12656)     10840.8  Rx         0023  5  00 00 00 00 00 
 12657)     10841.0  Rx         0021  5  00 00 00 00 00 
 12658)     10841.3  Rx         0025  8  60 02 7E 02 FC 01 F2 02 
 12659)     10841.5  Rx         0022  5  0B 00 8C 1E 01 
 12660)     10841.7  Rx         0020  5  0A 00 1E 1A 01 
 12661)     10841.8  Rx         0024  5  00 00 43 13 03 
 12662)     10842.0  Rx         0023  5  00 00 00 00 00 
 12663)     10842.2  Rx         0021  5  00 00 00 00 00 
 12664)     10842.5  Rx         0022  5  0B 00 8C 1E 01 
 12665)     10842.8  Rx         0025  8  63 02 7F 02 FD 01 F4 02 
 12666)     10842.9  Rx         0020  5  0A 00 1E 1A 01 
 12667)     10843.2  Rx         0023  5  00 00 00 00 00 
 12668)     10843.3  Rx         0024  5  00 00 43 13 00 
 12669)     10843.5  Rx         0021  5  00 00 00 00 00 
 12670)     10843.7  Rx         0022  5  0B 00 8C 1E 01 
 12671)     10843.9  Rx         0030  6  E3 18 D1 83 2C BA 
 12672)     10844.1  Rx         0020  5  0A 00 1D 1A 03 
 12673)     10844.3  Rx         0023  5  00 00 00 00 00 
 12674)     10844.5  Rx         0025  8  63 02 7D 02 FD 01 F2 02 
 12675)     10844.7  Rx         0021  5  00 00 00 00 00 
 12676)     10844.9  Rx         0022  5  0B 00 8C 1E 01 
 12677)     10845.1  Rx         0024  5  00 00 1F 13 00 
 12678)     10845.3  Rx         0020  5  0A 00 1D 1A 03 
 12679)     10845.5  Rx         0023  5  00 00 00 00 00 
 12680)     10845.7  Rx         0031  6  2B 7F AF 7F 6C 81 
 12681)     10845.9  Rx         0021  5  00 00 00 00 00 
 12682)     10846.1  Rx         0022  5  0B 00 8C 1E 01 
 12683)     10846.3  Rx         0025  8  64 02 7E 02 FD 01 F1 02 
 12684)     10846.5  Rx         0020  5  0A 00 1D 1A 01 
 12685)     10846.7  Rx         0023  5  00 00 00 00 00 
 12686)     10846.9  Rx         0024  5  00 00 43 13 03 
 12687)     10847.0  Rx         0021  5  00 00 00 00 00 
 12688)     10847.3  Rx         0022  5  0B 00 8C 1E 01 
 12689)     10847.5  Rx         0030  6  B5 18 AF 83 43 BA 
 12690)     10847.6  Rx         0020  5  0A 00 1D 1A 01 
 12691)     10847.9  Rx         0023  5  00 00 00 00 00 
 12692)     10848.1  Rx         0025  8  62 02 7D 02 FC 01 F1 02 
 12693)     10848.2  Rx         0021  5  00 00 00 00 00 
 12694)     10848.4  Rx         0022  5  0B 00 8C 1E 01 
 12695)     10848.6  Rx         0024  5  00 00 43 13 00 
 12696)     10848.8  Rx         0020  5  0A 00 1C 1A 03 
 12697)     10849.0  Rx         0023  5  00 00 00 00 00 
 12698)     10849.3  Rx         0021  5  00 00 00 00 00 
 12699)     10849.6  Rx         0025  8  63 02 7D 02 FB 01 EF 02 
 12700)     10849.8  Rx         0020  5  0A 00 1C 1A 03 
 12701)     10850.0  Rx         0031  6  2B 7F AF 7F 6C 81 
 12702)     10850.2  Rx         0024  5  00 00 1F 13 03 
 12703)     10850.4  Rx         0021  5  00 00 00 00 00 
 12704)     10850.9  Rx         0020  5  0A 00 1C 1A 01 
 12705)     10851.2  Rx         0025  8  62 02 7D 02 FA 01 ED 02 
 12706)     10851.4  Rx         0021  5  00 00 00 00 00 
 12707)     10851.6  Rx         0026  6  22 08 32 85 44 3A 
 12708)     10851.8  Rx         0024  5  00 00 1F 13 03 
 12709)     10852.0  Rx         0020  5  0A 00 1C 1A 01 
 12710)     10852.2  Rx         0022  5  0B 00 8C 1E 01 
 12711)     10852.5  Rx         0030  6  B5 18 AF 83 43 BA 
 12712)     10852.7  Rx         0021  5  00 00 00 00 00 
 12713)     10852.9  Rx         0023  5  00 00 00 00 00 
 12714)     10853.1  Rx         0025  8  65 02 7E 02 FC 01 EF 02 
 12715)     10853.3  Rx         0020  5  0A 00 1B 1A 01 
 12716)     10853.5  Rx         0022  5  0B 00 8C 1E 01 
 12717)     10853.7  Rx         0024  5  00 00 1F 13 03 
 12718)     10853.9  Rx         0021  5  00 00 00 00 00 
 12719)     10854.1  Rx         0023  5  00 00 00 00 00 
 12720)     10854.4  Rx         0020  5  0A 00 1B 1A 01 
 12721)     10854.6  Rx         0022  5  0B 00 8C 1E 01 
 12722)     10854.8  Rx         0025  8  64 02 7D 02 FB 01 EF 02 
 12723)     10855.0  Rx         0021  5  00 00 00 00 00 
 12724)     10855.2  Rx         0023  5  00 00 00 00 00 
 12725)     10855.4  Rx         0024  5  00 00 1F 13 03 
 12726)     10855.6  Rx         0020  5  0A 00 1B 1A 01 
 12727)     10855.8  Rx         0022  5  0B 00 8C 1E 01 
 12728)     10856.0  Rx         0031  6  2B 7F AF 7F 6C 81 
 12729)     10856.2  Rx         0021  5  00 00 00 00 00 
 12730)     10856.4  Rx         0023  5  00 00 00 00 00 
 12731)     10856.6  Rx         0025  8  66 02 7C 02 FB 01 ED 02 
 12732)     10856.8  Rx         0020  5  0A 00 1B 1A 01 
 12733)     10857.0  Rx         0022  5  0B 00 8C 1E 01 
 12734)     10857.2  Rx         0024  5  00 00 43 13 03 
 12735)     10857.4  Rx         0021  5  00 00 00 00 00 
 12736)     10857.5  Rx         0023  5  00 00 00 00 00 
 12737)     10857.8  Rx         0030  6  88 18 82 83 5A BA 
 12738)     10857.9  Rx         0020  5  0A 00 1A 1A 03 
 12739)     10858.1  Rx         0022  5  0B 00 8C 1E 01 
 12740)     10858.4  Rx         0025  8  66 02 7C 02 FB 01 EC 02 
 12741)     10858.6  Rx         0021  5  00 00 00 00 00 
 12742)     10858.8  Rx         0023  5  00 00 00 00 00 
 12743)     10858.9  Rx         0024  5  00 00 43 13 00 
 12744)     10859.1  Rx         0020  5  0A 00 1A 1A 03 
 12745)     10859.3  Rx         0022  5  0B 00 8C 1E 01 
 12746)     10859.6  Rx         0021  5  00 00 00 00 00 
 12747)     10859.8  Rx         0023  5  00 00 00 00 00 
 12748)     10860.1  Rx         0025  8  67 02 7B 02 FB 01 E9 02 
 12749)     10860.3  Rx         0020  5  0A 00 1A 1A 03 
 12750)     10860.4  Rx         0031  6  7B 7F AC 7F 7C 81 
 12751)     10860.7  Rx         0024  5  00 00 43 13 00 
 12752)     10860.8  Rx         0021  5  00 00 00 00 00 
 12753)     10861.3  Rx         0020  5  0A 00 1A 1A 01 
 12754)     10861.6  Rx         0025  8  67 02 7C 02 F9 01 E7 02 
 12755)     10861.8  Rx         0021  5  00 00 00 00 00 
 12756)     10862.1  Rx         0024  5  00 00 43 13 03 
 12757)     10862.4  Rx         0026  6  2D 08 3E 85 9F 3A 
 12758)     10862.5  Rx         0020  5  0A 00 19 1A 03 
 12759)     10862.8  Rx         0022  5  0B 00 8C 1E 01 
 12760)     10863.0  Rx         0025  8  65 02 7A 02 F9 01 E9 02 
 12761)     10863.3  Rx         0021  5  00 00 00 00 00 
 12762)     10863.4  Rx         0023  5  00 00 00 00 00 
 12763)     10863.6  Rx         0024  5  00 00 43 13 03 
 12764)     10863.8  Rx         0020  5  0A 00 19 1A 03 
 12765)     10864.0  Rx         0022  5  0B 00 8C 1E 01 
 12766)     10864.2  Rx         0030  6  88 18 82 83 5A BA 
 12767)     10864.4  Rx         0021  5  00 00 00 00 00 
 12768)     10864.6  Rx         0023  5  00 00 00 00 00 
 12769)     10864.8  Rx         0025  8  67 02 7B 02 FA 01 E8 02 
 12770)     10865.0  Rx         0020  5  0A 00 19 1A 01 
 12771)     10865.2  Rx         0022  5  0B 00 8C 1E 01 
 12772)     10865.4  Rx         0024  5  00 00 43 13 03 
 12773)     10865.6  Rx         0021  5  00 00 00 00 00 
 12774)     10865.8  Rx         0023  5  00 00 00 00 00 
 12775)     10866.0  Rx         0031  6  B3 7F 8F 7F 6B 81 
 12776)     10866.2  Rx         0020  5  0A 00 19 1A 01 
 12777)     10866.3  Rx         0022  5  0B 00 8B 1E 03 
 12778)     10866.6  Rx         0025  8  67 02 79 02 F9 01 E6 02 
 12779)     10866.8  Rx         0021  5  00 00 00 00 00 
 12780)     10867.0  Rx         0023  5  00 00 00 00 00 
 12781)     10867.1  Rx         0024  5  00 00 43 13 03 
 12782)     10867.3  Rx         0020  5  0A 00 19 1A 01 
 12783)     10867.5  Rx         0022  5  0B 00 8B 1E 03 
 12784)     10867.7  Rx         0030  6  5A 18 60 83 5A BA 
 12785)     10867.9  Rx         0021  5  00 00 00 00 00 
 12786)     10868.1  Rx         0023  5  00 00 00 00 00 
 12787)     10868.3  Rx         0025  8  68 02 79 02 F9 01 E4 02 
 12788)     10868.5  Rx         0020  5  0A 00 18 1A 03 
 12789)     10868.7  Rx         0022  5  0B 00 8B 1E 03 
 12790)     10868.9  Rx         0024  5  00 00 43 13 03 
 12791)     10869.1  Rx         0021  5  00 00 00 00 00 
 12792)     10869.3  Rx         0023  5  00 00 00 00 00 
 12793)     10869.6  Rx         0020  5  0A 00 18 1A 01 
 12794)     10869.8  Rx         0022  5  0B 00 8B 1E 03 
 12795)     10870.0  Rx         0025  8  6B 02 7B 02 FA 01 E4 02 
 12796)     10870.2  Rx         0021  5  00 00 00 00 00 
 12797)     10870.4  Rx         0023  5  00 00 00 00 00 
 12798)     10870.6  Rx         0024  5  00 00 43 13 00 
 12799)     10870.8  Rx         0020  5  0A 00 18 1A 01 
 12800)     10871.0  Rx         0031  6  B3 7F 8F 7F 6B 81 
 12801)     10871.3  Rx         0021  5  00 00 00 00 00 
 12802)     10871.5  Rx         0025  8  6A 02 79 02 F9 01 E0 02 
 12803)     10871.8  Rx         0020  5  0A 00 18 1A 01 
 12804)     10872.0  Rx         0024  5  00 00 43 13 00 
 12805)     10872.3  Rx         0021  5  00 00 00 00 00 
 12806)     10872.6  Rx         0026  6  38 08 32 85 EE 3A 
 12807)     10872.8  Rx         0020  5  0A 00 17 1A 01 
 12808)     10873.0  Rx         0025  8  6A 02 7A 02 F9 01 E2 02 
 12809)     10873.2  Rx         0022  5  0B 00 8B 1E 03 
 12810)     10873.4  Rx         0021  5  00 00 00 00 00 
 12811)     10873.6  Rx         0024  5  00 00 43 13 00 
 12812)     10873.8  Rx         0023  5  00 00 00 00 00 
 12813)     10874.0  Rx         0020  5  0A 00 17 1A 01 
 12814)     10874.2  Rx         0030  6  5A 18 60 83 5A BA 
 12815)     10874.3  Rx         0022  5  0B 00 8B 1E 03 
 12816)     10874.6  Rx         0021  5  00 00 00 00 00 
 12817)     10874.8  Rx         0025  8  6B 02 7A 02 F9 01 E3 02 
 12818)     10875.0  Rx         0023  5  00 00 00 00 00 
 12819)     10875.2  Rx         0020  5  0A 00 17 1A 01 
 12820)     10875.4  Rx         0024  5  00 00 43 13 03 
 12821)     10875.5  Rx         0022  5  0B 00 8B 1E 01 
 12822)     10875.7  Rx         0021  5  00 00 00 00 00 
 12823)     10875.9  Rx         0031  6  B4 7F 6F 7F 3A 81 
 12824)     10876.1  Rx         0023  5  00 00 00 00 00 
 12825)     10876.3  Rx         0020  5  0A 00 17 1A 01 
 12826)     10876.6  Rx         0025  8  6D 02 7A 02 F9 01 E2 02 
 12827)     10876.7  Rx         0022  5  0B 00 8B 1E 01 
 12828)     10876.9  Rx         0021  5  00 00 00 00 00 
 12829)     10877.1  Rx         0024  5  00 00 1F 13 03 
 12830)     10877.3  Rx         0023  5  00 00 00 00 00 
 12831)     10877.5  Rx         0020  5  0A 00 16 1A 03 
 12832)     10877.7  Rx         0030  6  22 18 3E 83 65 BA 
 12833)     10877.9  Rx         0022  5  0B 00 8B 1E 01 
 12834)     10878.1  Rx         0021  5  00 00 00 00 00 
 12835)     10878.3  Rx         0025  8  6B 02 79 02 F8 01 DF 02 
 12836)     10878.5  Rx         0023  5  00 00 00 00 00 
 12837)     10878.7  Rx         0020  5  0A 00 16 1A 03 
 12838)     10878.9  Rx         0024  5  00 00 1F 13 03 
 12839)     10879.0  Rx         0022  5  0B 00 8B 1E 01 
 12840)     10879.3  Rx         0021  5  00 00 00 00 00 
 12841)     10879.6  Rx         0023  5  00 00 00 00 00 
 12842)     10879.8  Rx         0020  5  0A 00 16 1A 01 
 12843)     10880.0  Rx         0025  8  6B 02 78 02 F9 01 DD 02 
 12844)     10880.2  Rx         0022  5  0B 00 8B 1E 01 
 12845)     10880.4  Rx         0021  5  00 00 00 00 00 
 12846)     10880.6  Rx         0024  5  00 00 1F 13 03 
 12847)     10880.7  Rx         0023  5  00 00 00 00 00 
 12848)     10881.0  Rx         0020  5  0A 00 16 1A 01 
 12849)     10881.1  Rx         0031  6  B4 7F 6F 7F 3A 81 
 12850)     10881.5  Rx         0021  5  00 00 00 00 00 
 12851)     10881.7  Rx         0025  8  6C 02 79 02 F8 01 DE 02 
 12852)     10882.0  Rx         0020  5  0A 00 15 1A 03 
 12853)     10882.2  Rx         0024  5  00 00 1F 13 03 
 12854)     10882.5  Rx         0021  5  00 00 00 00 00 
 12855)     10882.7  Rx         0026  6  4F 08 1B 85 10 3B 
 12856)     10883.0  Rx         0020  5  0A 00 15 1A 03 
 12857)     10883.2  Rx         0025  8  6C 02 7A 02 F8 01 DE 02 
 12858)     10883.4  Rx         0022  5  0B 00 8A 1E 03 
 12859)     10883.6  Rx         0021  5  00 00 00 00 00 
 12860)     10883.8  Rx         0024  5  00 00 1F 13 03 
 12861)     10884.0  Rx         0023  5  00 00 00 00 00 
 12862)     10884.2  Rx         0020  5  0A 00 15 1A 01 
 12863)     10884.4  Rx         0030  6  22 18 3E 83 65 BA 
 12864)     10884.5  Rx         0022  5  0B 00 8A 1E 03 
 12865)     10884.8  Rx         0021  5  00 00 00 00 00 
 12866)     10885.0  Rx         0025  8  6D 02 7B 02 F9 01 DF 02 
 12867)     10885.2  Rx         0023  5  00 00 00 00 00 
 12868)     10885.4  Rx         0020  5  0A 00 15 1A 01 
 12869)     10885.5  Rx         0024  5  00 00 43 13 03 
 12870)     10885.7  Rx         0022  5  0B 00 8A 1E 01 
 12871)     10885.9  Rx         0021  5  00 00 00 00 00 
 12872)     10886.1  Rx         0031  6  A5 7F 79 7F 0C 81 
 12873)     10886.3  Rx         0023  5  00 00 00 00 00 
 12874)     10886.5  Rx         0020  5  0A 00 14 1A 03 
 12875)     10886.7  Rx         0025  8  6E 02 7B 02 F8 01 DD 02 
 12876)     10886.9  Rx         0022  5  0B 00 8A 1E 01 
 12877)     10887.1  Rx         0021  5  00 00 00 00 00 
 12878)     10887.3  Rx         0024  5  00 00 43 13 00 
 12879)     10887.5  Rx         0023  5  00 00 00 00 00 
 12880)     10887.7  Rx         0020  5  0A 00 14 1A 03 
 12881)     10887.9  Rx         0030  6  FF 17 27 83 71 BA 
 12882)     10888.0  Rx         0022  5  0B 00 8A 1E 01 
 12883)     10888.3  Rx         0021  5  00 00 00 00 00 
 12884)     10888.5  Rx         0025  8  6E 02 7A 02 F6 01 DB 02 
 12885)     10888.7  Rx         0023  5  00 00 00 00 00 
 12886)     10888.9  Rx         0020  5  0A 00 14 1A 03 
 12887)     10889.0  Rx         0024  5  00 00 43 13 00 
 12888)     10889.4  Rx         0021  5  00 00 00 00 00 
 12889)     10889.9  Rx         0020  5  0A 00 14 1A 01 
 12890)     10890.1  Rx         0025  8  6D 02 79 02 F8 01 DA 02 
 12891)     10890.3  Rx         0031  6  A5 7F 79 7F 0C 81 
 12892)     10890.6  Rx         0021  5  00 00 00 00 00 
 12893)     10890.7  Rx         0024  5  00 00 43 13 03 
 12894)     10891.0  Rx         0020  5  0A 00 13 1A 03 
 12895)     10891.6  Rx         0021  5  00 00 00 00 00 
 12896)     10891.8  Rx         0025  8  6E 02 7A 02 F6 01 D9 02 
 12897)     10892.1  Rx         0020  5  0A 00 13 1A 01 
 12898)     10892.3  Rx         0024  5  00 00 43 13 03 
 12899)     10892.6  Rx         0021  5  00 00 00 00 00 
 12900)     10892.8  Rx         0030  6  FF 17 27 83 71 BA 
 12901)     10893.1  Rx         0020  5  0A 00 13 1A 01 
 12902)     10893.3  Rx         0025  8  6F 02 7C 02 F7 01 DB 02 
 12903)     10893.6  Rx         0021  5  00 00 00 00 00 
 12904)     10893.8  Rx         0024  5  00 00 43 13 03 
 12905)     10894.1  Rx         0020  5  0A 00 13 1A 01 
 12906)     10894.6  Rx         0021  5  00 00 00 00 00 
 12907)     10894.9  Rx         0025  8  6E 02 7C 02 F7 01 DA 02 
 12908)     10895.0  Rx         0031  6  A5 7F 79 7F 0C 81 
 12909)     10895.2  Rx         0020  5  0A 00 12 1A 03 
 12910)     10895.4  Rx         0024  5  00 00 43 13 03 
 12911)     10895.7  Rx         0021  5  00 00 00 00 00 
 12912)     10896.2  Rx         0020  5  0A 00 12 1A 03 
 12913)     10896.5  Rx         0025  8  6E 02 7B 02 F7 01 D8 02 
 12914)     10896.7  Rx         0030  6  DD 17 10 83 7C BA 
 12915)     10896.9  Rx         0021  5  00 00 00 00 00 
 12916)     10897.1  Rx         0024  5  00 00 43 13 03 
 12917)     10897.4  Rx         0020  5  0A 00 12 1A 03 
 12918)     10897.9  Rx         0021  5  00 00 00 00 00 
 12919)     10898.2  Rx         0025  8  6F 02 7C 02 F7 01 D8 02 
 12920)     10898.4  Rx         0020  5  0A 00 12 1A 01 
 12921)     10898.6  Rx         0031  6  B0 7F 92 7F E4 80 
 12922)     10898.8  Rx         0024  5  00 00 43 13 03 
 12923)     10899.0  Rx         0021  5  00 00 00 00 00 
 12924)     10899.5  Rx         0020  5  0A 00 11 1A 03 
 12925)     10899.7  Rx         0025  8  6E 02 7B 02 F5 01 D5 02 
 12926)     10900.0  Rx         0021  5  00 00 00 00 00 
 12927)     10900.2  Rx         0024  5  00 00 43 13 03 
 12928)     10900.5  Rx         0020  5  0A 00 11 1A 03 
 12929)     10901.0  Rx         0021  5  00 00 00 00 00 
 12930)     10901.3  Rx         0025  8  6E 02 7C 02 F6 01 D6 02 
 12931)     10901.4  Rx         0030  6  DD 17 10 83 7C BA 
 12932)     10901.7  Rx         0020  5  0A 00 11 1A 01 
 12933)     10901.8  Rx         0024  5  00 00 43 13 00 
 12934)     10902.2  Rx         0021  5  00 00 00 00 00 
 12935)     10902.7  Rx         0020  5  0A 00 11 1A 01 
 12936)     10902.9  Rx         0025  8  70 02 7D 02 F7 01 D6 02 
 12937)     10903.2  Rx         0021  5  00 00 00 00 00 
 12938)     10903.4  Rx         0024  5  00 00 43 13 03 
 12939)     10903.7  Rx         0020  5  0A 00 11 1A 01 
 12940)     10904.0  Rx         0031  6  B0 7F 92 7F E4 80 
 12941)     10904.2  Rx         0021  5  00 00 00 00 00 
 12942)     10904.4  Rx         0025  8  70 02 7E 02 F7 01 D8 02 
 12943)     10904.7  Rx         0020  5  0A 00 10 1A 03 
 12944)     10904.9  Rx         0024  5  00 00 43 13 03 
 12945)     10905.2  Rx         0021  5  00 00 00 00 00 
 12946)     10905.6  Rx         0030  6  BB 17 F9 82 7C BA 
 12947)     10905.8  Rx         0020  5  0A 00 10 1A 01 
 12948)     10906.0  Rx         0025  8  6F 02 7D 02 F6 01 D6 02 
 12949)     10906.3  Rx         0021  5  00 00 00 00 00 
 12950)     10906.5  Rx         0024  5  00 00 43 13 03 
 12951)     10906.8  Rx         0020  5  0A 00 10 1A 01 
 12952)     10907.2  Rx         0031  6  0A 80 84 7F D0 80 
 12953)     10907.5  Rx         0021  5  00 00 00 00 00 
 12954)     10907.7  Rx         0025  8  6F 02 7D 02 F6 01 D4 02 
 12955)     10907.9  Rx         0020  5  0A 00 10 1A 01 
 12956)     10908.2  Rx         0024  5  00 00 43 13 03 
 12957)     10908.4  Rx         0021  5  00 00 00 00 00 
 12958)     10908.9  Rx         0030  6  BB 17 F9 82 7C BA 
 12959)     10909.1  Rx         0020  5  0A 00 0F 1A 03 
 12960)     10909.3  Rx         0025  8  70 02 7F 02 F6 01 D5 02 
 12961)     10909.6  Rx         0021  5  00 00 00 00 00 
 12962)     10909.8  Rx         0024  5  00 00 43 13 03 
 12963)     10910.1  Rx         0020  5  0A 00 0F 1A 01 
 12964)     10910.6  Rx         0021  5  00 00 00 00 00 
 12965)     10910.8  Rx         0025  8  6F 02 7D 02 F5 01 D5 02 
 12966)     10911.1  Rx         0020  5  0A 00 0F 1A 01 
 12967)     10911.3  Rx         0024  5  00 00 43 13 03 
 12968)     10911.6  Rx         0031  6  0A 80 84 7F D0 80 
 12969)     10911.7  Rx         0021  5  00 00 00 00 00 
 12970)     10912.3  Rx         0025  8  6F 02 7D 02 F6 01 D6 02 
 12971)     10912.5  Rx         0020  5  0A 00 0F 1A 01 
 12972)     10912.8  Rx         0024  5  00 00 43 13 03 
 12973)     10913.0  Rx         0021  5  00 00 00 00 00 
 12974)     10913.5  Rx         0020  5  0A 00 0E 1A 03 
 12975)     10913.7  Rx         0025  8  6F 02 7E 02 F5 01 D4 02 
 12976)     10914.0  Rx         0021  5  00 00 00 00 00 
 12977)     10914.2  Rx         0030  6  BB 17 F9 82 7C BA 
 12978)     10914.4  Rx         0024  5  00 00 43 13 00 
 12979)     10914.6  Rx         0020  5  0A 00 0E 1A 01 
 12980)     10915.1  Rx         0021  5  00 00 00 00 00 
 12981)     10915.3  Rx         0025  8  72 02 80 02 F5 01 D5 02 
 12982)     10915.6  Rx         0020  5  0A 00 0E 1A 01 
 12983)     10915.8  Rx         0024  5  00 00 43 13 03 
 12984)     10916.0  Rx         0031  6  77 80 88 7F CF 80 
 12985)     10916.2  Rx         0021  5  00 00 00 00 00 
 12986)     10916.8  Rx         0025  8  6F 02 7D 02 F5 01 D6 02 
 12987)     10916.9  Rx         0020  5  0A 00 0D 1A 03 
 12988)     10917.2  Rx         0024  5  00 00 43 13 03 
 12989)     10917.4  Rx         0021  5  00 00 00 00 00 
 12990)     10917.7  Rx         0030  6  99 17 E3 82 71 BA 
 12991)     10918.0  Rx         0020  5  0A 00 0D 1A 01 
 12992)     10918.2  Rx         0025  8  71 02 80 02 F5 01 D6 02 
 12993)     10918.5  Rx         0021  5  00 00 00 00 00 
 12994)     10918.7  Rx         0024  5  00 00 43 13 03 
 12995)     10919.0  Rx         0020  5  0A 00 0D 1A 01 
 12996)     10919.5  Rx         0021  5  00 00 00 00 00 
 12997)     10919.7  Rx         0025  8  70 02 80 02 F5 01 D4 02 
 12998)     10920.0  Rx         0020  5  0A 00 0C 1A 03 
 12999)     10920.2  Rx         0031  6  77 80 88 7F CF 80 
 13000)     10920.4  Rx         0024  5  00 00 43 13 03 
 13001)     10920.6  Rx         0021  5  00 00 00 00 00 
 13002)     10921.1  Rx         0020  5  0A 00 0C 1A 01 
 13003)     10921.3  Rx         0025  8  71 02 80 02 F4 01 D4 02 
 13004)     10921.6  Rx         0021  5  00 00 00 00 00 
 13005)     10921.8  Rx         0024  5  00 00 43 13 03 
 13006)     10922.1  Rx         0020  5  0A 00 0B 1A 03 
 13007)     10922.6  Rx         0021  5  00 00 00 00 00 
 13008)     10922.9  Rx         0025  8  6F 02 7F 02 F6 01 D4 02 
 13009)     10923.0  Rx         0030  6  99 17 E3 82 71 BA 
 13010)     10923.2  Rx         0020  5  0A 00 0B 1A 03 
 13011)     10923.4  Rx         0024  5  00 00 43 13 03 
 13012)     10923.8  Rx         0021  5  00 00 00 00 00 
 13013)     10924.3  Rx         0020  5  0A 00 0B 1A 01 
 13014)     10924.5  Rx         0025  8  6F 02 7E 02 F6 01 D5 02 
 13015)     10924.8  Rx         0021  5  00 00 00 00 00 
 13016)     10924.9  Rx         0024  5  00 00 43 13 03 
 13017)     10925.2  Rx         0031  6  77 80 88 7F CF 80 
 13018)     10925.4  Rx         0020  5  0A 00 0B 1A 01 
 13019)     10925.9  Rx         0025  8  71 02 80 02 F6 01 D7 02 
 13020)     10926.1  Rx         0021  5  00 00 00 00 00 
 13021)     10926.4  Rx         0024  5  00 00 43 13 03 
 13022)     10926.6  Rx         0020  5  0A 00 0A 1A 03 
 13023)     10926.9  Rx         0030  6  77 17 CC 82 65 BA 
 13024)     10927.1  Rx         0021  5  00 00 00 00 00 
 13025)     10927.4  Rx         0025  8  70 02 7F 02 F5 01 D4 02 
 13026)     10927.6  Rx         0020  5  0A 00 0A 1A 01 
 13027)     10927.8  Rx         0024  5  00 00 43 13 03 
 13028)     10928.1  Rx         0021  5  00 00 00 00 00 
 13029)     10928.7  Rx         0020  5  0A 00 0A 1A 01 
 13030)     10928.9  Rx         0025  8  6F 02 7F 02 F5 01 D4 02 
 13031)     10929.0  Rx         0031  6  86 80 9E 7F DF 80 
 13032)     10929.3  Rx         0021  5  00 00 00 00 00 
 13033)     10929.4  Rx         0024  5  00 00 43 13 03 
 13034)     10929.8  Rx         0020  5  0A 00 09 1A 03 
 13035)     10930.3  Rx         0021  5  00 00 00 00 00 
 13036)     10930.5  Rx         0025  8  71 02 80 02 F5 01 D4 02 
 13037)     10930.8  Rx         0020  5  0A 00 09 1A 03 
 13038)     10931.0  Rx         0024  5  00 00 43 13 03 
 13039)     10931.3  Rx         0021  5  00 00 00 00 00 
 13040)     10931.6  Rx         0030  6  77 17 CC 82 65 BA 
 13041)     10931.8  Rx         0020  5  0A 00 08 1A 03 
 13042)     10932.0  Rx         0025  8  71 02 81 02 F6 01 D4 02 
 13043)     10932.3  Rx         0021  5  00 00 00 00 00 
 13044)     10932.5  Rx         0024  5  00 00 43 13 03 
 13045)     10932.8  Rx         0020  5  0A 00 08 1A 03 
 13046)     10933.4  Rx         0021  5  00 00 00 00 00 
 13047)     10933.6  Rx         0025  8  71 02 80 02 F5 01 D2 02 
 13048)     10933.8  Rx         0020  5  0A 00 08 1A 01 
 13049)     10934.0  Rx         0031  6  86 80 9E 7F DF 80 
 13050)     10934.2  Rx         0024  5  00 00 43 13 03 
 13051)     10934.4  Rx         0021  5  00 00 00 00 00 
 13052)     10934.9  Rx         0020  5  0A 00 08 1A 01 
 13053)     10935.1  Rx         0025  8  72 02 80 02 F4 01 D2 02 
 13054)     10935.4  Rx         0021  5  00 00 00 00 00 
 13055)     10935.7  Rx         0024  5  00 00 43 13 03 
 13056)     10935.8  Rx         0030  6  55 17 C0 82 5A BA 
 13057)     10936.0  Rx         0020  5  0A 00 07 1A 03 
 13058)     10936.5  Rx         0021  5  00 00 00 00 00 
 13059)     10936.8  Rx         0025  8  72 02 7F 02 F4 01 D4 02 
 13060)     10937.0  Rx         0020  5  0A 00 07 1A 01 
 13061)     10937.3  Rx         0024  5  00 00 43 13 03 
 13062)     10937.5  Rx         0031  6  40 80 99 7F D3 80 
 13063)     10937.7  Rx         0021  5  00 00 00 00 00 
 13064)     10938.2  Rx         0025  8  72 02 7F 02 F3 01 D5 02 
 13065)     10938.4  Rx         0020  5  0A 00 06 1A 03 
 13066)     10938.7  Rx         0024  5  00 00 43 13 03 
 13067)     10938.9  Rx         0021  5  00 00 00 00 00 
 13068)     10939.4  Rx         0020  5  0A 00 06 1A 03 
 13069)     10939.6  Rx         0025  8  72 02 80 02 F2 01 D2 02 
 13070)     10939.9  Rx         0021  5  00 00 00 00 00 
 13071)     10940.1  Rx         0030  6  55 17 C0 82 5A BA 
 13072)     10940.3  Rx         0024  5  00 00 43 13 03 
 13073)     10940.5  Rx         0020  5  0A 00 06 1A 01 
 13074)     10941.0  Rx         0021  5  00 00 00 00 00 
 13075)     10941.2  Rx         0025  8  73 02 81 02 F2 01 D2 02 
 13076)     10941.5  Rx         0020  5  0A 00 05 1A 03 
 13077)     10941.7  Rx         0024  5  00 00 43 13 03 
 13078)     10942.0  Rx         0021  5  00 00 00 00 00 
 13079)     10942.5  Rx         0020  5  0A 00 05 1A 03 
 13080)     10942.8  Rx         0025  8  73 02 80 02 F3 01 D3 02 
 13081)     10943.0  Rx         0031  6  40 80 99 7F D3 80 
 13082)     10943.2  Rx         0021  5  00 00 00 00 00 
 13083)     10943.3  Rx         0024  5  00 00 43 13 03 
 13084)     10943.6  Rx         0020  5  0A 00 05 1A 01 
 13085)     10944.1  Rx         0021  5  00 00 00 00 00 
 13086)     10944.4  Rx         0025  8  73 02 7F 02 F3 01 D4 02 
 13087)     10944.7  Rx         0020  5  0A 00 05 1A 01 
 13088)     10944.9  Rx         0024  5  00 00 43 13 03 
 13089)     10945.1  Rx         0030  6  55 17 C0 82 5A BA 
 13090)     10945.3  Rx         0021  5  00 00 00 00 00 
 13091)     10945.8  Rx         0025  8  75 02 80 02 F3 01 D6 02 
 13092)     10946.0  Rx         0020  5  0A 00 04 1A 03 
 13093)     10946.3  Rx         0024  5  00 00 43 13 03 
 13094)     10946.5  Rx         0021  5  00 00 00 00 00 
 13095)     10946.8  Rx         0031  6  9E 7F A8 7F C6 80 
 13096)     10947.0  Rx         0020  5  0A 00 04 1A 01 
 13097)     10947.3  Rx         0025  8  74 02 7F 02 F2 01 D4 02 
 13098)     10947.6  Rx         0021  5  00 00 00 00 00 
 13099)     10947.8  Rx         0024  5  00 00 43 13 03 
 13100)     10948.1  Rx         0020  5  0A 00 03 1A 03 
 13101)     10948.6  Rx         0021  5  00 00 00 00 00 
 13102)     10948.8  Rx         0025  8  75 02 7F 02 F2 01 D3 02 
 13103)     10949.0  Rx         0030  6  33 17 AA 82 65 BA 
 13104)     10949.2  Rx         0020  5  0A 00 03 1A 03 
 13105)     10949.4  Rx         0024  5  00 00 43 13 03 
 13106)     10949.6  Rx         0026  6  4F 08 F9 84 05 3B 
 13107)     10949.8  Rx         0021  5  00 00 00 00 00 
 13108)     10950.0  Rx         0023  5  00 00 00 00 00 
 13109)     10950.2  Rx         0022  5  0B 00 81 1E 01 
 13110)     10950.4  Rx         0020  5  0A 00 03 1A 01 
 13111)     10950.5  Rx         0022  5  0B 00 89 1E 03 
 13112)     10950.8  Rx         0023  5  00 00 00 00 00 
 13113)     10950.9  Rx         0021  5  00 00 00 00 00 
 13114)     10951.2  Rx         0025  8  76 02 7F 02 F2 01 D5 02 
 13115)     10951.4  Rx         0022  5  0B 00 80 1E 03 
 13116)     10951.6  Rx         0020  5  0A 00 02 1A 03 
 13117)     10951.7  Rx         0024  5  00 00 43 13 03 
 13118)     10952.0  Rx         0023  5  00 00 00 00 00 
 13119)     10952.1  Rx         0021  5  00 00 00 00 00 
 13120)     10952.3  Rx         0031  6  9E 7F A8 7F C6 80 
 13121)     10952.5  Rx         0022  5  0B 00 80 1E 03 
 13122)     10952.7  Rx         0020  5  0A 00 02 1A 03 
 13123)     10952.9  Rx         0025  8  78 02 7E 02 F1 01 D4 02 
 13124)     10953.1  Rx         0023  5  00 00 00 00 00 
 13125)     10953.3  Rx         0021  5  00 00 00 00 00 
 13126)     10953.5  Rx         0024  5  00 00 43 13 03 
 13127)     10953.8  Rx         0020  5  0A 00 02 1A 03 
 13128)     10954.3  Rx         0021  5  00 00 00 00 00 
 13129)     10954.6  Rx         0025  8  78 02 7D 02 F1 01 D4 02 
 13130)     10954.8  Rx         0026  6  38 08 5A 84 2D 3A 
 13131)     10955.0  Rx         0020  5  0A 00 02 1A 01 
 13132)     10955.2  Rx         0024  5  00 00 43 13 03 
 13133)     10955.4  Rx         0022  5  0B 00 80 1E 01 
 13134)     10955.5  Rx         0021  5  00 00 00 00 00 
 13135)     10955.8  Rx         0030  6  33 17 AA 82 65 BA 
 13136)     10955.9  Rx         0023  5  00 00 00 00 00 
 13137)     10956.1  Rx         0020  5  0A 00 01 1A 03 
 13138)     10956.3  Rx         0025  8  7A 02 7D 02 F1 01 D5 02 
 13139)     10956.5  Rx         0022  5  0B 00 80 1E 01 
 13140)     10956.7  Rx         0021  5  00 00 00 00 00 
 13141)     10956.9  Rx         0024  5  00 00 43 13 03 
 13142)     10957.1  Rx         0023  5  00 00 00 00 00 
 13143)     10957.3  Rx         0020  5  0A 00 01 1A 01 
 13144)     10957.5  Rx         0031  6  26 7F AC 7F B9 80 
 13145)     10957.7  Rx         0022  5  0B 00 80 1E 01 
 13146)     10957.9  Rx         0021  5  00 00 00 00 00 
 13147)     10958.1  Rx         0025  8  7B 02 7D 02 F1 01 D6 02 
 13148)     10958.3  Rx         0023  5  00 00 00 00 00 
 13149)     10958.5  Rx         0020  5  0A 00 00 1A 03 
 13150)     10958.7  Rx         0024  5  00 00 43 13 03 
 13151)     10958.9  Rx         0022  5  0B 00 80 1E 01 
 13152)     10959.1  Rx         0021  5  00 00 00 00 00 
 13153)     10959.3  Rx         0023  5  00 00 00 00 00 
 13154)     10959.6  Rx         0025  8  7B 02 7D 02 F0 01 D5 02 
 13155)     10959.8  Rx         0020  5  0A 00 00 1A 03 
 13156)     10960.0  Rx         0022  5  0B 00 80 1E 01 
 13157)     10960.2  Rx         0024  5  00 00 43 13 03 
 13158)     10960.4  Rx         0021  5  00 00 00 00 00 
 13159)     10960.6  Rx         0023  5  00 00 00 00 00 
 13160)     10960.7  Rx         0030  6  1C 17 93 82 7C BA 
 13161)     10961.0  Rx         0020  5  0A 00 00 1A 01 
 13162)     10961.1  Rx         0022  5  0B 00 7F 1E 03 
 13163)     10961.4  Rx         0025  8  7C 02 7B 02 EF 01 D5 02 
 13164)     10961.6  Rx         0021  5  00 00 00 00 00 
 13165)     10961.8  Rx         0023  5  00 00 00 00 00 
 13166)     10961.9  Rx         0024  5  00 00 43 13 03 
 13167)     10962.1  Rx         0020  5  0A 00 00 1A 01 
 13168)     10962.3  Rx         0022  5  0B 00 7F 1E 03 
 13169)     10962.7  Rx         0021  5  00 00 00 00 00 
 13170)     10962.8  Rx         0023  5  00 00 00 00 00 
 13171)     10963.1  Rx         0025  8  7D 02 7A 02 EF 01 D5 02 
 13172)     10963.3  Rx         0020  5  0A 00 FF 19 03 
 13173)     10963.5  Rx         0031  6  26 7F AC 7F B9 80 
 13174)     10963.6  Rx         0024  5  00 00 43 13 03 
 13175)     10963.8  Rx         0021  5  00 00 00 00 00 
 13176)     10964.3  Rx         0020  5  0A 00 FF 19 01 
 13177)     10964.5  Rx         0026  6  38 08 5A 84 21 3A 
 13178)     10964.8  Rx         0025  8  7F 02 7B 02 EE 01 D4 02 
 13179)     10965.0  Rx         0021  5  00 00 00 00 00 
 13180)     10965.1  Rx         0022  5  0B 00 7F 1E 01 
 13181)     10965.3  Rx         0024  5  00 00 43 13 03 
 13182)     10965.5  Rx         0020  5  0A 00 FF 19 01 
 13183)     10965.7  Rx         0023  5  00 00 00 00 00 
 13184)     10965.9  Rx         0030  6  1C 17 93 82 7C BA 
 13185)     10966.1  Rx         0021  5  00 00 00 00 00 
 13186)     10966.3  Rx         0022  5  0B 00 7F 1E 01 
 13187)     10966.5  Rx         0025  8  80 02 79 02 EE 01 D6 02 
 13188)     10966.7  Rx         0020  5  0A 00 FE 19 03 
 13189)     10966.9  Rx         0023  5  00 00 00 00 00 
 13190)     10967.1  Rx         0024  5  00 00 43 13 03 
 13191)     10967.3  Rx         0021  5  00 00 00 00 00 
 13192)     10967.4  Rx         0022  5  0B 00 7E 1E 03 
 13193)     10967.7  Rx         0031  6  B1 7E 95 7F B0 80 
 13194)     10967.8  Rx         0020  5  0A 00 FE 19 03 
 13195)     10968.3  Rx         0025  8  82 02 7A 02 EE 01 D7 02 
 13196)     10968.5  Rx         0021  5  00 00 00 00 00 
 13197)     10968.8  Rx         0024  5  00 00 43 13 03 
 13198)     10969.0  Rx         0020  5  0A 00 FE 19 01 
 13199)     10969.5  Rx         0021  5  00 00 00 00 00 
 13200)     10969.7  Rx         0025  8  82 02 79 02 ED 01 D5 02 
 13201)     10970.0  Rx         0020  5  0A 00 FD 19 03 
 13202)     10970.2  Rx         0030  6  05 17 88 82 A9 BA 
 13203)     10970.4  Rx         0024  5  00 00 43 13 03 
 13204)     10970.6  Rx         0021  5  00 00 00 00 00 
 13205)     10971.1  Rx         0020  5  0A 00 FD 19 03 
 13206)     10971.3  Rx         0025  8  83 02 77 02 EC 01 D3 02 
 13207)     10971.6  Rx         0021  5  00 00 00 00 00 
 13208)     10971.8  Rx         0024  5  00 00 43 13 03 
 13209)     10972.1  Rx         0020  5  0A 00 FD 19 01 
 13210)     10972.6  Rx         0021  5  00 00 00 00 00 
 13211)     10972.9  Rx         0025  8  84 02 79 02 EE 01 D6 02 
 13212)     10973.1  Rx         0031  6  B1 7E 95 7F B0 80 
 13213)     10973.2  Rx         0020  5  0A 00 FD 19 01 
 13214)     10973.4  Rx         0024  5  00 00 43 13 03 
 13215)     10973.8  Rx         0021  5  00 00 00 00 00 
 13216)     10974.3  Rx         0020  5  0A 00 FC 19 03 
 13217)     10974.5  Rx         0025  8  83 02 76 02 EE 01 D6 02 
 13218)     10974.8  Rx         0021  5  00 00 00 00 00 
 13219)     10975.0  Rx         0024  5  00 00 43 13 03 
 13220)     10975.2  Rx         0030  6  05 17 88 82 A9 BA 
 13221)     10975.5  Rx         0020  5  0A 00 FC 19 03 
 13222)     10975.9  Rx         0025  8  85 02 77 02 ED 01 D7 02 
 13223)     10976.1  Rx         0021  5  00 00 00 00 00 
 13224)     10976.4  Rx         0024  5  00 00 43 13 03 
 13225)     10976.7  Rx         0020  5  0A 00 FC 19 01 
 13226)     10976.9  Rx         0031  6  AF 7E 82 7F A2 80 
 13227)     10977.2  Rx         0021  5  00 00 00 00 00 
 13228)     10977.4  Rx         0025  8  87 02 78 02 EC 01 D8 02 
 13229)     10977.7  Rx         0020  5  0A 00 FB 19 03 
 13230)     10977.9  Rx         0024  5  00 00 43 13 03 
 13231)     10978.2  Rx         0021  5  00 00 00 00 00 
 13232)     10978.7  Rx         0020  5  0A 00 FB 19 03 
 13233)     10978.9  Rx         0025  8  87 02 76 02 EC 01 D6 02 
 13234)     10979.1  Rx         0030  6  E3 16 71 82 CC BA 
 13235)     10979.3  Rx         0021  5  00 00 00 00 00 
 13236)     10979.5  Rx         0024  5  00 00 43 13 03 
 13237)     10979.8  Rx         0020  5  0A 00 FB 19 01 
 13238)     10980.3  Rx         0021  5  00 00 00 00 00 
 13239)     10980.6  Rx         0025  8  88 02 75 02 EC 01 D7 02 
 13240)     10980.8  Rx         0020  5  0A 00 FB 19 01 
 13241)     10981.1  Rx         0024  5  00 00 43 13 03 
 13242)     10981.4  Rx         0021  5  00 00 00 00 00 
 13243)     10981.6  Rx         0031  6  AF 7E 82 7F A2 80 
 13244)     10981.9  Rx         0020  5  0A 00 FA 19 03 
 13245)     10982.1  Rx         0025  8  88 02 76 02 EC 01 D8 02 
 13246)     10982.4  Rx         0021  5  00 00 00 00 00 
 13247)     10982.6  Rx         0024  5  00 00 43 13 03 
 13248)     10982.9  Rx         0020  5  0A 00 FA 19 03 
 13249)     10983.4  Rx         0021  5  00 00 00 00 00 
 13250)     10983.6  Rx         0025  8  8A 02 75 02 EC 01 D6 02 
 13251)     10983.9  Rx         0020  5  0A 00 FA 19 01 
 13252)     10984.1  Rx         0024  5  00 00 43 13 03 
 13253)     10984.3  Rx         0030  6  E3 16 71 82 CC BA 
 13254)     10984.5  Rx         0021  5  00 00 00 00 00 
 13255)     10985.1  Rx         0025  8  8B 02 75 02 EC 01 D8 02 
 13256)     10985.2  Rx         0020  5  0A 00 F9 19 03 
 13257)     10985.5  Rx         0024  5  00 00 43 13 03 
 13258)     10985.7  Rx         0021  5  00 00 00 00 00 
 13259)     10986.0  Rx         0031  6  55 7F 7E 7F 86 80 
 13260)     10986.2  Rx         0020  5  0A 00 F9 19 03 
 13261)     10986.5  Rx         0025  8  8D 02 77 02 EC 01 D9 02 
 13262)     10986.8  Rx         0021  5  00 00 00 00 00 
 13263)     10987.0  Rx         0024  5  00 00 43 13 03 
 13264)     10987.2  Rx         0020  5  0A 00 F9 19 01 
 13265)     10987.6  Rx         0030  6  CC 16 65 82 E2 BA 
 13266)     10987.8  Rx         0021  5  00 00 00 00 00 
 13267)     10988.0  Rx         0025  8  8A 02 75 02 EA 01 D7 02 
 13268)     10988.3  Rx         0020  5  0A 00 F9 19 01 
 13269)     10988.5  Rx         0024  5  00 00 43 13 03 
 13270)     10988.8  Rx         0021  5  00 00 00 00 00 
 13271)     10989.3  Rx         0023  5  00 00 00 00 00 
 13272)     10989.5  Rx         0020  5  0A 00 F8 19 03 
 13273)     10989.7  Rx         0022  5  0B 00 7E 1E 03 
 13274)     10989.9  Rx         0025  8  8B 02 74 02 EB 01 D6 02 
 13275)     10990.1  Rx         0021  5  00 00 00 00 00 
 13276)     10990.3  Rx         0026  6  22 08 71 84 16 3A 
 13277)     10990.7  Rx         0020  5  0A 00 F8 19 03 
 13278)     10990.9  Rx         0024  5  00 00 43 13 03 
 13279)     10991.1  Rx         0031  6  55 7F 7E 7F 86 80 
 13280)     10991.3  Rx         0021  5  00 00 00 00 00 
 13281)     10991.8  Rx         0025  8  8E 02 75 02 EB 01 D8 02 
 13282)     10992.0  Rx         0020  5  0A 00 F8 19 01 
 13283)     10992.3  Rx         0024  5  00 00 43 13 03 
 13284)     10992.5  Rx         0021  5  00 00 00 00 00 
 13285)     10993.0  Rx         0020  5  0A 00 F8 19 01 
 13286)     10993.3  Rx         0025  8  90 02 78 02 EB 01 D7 02 
 13287)     10993.5  Rx         0021  5  00 00 00 00 00 
 13288)     10993.7  Rx         0030  6  CC 16 65 82 E2 BA 
 13289)     10993.9  Rx         0024  5  00 00 43 13 03 
 13290)     10994.1  Rx         0020  5  0A 00 F7 19 03 
 13291)     10994.6  Rx         0021  5  00 00 00 00 00 
 13292)     10994.9  Rx         0025  8  91 02 77 02 EA 01 D7 02 
 13293)     10995.1  Rx         0020  5  0A 00 F7 19 03 
 13294)     10995.3  Rx         0024  5  00 00 43 13 03 
 13295)     10995.8  Rx         0021  5  00 00 00 00 00 
 13296)     10996.0  Rx         0023  5  00 00 00 00 00 
 13297)     10996.2  Rx         0022  5  0B 00 7B 1E 03 
 13298)     10996.4  Rx         0020  5  0A 00 F6 19 03 
 13299)     10996.6  Rx         0022  5  0B 00 7B 1E 01 
 13300)     10996.8  Rx         0023  5  00 00 00 00 00 
 13301)     10997.0  Rx         0021  5  00 00 00 00 00 
 13302)     10997.1  Rx         0023  5  00 00 00 00 00 
 13303)     10997.4  Rx         0025  8  91 02 75 02 EB 01 D8 02 
 13304)     10997.6  Rx         0020  5  0A 00 F6 19 03 
 13305)     10997.8  Rx         0031  6  12 80 7D 7F 64 80 
 13306)     10997.9  Rx         0024  5  00 00 43 13 03 
 13307)     10998.2  Rx         0021  5  00 00 00 00 00 
 13308)     10998.7  Rx         0020  5  0A 00 F6 19 03 
 13309)     10998.9  Rx         0025  8  94 02 77 02 E9 01 D4 02 
 13310)     10999.2  Rx         0021  5  00 00 00 00 00 
 13311)     10999.4  Rx         0024  5  00 00 43 13 03 
 13312)     10999.6  Rx         0030  6  B5 16 5A 82 E2 BA 
 13313)     10999.7  Rx         0020  5  0A 00 F6 19 01 
 13314)     11000.0  Rx         0026  6  0B 08 7C 84 0B 3A 
 13315)     11000.3  Rx         0021  5  00 00 00 00 00 
 13316)     11000.4  Rx         0022  5  0B 00 7A 1E 01 
 13317)     11000.7  Rx         0025  8  95 02 75 02 E9 01 D7 02 
 13318)     11000.8  Rx         0020  5  0A 00 F6 19 01 
 13319)     11001.1  Rx         0023  5  00 00 00 00 00 
 13320)     11001.2  Rx         0024  5  00 00 43 13 03 
 13321)     11001.4  Rx         0021  5  00 00 00 00 00 
 13322)     11001.6  Rx         0022  5  0B 00 7A 1E 01 
 13323)     11002.0  Rx         0020  5  0A 00 F6 19 01 
 13324)     11002.1  Rx         0023  5  00 00 00 00 00 
 13325)     11002.3  Rx         0025  8  98 02 78 02 EA 01 D6 02 
 13326)     11002.6  Rx         0021  5  00 00 00 00 00 
 13327)     11002.7  Rx         0022  5  0B 00 7A 1E 01 
 13328)     11002.9  Rx         0024  5  00 00 43 13 03 
 13329)     11003.1  Rx         0020  5  0A 00 F5 19 03 
 13330)     11003.3  Rx         0023  5  00 00 00 00 00 
 13331)     11003.5  Rx         0031  6  12 80 7D 7F 64 80 
 13332)     11003.7  Rx         0021  5  00 00 00 00 00 
 13333)     11003.9  Rx         0022  5  0B 00 7A 1E 01 
 13334)     11004.1  Rx         0025  8  97 02 77 02 E9 01 D7 02 
 13335)     11004.3  Rx         0020  5  0A 00 F5 19 03 
 13336)     11004.5  Rx         0023  5  00 00 00 00 00 
 13337)     11004.7  Rx         0024  5  00 00 43 13 03 
 13338)     11004.9  Rx         0021  5  00 00 00 00 00 
 13339)     11005.0  Rx         0022  5  0B 00 7A 1E 01 
 13340)     11005.4  Rx         0020  5  0A 00 F4 19 03 
 13341)     11005.6  Rx         0023  5  00 00 00 00 00 
 13342)     11005.8  Rx         0025  8  97 02 75 02 E8 01 D5 02 
 13343)     11006.0  Rx         0021  5  00 00 00 00 00 
 13344)     11006.2  Rx         0022  5  0B 00 79 1E 03 
 13345)     11006.4  Rx         0024  5  00 00 43 13 03 
 13346)     11006.6  Rx         0020  5  0A 00 F4 19 03 
 13347)     11006.7  Rx         0023  5  00 00 00 00 00 
 13348)     11007.0  Rx         0030  6  B5 16 5A 82 E2 BA 
 13349)     11007.1  Rx         0021  5  00 00 00 00 00 
 13350)     11007.3  Rx         0022  5  0B 00 79 1E 03 
 13351)     11007.5  Rx         0025  8  98 02 75 02 E8 01 D5 02 
 13352)     11007.8  Rx         0020  5  0A 00 F4 19 03 
 13353)     11007.9  Rx         0023  5  00 00 00 00 00 
 13354)     11008.1  Rx         0024  5  00 00 43 13 03 
 13355)     11008.3  Rx         0021  5  00 00 00 00 00 
 13356)     11008.5  Rx         0022  5  0B 00 79 1E 03 
 13357)     11008.7  Rx         0031  6  8A 80 87 7F 44 80 
 13358)     11008.9  Rx         0020  5  0A 00 F4 19 01 
 13359)     11009.1  Rx         0023  5  00 00 00 00 00 
 13360)     11009.3  Rx         0025  8  99 02 77 02 E8 01 D5 02 
 13361)     11009.5  Rx         0021  5  00 00 00 00 00 
 13362)     11009.8  Rx         0024  5  00 00 43 13 03 
 13363)     11010.0  Rx         0020  5  0A 00 F3 19 03 
 13364)     11010.5  Rx         0021  5  00 00 00 00 00 
 13365)     11010.7  Rx         0025  8  97 02 75 02 E6 01 D3 02 
 13366)     11011.0  Rx         0020  5  0A 00 F3 19 03 
 13367)     11011.2  Rx         0030  6  9F 16 5A 82 CC BA 
 13368)     11011.4  Rx         0024  5  00 00 43 13 03 
 13369)     11011.6  Rx         0021  5  00 00 00 00 00 
 13370)     11011.8  Rx         0026  6  FF 07 88 84 0B 3A 
 13371)     11012.1  Rx         0020  5  0A 00 F3 19 01 
 13372)     11012.3  Rx         0022  5  0B 00 79 1E 01 
 13373)     11012.5  Rx         0025  8  9A 02 76 02 E8 01 D5 02 
 13374)     11012.7  Rx         0021  5  00 00 00 00 00 
 13375)     11012.9  Rx         0023  5  00 00 00 00 00 
 13376)     11013.1  Rx         0024  5  00 00 43 13 03 
 13377)     11013.3  Rx         0020  5  0A 00 F3 19 01 
 13378)     11013.5  Rx         0022  5  0B 00 79 1E 01 
 13379)     11013.7  Rx         0031  6  8A 80 87 7F 44 80 
 13380)     11013.9  Rx         0021  5  00 00 00 00 00 
 13381)     11014.1  Rx         0023  5  00 00 00 00 00 
 13382)     11014.3  Rx         0025  8  9B 02 75 02 E7 01 D4 02 
 13383)     11014.5  Rx         0020  5  0A 00 F2 19 01 
 13384)     11014.7  Rx         0022  5  0B 00 79 1E 01 
 13385)     11014.9  Rx         0024  5  00 00 43 13 03 
 13386)     11015.1  Rx         0021  5  00 00 00 00 00 
 13387)     11015.3  Rx         0023  5  00 00 00 00 00 
 13388)     11015.6  Rx         0020  5  0A 00 F2 19 01 
 13389)     11015.8  Rx         0030  6  93 16 5A 82 CC BA 
 13390)     11016.0  Rx         0022  5  0B 00 79 1E 01 
 13391)     11016.2  Rx         0021  5  00 00 00 00 00 
 13392)     11016.4  Rx         0025  8  9B 02 75 02 E6 01 D3 02 
 13393)     11016.6  Rx         0023  5  00 00 00 00 00 
 13394)     11016.8  Rx         0020  5  0A 00 F2 19 01 
 13395)     11016.9  Rx         0024  5  00 00 43 13 03 
 13396)     11017.1  Rx         0022  5  0B 00 78 1E 03 
 13397)     11017.3  Rx         0021  5  00 00 00 00 00 
 13398)     11017.5  Rx         0031  6  5B 80 A8 7F 16 80 
 13399)     11017.7  Rx         0023  5  00 00 00 00 00 
 13400)     11017.9  Rx         0020  5  0A 00 F1 19 03 
 13401)     11018.1  Rx         0025  8  9C 02 74 02 E6 01 D4 02 
 13402)     11018.3  Rx         0022  5  0B 00 78 1E 03 
 13403)     11018.5  Rx         0021  5  00 00 00 00 00 
 13404)     11018.7  Rx         0024  5  00 00 43 13 03 
 13405)     11018.9  Rx         0023  5  00 00 00 00 00 
 13406)     11019.1  Rx         0020  5  0A 00 F1 19 01 
 13407)     11019.4  Rx         0022  5  0B 00 78 1E 03 
 13408)     11019.6  Rx         0025  8  9D 02 74 02 E6 01 D2 02 
 13409)     11019.8  Rx         0021  5  00 00 00 00 00 
 13410)     11020.0  Rx         0023  5  00 00 00 00 00 
 13411)     11020.2  Rx         0024  5  00 00 43 13 03 
 13412)     11020.3  Rx         0020  5  0A 00 F1 19 01 
 13413)     11020.6  Rx         0030  6  93 16 5A 82 CC BA 
 13414)     11020.9  Rx         0021  5  00 00 00 00 00 
 13415)     11021.1  Rx         0025  8  9D 02 73 02 E5 01 D1 02 
 13416)     11021.4  Rx         0020  5  0A 00 F0 19 03 
 13417)     11021.6  Rx         0024  5  00 00 43 13 03 
 13418)     11021.9  Rx         0021  5  00 00 00 00 00 
 13419)     11022.2  Rx         0026  6  F4 07 88 84 0B 3A 
 13420)     11022.4  Rx         0020  5  0A 00 F0 19 01 
 13421)     11022.6  Rx         0025  8  9C 02 72 02 E4 01 D2 02 
 13422)     11022.8  Rx         0022  5  0B 00 78 1E 01 
 13423)     11023.0  Rx         0021  5  00 00 00 00 00 
 13424)     11023.2  Rx         0024  5  00 00 43 13 03 
 13425)     11023.4  Rx         0023  5  00 00 00 00 00 
 13426)     11023.5  Rx         0020  5  0A 00 EF 19 03 
 13427)     11023.8  Rx         0031  6  5B 80 A8 7F 16 80 
 13428)     11023.9  Rx         0022  5  0B 00 78 1E 01 
 13429)     11024.1  Rx         0021  5  00 00 00 00 00 
 13430)     11024.4  Rx         0025  8  A0 02 74 02 E5 01 D4 02 
 13431)     11024.6  Rx         0023  5  00 00 00 00 00 
 13432)     11024.7  Rx         0020  5  0A 00 EF 19 01 
 13433)     11024.9  Rx         0024  5  00 00 43 13 03 
 13434)     11025.1  Rx         0022  5  0B 00 78 1E 01 
 13435)     11025.3  Rx         0021  5  00 00 00 00 00 
 13436)     11025.6  Rx         0023  5  00 00 00 00 00 
 13437)     11025.8  Rx         0030  6  93 16 5A 82 CC BA 
 13438)     11026.0  Rx         0020  5  0A 00 EF 19 01 
 13439)     11026.2  Rx         0022  5  0B 00 78 1E 01 
 13440)     11026.4  Rx         0025  8  A0 02 73 02 E4 01 D1 02 
 13441)     11026.6  Rx         0021  5  00 00 00 00 00 
 13442)     11026.8  Rx         0023  5  00 00 00 00 00 
 13443)     11027.0  Rx         0024  5  00 00 43 13 03 
 13444)     11027.2  Rx         0020  5  0A 00 EE 19 03 
 13445)     11027.3  Rx         0022  5  0B 00 78 1E 01 
 13446)     11027.6  Rx         0031  6  EF 7F D1 7F DF 7F 
 13447)     11027.7  Rx         0021  5  00 00 00 00 00 
 13448)     11027.9  Rx         0023  5  00 00 00 00 00 
 13449)     11028.2  Rx         0025  8  A2 02 73 02 E3 01 D3 02 
 13450)     11028.4  Rx         0020  5  0A 00 EE 19 03 
 13451)     11028.5  Rx         0022  5  0B 00 78 1E 01 
 13452)     11028.8  Rx         0024  5  00 00 43 13 03 
 13453)     11028.9  Rx         0021  5  00 00 00 00 00 
 13454)     11029.1  Rx         0023  5  00 00 00 00 00 
 13455)     11029.4  Rx         0020  5  0A 00 ED 19 03 
 13456)     11029.6  Rx         0022  5  0B 00 77 1E 03 
 13457)     11029.9  Rx         0025  8  A2 02 73 02 E3 01 D4 02 
 13458)     11030.0  Rx         0021  5  00 00 00 00 00 
 13459)     11030.2  Rx         0023  5  00 00 00 00 00 
 13460)     11030.4  Rx         0024  5  00 00 43 13 03 
 13461)     11030.6  Rx         0020  5  0A 00 ED 19 03 
 13462)     11030.8  Rx         0022  5  0B 00 77 1E 03 
 13463)     11031.0  Rx         0030  6  93 16 5A 82 CC BA 
 13464)     11031.2  Rx         0021  5  00 00 00 00 00 
 13465)     11031.4  Rx         0023  5  00 00 00 00 00 
 13466)     11031.6  Rx         0025  8  A3 02 72 02 E3 01 D2 02 
 13467)     11031.8  Rx         0020  5  0A 00 ED 19 01 
 13468)     11032.1  Rx         0024  5  00 00 43 13 03 
 13469)     11032.3  Rx         0021  5  00 00 00 00 00 
 13470)     11032.8  Rx         0020  5  0A 00 ED 19 01 
 13471)     11033.1  Rx         0025  8  A5 02 71 02 E2 01 D1 02 
 13472)     11033.2  Rx         0026  6  E9 07 7C 84 FF 39 
 13473)     11033.4  Rx         0021  5  00 00 00 00 00 
 13474)     11033.6  Rx         0024  5  00 00 43 13 03 
 13475)     11033.8  Rx         0022  5  0B 00 77 1E 03 
 13476)     11034.0  Rx         0020  5  0A 00 EC 19 03 
 13477)     11034.2  Rx         0031  6  EF 7F D1 7F DF 7F 
 13478)     11034.4  Rx         0023  5  00 00 00 00 00 
 13479)     11034.6  Rx         0021  5  00 00 00 00 00 
 13480)     11034.8  Rx         0025  8  A5 02 70 02 E3 01 D2 02 
 13481)     11035.0  Rx         0022  5  0B 00 77 1E 03 
 13482)     11035.2  Rx         0020  5  0A 00 EC 19 01 
 13483)     11035.4  Rx         0024  5  00 00 43 13 03 
 13484)     11035.6  Rx         0023  5  00 00 00 00 00 
 13485)     11035.7  Rx         0021  5  00 00 00 00 00 
 13486)     11036.0  Rx         0030  6  9F 16 65 82 CC BA 
 13487)     11036.1  Rx         0022  5  0B 00 77 1E 03 
 13488)     11036.3  Rx         0020  5  0A 00 EC 19 01 
 13489)     11036.6  Rx         0025  8  A6 02 6F 02 E2 01 D4 02 
 13490)     11036.8  Rx         0023  5  00 00 00 00 00 
 13491)     11036.9  Rx         0021  5  00 00 00 00 00 
 13492)     11037.1  Rx         0024  5  00 00 43 13 03 
 13493)     11037.3  Rx         0022  5  0B 00 77 1E 03 
 13494)     11037.5  Rx         0020  5  0A 00 EB 19 01 
 13495)     11037.7  Rx         0031  6  B0 7F FB 7F C3 7F 
 13496)     11037.9  Rx         0023  5  00 00 00 00 00 
 13497)     11038.1  Rx         0021  5  00 00 00 00 00 
 13498)     11038.3  Rx         0025  8  A6 02 6D 02 E2 01 D4 02 
 13499)     11038.5  Rx         0022  5  0B 00 77 1E 03 
 13500)     11038.7  Rx         0020  5  0A 00 EB 19 01 
 13501)     11038.9  Rx         0024  5  00 00 43 13 03 
 13502)     11039.2  Rx         0021  5  00 00 00 00 00 
 13503)     11039.7  Rx         0020  5  0A 00 EA 19 03 
 13504)     11039.9  Rx         0025  8  A8 02 6E 02 E2 01 D2 02 
 13505)     11040.2  Rx         0030  6  9F 16 65 82 CC BA 
 13506)     11040.4  Rx         0021  5  00 00 00 00 00 
 13507)     11040.6  Rx         0024  5  00 00 43 13 03 
 13508)     11040.9  Rx         0020  5  0A 00 EA 19 01 
 13509)     11041.4  Rx         0021  5  00 00 00 00 00 
 13510)     11041.7  Rx         0025  8  A8 02 6D 02 E1 01 D2 02 
 13511)     11041.9  Rx         0020  5  0A 00 E9 19 03 
 13512)     11042.1  Rx         0024  5  00 00 43 13 03 
 13513)     11042.4  Rx         0021  5  00 00 00 00 00 
 13514)     11042.7  Rx         0031  6  B0 7F FB 7F C3 7F 
 13515)     11043.0  Rx         0020  5  0A 00 E9 19 03 
 13516)     11043.2  Rx         0025  8  A7 02 6C 02 E1 01 D2 02 
 13517)     11043.5  Rx         0021  5  00 00 00 00 00 
 13518)     11043.7  Rx         0024  5  00 00 43 13 03 
 13519)     11044.0  Rx         0020  5  0A 00 E9 19 01 
 13520)     11044.5  Rx         0021  5  00 00 00 00 00 
 13521)     11044.7  Rx         0025  8  AA 02 6D 02 E1 01 D1 02 
 13522)     11045.0  Rx         0020  5  0A 00 E8 19 03 
 13523)     11045.2  Rx         0030  6  9F 16 65 82 CC BA 
 13524)     11045.3  Rx         0024  5  00 00 43 13 03 
 13525)     11045.6  Rx         0021  5  00 00 00 00 00 
 13526)     11046.1  Rx         0020  5  0A 00 E8 19 01 
 13527)     11046.3  Rx         0025  8  AC 02 6E 02 E0 01 D0 02 
 13528)     11046.6  Rx         0021  5  00 00 00 00 00 
 13529)     11046.8  Rx         0024  5  00 00 43 13 03 
 13530)     11047.0  Rx         0031  6  D8 7F E0 7F C5 7F 
 13531)     11047.2  Rx         0020  5  0A 00 E8 19 01 
 13532)     11047.7  Rx         0025  8  AB 02 6B 02 E0 01 CF 02 
 13533)     11048.0  Rx         0021  5  00 00 00 00 00 
 13534)     11048.2  Rx         0024  5  00 00 43 13 03 
 13535)     11048.5  Rx         0020  5  0A 00 E7 19 01 
 13536)     11049.0  Rx         0021  5  00 00 00 00 00 
 13537)     11049.2  Rx         0025  8  AD 02 6B 02 DF 01 CF 02 
 13538)     11049.4  Rx         0030  6  9F 16 65 82 D7 BA 
 13539)     11049.6  Rx         0020  5  0A 00 E7 19 01 
 13540)     11049.8  Rx         0024  5  00 00 43 13 03 
 13541)     11050.1  Rx         0021  5  00 00 00 00 00 
 13542)     11050.6  Rx         0020  5  0A 00 E6 19 03 
 13543)     11050.9  Rx         0025  8  AD 02 6A 02 DF 01 CF 02 
 13544)     11051.2  Rx         0021  5  00 00 00 00 00 
 13545)     11051.3  Rx         0024  5  00 00 43 13 03 
 13546)     11051.6  Rx         0020  5  0A 00 E6 19 01 
 13547)     11051.9  Rx         0031  6  D8 7F E0 7F C5 7F 
 13548)     11052.1  Rx         0021  5  00 00 00 00 00 
 13549)     11052.4  Rx         0025  8  AF 02 6C 02 DF 01 D0 02 
 13550)     11052.6  Rx         0020  5  0A 00 E5 19 03 
 13551)     11052.9  Rx         0024  5  00 00 43 13 03 
 13552)     11053.2  Rx         0021  5  00 00 00 00 00 
 13553)     11053.7  Rx         0020  5  0A 00 E5 19 01 
 13554)     11053.9  Rx         0025  8  B2 02 6C 02 E0 01 D0 02 
 13555)     11054.2  Rx         0021  5  00 00 00 00 00 
 13556)     11054.4  Rx         0024  5  00 00 43 13 03 
 13557)     11054.6  Rx         0030  6  9F 16 65 82 D7 BA 
 13558)     11054.7  Rx         0020  5  0A 00 E5 19 01 
 13559)     11055.3  Rx         0025  8  B4 02 6D 02 DF 01 D0 02 
 13560)     11055.5  Rx         0021  5  00 00 00 00 00 
 13561)     11055.8  Rx         0024  5  00 00 43 13 03 
 13562)     11056.0  Rx         0020  5  0A 00 E4 19 01 
 13563)     11056.2  Rx         0031  6  11 80 B8 7F D4 7F 
 13564)     11056.5  Rx         0021  5  00 00 00 00 00 
 13565)     11056.8  Rx         0025  8  B5 02 6D 02 DF 01 D0 02 
 13566)     11057.0  Rx         0020  5  0A 00 E4 19 01 
 13567)     11057.3  Rx         0024  5  00 00 43 13 03 
 13568)     11057.6  Rx         0021  5  00 00 00 00 00 
 13569)     11057.8  Rx         0030  6  9F 16 71 82 D7 BA 
 13570)     11058.1  Rx         0020  5  0A 00 E3 19 03 
 13571)     11058.3  Rx         0025  8  B5 02 6C 02 DF 01 CF 02 
 13572)     11058.6  Rx         0021  5  00 00 00 00 00 
 13573)     11058.7  Rx         0024  5  00 00 43 13 03 
 13574)     11059.1  Rx         0020  5  0A 00 E3 19 01 
 13575)     11059.6  Rx         0021  5  00 00 00 00 00 
 13576)     11059.8  Rx         0025  8  B6 02 6B 02 DE 01 CD 02 
 13577)     11060.1  Rx         0020  5  0A 00 E2 19 03 
 13578)     11060.3  Rx         0024  5  00 00 43 13 03 
 13579)     11060.5  Rx         0031  6  11 80 B8 7F D4 7F 
 13580)     11060.7  Rx         0021  5  00 00 00 00 00 
 13581)     11061.3  Rx         0025  8  B9 02 6B 02 DF 01 CD 02 
 13582)     11061.4  Rx         0020  5  0A 00 E2 19 01 
 13583)     11061.7  Rx         0024  5  00 00 43 13 03 
 13584)     11061.9  Rx         0021  5  00 00 00 00 00 
 13585)     11062.5  Rx         0020  5  0A 00 E1 19 03 
 13586)     11062.7  Rx         0025  8  BB 02 6C 02 DD 01 CC 02 
 13587)     11063.0  Rx         0021  5  00 00 00 00 00 
 13588)     11063.2  Rx         0030  6  9F 16 71 82 D7 BA 
 13589)     11063.4  Rx         0024  5  00 00 43 13 03 
 13590)     11063.5  Rx         0020  5  0A 00 E1 19 03 
 13591)     11064.1  Rx         0021  5  00 00 00 00 00 
 13592)     11064.3  Rx         0025  8  BC 02 6C 02 DD 01 CB 02 
 13593)     11064.6  Rx         0020  5  0A 00 E0 19 03 
 13594)     11064.8  Rx         0024  5  00 00 43 13 03 
 13595)     11065.1  Rx         0021  5  00 00 00 00 00 
 13596)     11065.4  Rx         0031  6  11 80 B8 7F D4 7F 
 13597)     11065.6  Rx         0020  5  0A 00 E0 19 01 
 13598)     11065.8  Rx         0025  8  BB 02 6A 02 DE 01 CC 02 
 13599)     11066.1  Rx         0021  5  00 00 00 00 00 
 13600)     11066.3  Rx         0024  5  00 00 43 13 03 
 13601)     11066.6  Rx         0020  5  0A 00 E0 19 01 
 13602)     11067.0  Rx         0030  6  93 16 71 82 D7 BA 
 13603)     11067.2  Rx         0021  5  00 00 00 00 00 
 13604)     11067.4  Rx         0025  8  BD 02 6A 02 DD 01 CB 02 
 13605)     11067.7  Rx         0020  5  0A 00 DF 19 03 
 13606)     11067.9  Rx         0024  5  00 00 43 13 03 
 13607)     11068.2  Rx         0021  5  00 00 00 00 00 
 13608)     11068.7  Rx         0031  6  10 80 9B 7F D2 7F 
 13609)     11068.9  Rx         0020  5  0A 00 DF 19 01 
 13610)     11069.1  Rx         0025  8  BE 02 6A 02 DD 01 CA 02 
 13611)     11069.4  Rx         0021  5  00 00 00 00 00 
 13612)     11069.6  Rx         0024  5  00 00 43 13 03 
 13613)     11069.8  Rx         0020  5  0A 00 DE 19 03 
 13614)     11070.4  Rx         0021  5  00 00 00 00 00 
 13615)     11070.6  Rx         0025  8  C1 02 69 02 DC 01 CA 02 
 13616)     11070.9  Rx         0020  5  0A 00 DE 19 01 
 13617)     11071.1  Rx         0024  5  00 00 43 13 03 
 13618)     11071.2  Rx         0030  6  93 16 71 82 D7 BA 
 13619)     11071.5  Rx         0021  5  00 00 00 00 00 
 13620)     11072.0  Rx         0020  5  0A 00 DD 19 03 
 13621)     11072.2  Rx         0025  8  C4 02 68 02 DD 01 CB 02 
 13622)     11072.5  Rx         0021  5  00 00 00 00 00 
 13623)     11072.7  Rx         0024  5  00 00 43 13 03 
 13624)     11073.0  Rx         0020  5  0A 00 DD 19 01 
 13625)     11073.5  Rx         0021  5  00 00 00 00 00 
 13626)     11073.7  Rx         0025  8  C5 02 6A 02 DD 01 CA 02 
 13627)     11073.9  Rx         0031  6  10 80 9B 7F D2 7F 
 13628)     11074.1  Rx         0020  5  0A 00 DC 19 03 
 13629)     11074.3  Rx         0024  5  00 00 43 13 03 
 13630)     11074.7  Rx         0021  5  00 00 00 00 00 
 13631)     11075.1  Rx         0020  5  0A 00 DC 19 01 
 13632)     11075.3  Rx         0025  8  C6 02 69 02 DD 01 CA 02 
 13633)     11075.6  Rx         0021  5  00 00 00 00 00 
 13634)     11075.9  Rx         0024  5  00 00 43 13 03 
 13635)     11076.0  Rx         0030  6  AA 16 93 82 D7 BA 
