;$FILEVERSION=1.1
;$STARTTIME=45805.7640246528
;
;   Start time: 2025/5/28 18:20:11.730.0
;   Generated by PCAN-View v5.3.2.952
;
;   Message Number
;   |         Time Offset (ms)
;   |         |        Type
;   |         |        |        ID (hex)
;   |         |        |        |     Data Length
;   |         |        |        |     |   Data Bytes (hex) ...
;   |         |        |        |     |   |
;---+--   ----+----  --+--  ----+---  +  -+ -- -- -- -- -- -- --
     1)         2.3  Rx         0021  5  00 00 00 00 00 
     2)         3.4  Rx         0021  5  00 00 00 00 00 
     3)         6.9  Rx         0021  5  00 00 00 00 00 
     4)         7.1  Rx         0022  5  0B 00 F3 1C 03 
     5)        12.3  Rx         0020  5  0A 00 8A 19 03 
     6)        12.4  Rx         0023  5  00 00 00 00 00 
     7)        12.9  Rx         0021  5  00 00 00 00 00 
     8)        14.1  Rx         0021  5  00 00 00 00 00 
     9)        14.6  Rx         0020  5  0A 00 8A 19 01 
    10)        21.6  Rx         0020  5  0A 00 89 19 03 
    11)        21.9  Rx         0022  5  0B 00 F3 1C 03 
    12)        25.1  Rx         0020  5  0A 00 89 19 01 
    13)        26.9  Rx         0021  5  00 00 00 00 00 
    14)        27.1  Rx         0022  5  0B 00 F3 1C 03 
    15)        27.6  Rx         0020  5  0A 00 88 19 03 
    16)        27.7  Rx         0023  5  00 00 00 00 00 
    17)        32.9  Rx         0021  5  00 00 00 00 00 
    18)        33.0  Rx         0022  5  0B 00 F3 1C 03 
    19)        33.5  Rx         0020  5  0A 00 88 19 01 
    20)        33.7  Rx         0023  5  00 00 00 00 00 
    21)        34.7  Rx         0020  5  0A 00 87 19 03 
    22)        35.8  Rx         0020  5  0A 00 87 19 03 
    23)        36.1  Rx         0026  6  81 FF 2D 80 99 3B 
    24)        36.6  Rx         0021  5  00 00 00 00 00 
    25)        36.7  Rx         0022  5  0B 00 F3 1C 03 
    26)        42.5  Rx         0021  5  00 00 00 00 00 
    27)        42.6  Rx         0022  5  0B 00 F3 1C 03 
    28)        44.8  Rx         0021  5  00 00 00 00 00 
    29)        44.9  Rx         0022  5  0B 00 F3 1C 03 
    30)        45.4  Rx         0020  5  0A 00 86 19 03 
    31)        45.6  Rx         0023  5  00 00 00 00 00 
    32)        46.5  Rx         0020  5  0A 00 86 19 01 
    33)        47.7  Rx         0020  5  0A 00 86 19 01 
    34)        47.9  Rx         0022  5  0B 00 F3 1C 03 
    35)        51.8  Rx         0021  5  00 00 00 00 00 
    36)        52.1  Rx         0023  5  00 00 00 00 00 
    37)        54.2  Rx         0021  5  00 00 00 00 00 
    38)        54.4  Rx         0023  5  00 00 00 00 00 
    39)        54.9  Rx         0020  5  0A 00 85 19 01 
    40)        55.0  Rx         0022  5  0B 00 F3 1C 03 
    41)        57.2  Rx         0020  5  0A 00 84 19 03 
    42)        58.4  Rx         0020  5  0A 00 84 19 03 
    43)        58.6  Rx         0026  6  8D FF 2D 80 99 3B 
    44)        59.0  Rx         0021  5  00 00 00 00 00 
    45)        59.2  Rx         0022  5  0B 00 F3 1C 03 
    46)        60.7  Rx         0020  5  0A 00 84 19 01 
    47)        60.9  Rx         0023  5  00 00 00 00 00 
    48)        63.1  Rx         0020  5  0A 00 84 19 01 
    49)        63.3  Rx         0023  5  00 00 00 00 00 
    50)        63.7  Rx         0021  5  00 00 00 00 00 
    51)        63.9  Rx         0022  5  0B 00 F3 1C 03 
    52)        66.0  Rx         0021  5  00 00 00 00 00 
    53)        66.3  Rx         0022  5  0B 00 F3 1C 03 
    54)        66.7  Rx         0020  5  0A 00 83 19 03 
    55)        66.9  Rx         0023  5  00 00 00 00 00 
    56)        67.9  Rx         0020  5  0A 00 83 19 03 
    57)        68.0  Rx         0023  5  00 00 00 00 00 
    58)        68.4  Rx         0021  5  00 00 00 00 00 
    59)        69.0  Rx         0020  5  0A 00 83 19 01 
    60)        70.2  Rx         0020  5  0A 00 83 19 01 
    61)        70.4  Rx         0022  5  0B 00 F3 1C 03 
    62)        70.7  Rx         0021  5  00 00 00 00 00 
    63)        70.9  Rx         0023  5  00 00 00 00 00 
    64)        71.2  Rx         0020  5  0A 00 83 19 01 
    65)        71.4  Rx         0022  5  0B 00 F3 1C 03 
    66)        71.8  Rx         0021  5  00 00 00 00 00 
    67)        72.0  Rx         0023  5  00 00 00 00 00 
    68)        72.4  Rx         0020  5  0A 00 83 19 01 
    69)        72.6  Rx         0022  5  0B 00 F3 1C 03 
    70)        73.0  Rx         0021  5  00 00 00 00 00 
    71)        73.2  Rx         0023  5  00 00 00 00 00 
    72)        73.6  Rx         0020  5  0A 00 82 19 03 
    73)        73.8  Rx         0022  5  0B 00 F3 1C 03 
    74)        74.2  Rx         0021  5  00 00 00 00 00 
    75)        74.4  Rx         0023  5  00 00 00 00 00 
    76)        74.7  Rx         0020  5  0A 00 82 19 03 
    77)        74.9  Rx         0022  5  0B 00 F3 1C 03 
    78)        75.3  Rx         0021  5  00 00 00 00 00 
    79)        75.4  Rx         0023  5  00 00 00 00 00 
    80)        75.8  Rx         0020  5  0A 00 82 19 01 
    81)        75.9  Rx         0022  5  0B 00 F3 1C 03 
    82)        76.3  Rx         0021  5  00 00 00 00 00 
    83)        76.4  Rx         0023  5  00 00 00 00 00 
    84)        76.7  Rx         0020  5  0A 00 82 19 01 
    85)        76.9  Rx         0022  5  0B 00 F3 1C 03 
    86)        77.3  Rx         0021  5  00 00 00 00 00 
    87)        77.5  Rx         0023  5  00 00 00 00 00 
    88)        77.8  Rx         0020  5  0A 00 82 19 01 
    89)        77.9  Rx         0022  5  0B 00 F3 1C 03 
    90)        78.5  Rx         0021  5  00 00 00 00 00 
    91)        78.7  Rx         0023  5  00 00 00 00 00 
    92)        79.1  Rx         0020  5  0A 00 82 19 01 
    93)        81.6  Rx         0020  5  0A 00 81 19 03 
    94)        81.8  Rx         0022  5  0B 00 F3 1C 03 
    95)        82.2  Rx         0021  5  00 00 00 00 00 
    96)        82.4  Rx         0023  5  00 00 00 00 00 
    97)        82.9  Rx         0020  5  0A 00 81 19 03 
    98)        83.1  Rx         0022  5  0B 00 F3 1C 03 
    99)        83.5  Rx         0021  5  00 00 00 00 00 
   100)        83.7  Rx         0023  5  00 00 00 00 00 
   101)        84.2  Rx         0020  5  0A 00 81 19 03 
   102)        84.4  Rx         0022  5  0B 00 F3 1C 03 
   103)        84.8  Rx         0021  5  00 00 00 00 00 
   104)        85.0  Rx         0023  5  00 00 00 00 00 
   105)        85.4  Rx         0020  5  0A 00 81 19 03 
   106)        85.6  Rx         0022  5  0B 00 F3 1C 03 
   107)        86.0  Rx         0021  5  00 00 00 00 00 
   108)        86.2  Rx         0023  5  00 00 00 00 00 
   109)        86.6  Rx         0020  5  0A 00 81 19 01 
   110)        86.7  Rx         0022  5  0B 00 F3 1C 03 
   111)        87.2  Rx         0021  5  00 00 00 00 00 
   112)        87.4  Rx         0023  5  00 00 00 00 00 
   113)        87.8  Rx         0020  5  0A 00 81 19 01 
   114)        88.0  Rx         0022  5  0B 00 F3 1C 03 
   115)        88.5  Rx         0021  5  00 00 00 00 00 
   116)        88.7  Rx         0023  5  00 00 00 00 00 
   117)        89.2  Rx         0020  5  0A 00 80 19 03 
   118)        89.3  Rx         0022  5  0B 00 F3 1C 03 
   119)        89.8  Rx         0021  5  00 00 00 00 00 
   120)        90.0  Rx         0023  5  00 00 00 00 00 
   121)        90.4  Rx         0020  5  0A 00 80 19 03 
   122)       103.0  Rx         0021  5  00 00 00 00 00 
   123)       104.1  Rx         0021  5  00 00 00 00 00 
   124)       105.3  Rx         0021  5  00 00 00 00 00 
   125)       105.4  Rx         0022  5  0B 00 F3 1C 03 
   126)       105.9  Rx         0020  5  0A 00 7F 19 01 
   127)       106.1  Rx         0023  5  00 00 00 00 00 
   128)       113.5  Rx         0021  5  00 00 00 00 00 
   129)       115.3  Rx         0020  5  0A 00 7E 19 01 
   130)       115.8  Rx         0026  6  A3 FF 21 80 82 3B 
   131)       116.0  Rx         0021  5  00 00 00 00 00 
   132)       116.5  Rx         0022  5  0B 00 F3 1C 03 
   133)       116.7  Rx         0020  5  0A 00 7E 19 01 
   134)       117.1  Rx         0023  5  00 00 00 00 00 
   135)       117.3  Rx         0021  5  00 00 00 00 00 
   136)       122.4  Rx         0022  5  0B 00 F3 1C 03 
   137)       122.6  Rx         0020  5  0A 00 7D 19 03 
   138)       123.1  Rx         0023  5  00 00 00 00 00 
   139)       123.2  Rx         0021  5  00 00 00 00 00 
   140)       125.0  Rx         0020  5  0A 00 7D 19 01 
   141)       125.5  Rx         0021  5  00 00 00 00 00 
   142)       127.7  Rx         0023  5  00 00 00 00 00 
   143)       127.9  Rx         0021  5  00 00 00 00 00 
   144)       128.1  Rx         0022  5  0B 00 F3 1C 03 
   145)       128.4  Rx         0020  5  0A 00 7D 19 01 
   146)       128.7  Rx         0023  5  00 00 00 00 00 
   147)       128.9  Rx         0021  5  00 00 00 00 00 
   148)       129.2  Rx         0022  5  0B 00 F3 1C 03 
   149)       133.1  Rx         0020  5  0A 00 7C 19 01 
   150)       133.3  Rx         0023  5  00 00 00 00 00 
   151)       133.8  Rx         0021  5  00 00 00 00 00 
   152)       133.9  Rx         0022  5  0B 00 F3 1C 03 
   153)       134.9  Rx         0021  5  00 00 00 00 00 
   154)       135.1  Rx         0022  5  0B 00 F3 1C 03 
   155)       135.4  Rx         0020  5  0A 00 7C 19 01 
   156)       135.6  Rx         0023  5  00 00 00 00 00 
   157)       135.9  Rx         0021  5  00 00 00 00 00 
   158)       136.4  Rx         0020  5  0A 00 7C 19 01 
   159)       137.6  Rx         0020  5  0A 00 7C 19 01 
   160)       137.9  Rx         0022  5  0B 00 F3 1C 03 
   161)       138.2  Rx         0021  5  00 00 00 00 00 
   162)       138.4  Rx         0023  5  00 00 00 00 00 
   163)       138.8  Rx         0020  5  0A 00 7C 19 01 
   164)       139.0  Rx         0022  5  0B 00 F3 1C 03 
   165)       139.4  Rx         0021  5  00 00 00 00 00 
   166)       139.6  Rx         0023  5  00 00 00 00 00 
   167)       140.0  Rx         0020  5  0A 00 7C 19 01 
   168)       140.2  Rx         0022  5  0B 00 F3 1C 03 
   169)       140.6  Rx         0021  5  00 00 00 00 00 
   170)       140.8  Rx         0023  5  00 00 00 00 00 
   171)       141.2  Rx         0020  5  0A 00 7C 19 01 
   172)       141.4  Rx         0022  5  0B 00 F3 1C 03 
   173)       141.8  Rx         0021  5  00 00 00 00 00 
   174)       142.0  Rx         0023  5  00 00 00 00 00 
   175)       142.4  Rx         0020  5  0A 00 7B 19 03 
   176)       142.6  Rx         0022  5  0B 00 F3 1C 03 
   177)       143.0  Rx         0021  5  00 00 00 00 00 
   178)       143.2  Rx         0023  5  00 00 00 00 00 
   179)       143.6  Rx         0020  5  0A 00 7B 19 03 
   180)       143.8  Rx         0022  5  0B 00 F3 1C 03 
   181)       144.2  Rx         0021  5  00 00 00 00 00 
   182)       144.4  Rx         0023  5  00 00 00 00 00 
   183)       144.9  Rx         0020  5  0A 00 7B 19 03 
   184)       145.0  Rx         0022  5  0B 00 F3 1C 03 
   185)       145.4  Rx         0021  5  00 00 00 00 00 
   186)       145.6  Rx         0023  5  00 00 00 00 00 
   187)       146.0  Rx         0020  5  0A 00 7B 19 03 
   188)       146.2  Rx         0022  5  0B 00 F3 1C 03 
   189)       146.6  Rx         0021  5  00 00 00 00 00 
   190)       146.9  Rx         0023  5  00 00 00 00 00 
   191)       147.2  Rx         0020  5  0A 00 7B 19 03 
   192)       149.0  Rx         0021  5  00 00 00 00 00 
   193)       149.2  Rx         0022  5  0B 00 F3 1C 03 
   194)       149.6  Rx         0020  5  0A 00 7B 19 03 
   195)       149.8  Rx         0023  5  00 00 00 00 00 
   196)       150.2  Rx         0021  5  00 00 00 00 00 
   197)       150.4  Rx         0022  5  0B 00 F3 1C 03 
   198)       158.5  Rx         0021  5  00 00 00 00 00 
   199)       158.7  Rx         0026  6  BA FF 21 80 77 3B 
   200)       159.2  Rx         0020  5  0A 00 7B 19 01 
   201)       159.4  Rx         0022  5  0B 00 F3 1C 03 
   202)       162.7  Rx         0020  5  0A 00 7B 19 01 
   203)       162.9  Rx         0022  5  0B 00 F3 1C 03 
   204)       163.4  Rx         0021  5  00 00 00 00 00 
   205)       163.5  Rx         0023  5  00 00 00 00 00 
   206)       166.9  Rx         0021  5  00 00 00 00 00 
   207)       167.1  Rx         0023  5  00 00 00 00 00 
   208)       169.2  Rx         0021  5  00 00 00 00 00 
   209)       171.9  Rx         0023  5  00 00 00 00 00 
   210)       172.4  Rx         0020  5  0A 00 7A 19 03 
   211)       172.5  Rx         0022  5  0B 00 F3 1C 03 
   212)       175.9  Rx         0020  5  0A 00 7A 19 03 
   213)       176.1  Rx         0022  5  0B 00 F3 1C 03 
   214)       176.5  Rx         0021  5  00 00 00 00 00 
   215)       176.8  Rx         0023  5  00 00 00 00 00 
   216)       180.1  Rx         0021  5  00 00 00 00 00 
   217)       183.4  Rx         0022  5  0B 00 F3 1C 03 
   218)       183.6  Rx         0021  5  00 00 00 00 00 
   219)       184.1  Rx         0023  5  00 00 00 00 00 
   220)       184.3  Rx         0020  5  0A 00 7A 19 03 
   221)       187.5  Rx         0023  5  00 00 00 00 00 
   222)       188.0  Rx         0020  5  0A 00 7A 19 03 
   223)       188.1  Rx         0022  5  0B 00 F3 1C 03 
   224)       192.1  Rx         0021  5  00 00 00 00 00 
   225)       193.3  Rx         0021  5  00 00 00 00 00 
   226)       196.8  Rx         0021  5  00 00 00 00 00 
   227)       197.0  Rx         0022  5  0B 00 F3 1C 03 
   228)       197.5  Rx         0020  5  0A 00 7A 19 03 
   229)       197.6  Rx         0023  5  00 00 00 00 00 
   230)       202.8  Rx         0021  5  00 00 00 00 00 
   231)       204.6  Rx         0020  5  0A 00 7A 19 01 
   232)       208.2  Rx         0020  5  0A 00 79 19 03 
   233)       208.4  Rx         0022  5  0B 00 F3 1C 03 
   234)       213.6  Rx         0021  5  00 00 00 00 00 
   235)       213.7  Rx         0023  5  00 00 00 00 00 
   236)       214.2  Rx         0020  5  0A 00 79 19 03 
   237)       215.4  Rx         0020  5  0A 00 79 19 03 
   238)       215.9  Rx         0026  6  BA FF 21 80 77 3B 
   239)       216.1  Rx         0021  5  00 00 00 00 00 
   240)       216.5  Rx         0022  5  0B 00 F3 1C 03 
   241)       216.8  Rx         0020  5  0A 00 79 19 03 
   242)       217.2  Rx         0023  5  00 00 00 00 00 
   243)       217.4  Rx         0021  5  00 00 00 00 00 
   244)       222.5  Rx         0022  5  0B 00 F3 1C 03 
   245)       222.9  Rx         0020  5  0A 00 79 19 03 
   246)       223.1  Rx         0023  5  00 00 00 00 00 
   247)       225.2  Rx         0020  5  0A 00 79 19 03 
   248)       225.5  Rx         0023  5  00 00 00 00 00 
   249)       225.9  Rx         0021  5  00 00 00 00 00 
   250)       227.6  Rx         0020  5  0A 00 79 19 03 
   251)       227.8  Rx         0022  5  0B 00 F3 1C 03 
   252)       228.3  Rx         0021  5  00 00 00 00 00 
   253)       228.5  Rx         0023  5  00 00 00 00 00 
   254)       234.2  Rx         0021  5  00 00 00 00 00 
   255)       234.4  Rx         0023  5  00 00 00 00 00 
   256)       234.8  Rx         0020  5  0A 00 79 19 03 
   257)       235.0  Rx         0022  5  0B 00 F3 1C 03 
   258)       237.2  Rx         0020  5  0A 00 79 19 03 
   259)       239.0  Rx         0021  5  00 00 00 00 00 
   260)       239.2  Rx         0022  5  0B 00 F3 1C 03 
   261)       239.7  Rx         0020  5  0A 00 79 19 01 
   262)       239.9  Rx         0023  5  00 00 00 00 00 
   263)       243.8  Rx         0021  5  00 00 00 00 00 
   264)       244.0  Rx         0022  5  0B 00 F3 1C 03 
   265)       244.4  Rx         0020  5  0A 00 79 19 01 
   266)       244.6  Rx         0023  5  00 00 00 00 00 
   267)       246.7  Rx         0020  5  0A 00 79 19 01 
   268)       246.9  Rx         0023  5  00 00 00 00 00 
   269)       247.4  Rx         0021  5  00 00 00 00 00 
   270)       249.1  Rx         0022  5  0B 00 F3 1C 03 
   271)       249.5  Rx         0020  5  0A 00 79 19 01 
   272)       249.8  Rx         0023  5  00 00 00 00 00 
   273)       253.7  Rx         0021  5  00 00 00 00 00 
   274)       253.9  Rx         0022  5  0B 00 F3 1C 03 
   275)       254.3  Rx         0020  5  0A 00 78 19 03 
   276)       254.5  Rx         0023  5  00 00 00 00 00 
   277)       256.7  Rx         0020  5  0A 00 78 19 03 
   278)       256.9  Rx         0023  5  00 00 00 00 00 
   279)       257.4  Rx         0021  5  00 00 00 00 00 
   280)       257.6  Rx         0022  5  0B 00 F3 1C 03 
   281)       258.0  Rx         0020  5  0A 00 78 19 03 
   282)       258.2  Rx         0023  5  00 00 00 00 00 
   283)       258.6  Rx         0021  5  00 00 00 00 00 
   284)       259.7  Rx         0021  5  00 00 00 00 00 
   285)       260.2  Rx         0026  6  F3 FF 0A 80 60 3B 
   286)       260.4  Rx         0020  5  0A 00 78 19 03 
   287)       260.8  Rx         0022  5  0B 00 F3 1C 03 
   288)       261.0  Rx         0021  5  00 00 00 00 00 
   289)       261.4  Rx         0023  5  00 00 00 00 00 
   290)       261.7  Rx         0020  5  0A 00 78 19 03 
   291)       262.0  Rx         0022  5  0B 00 F3 1C 03 
   292)       262.3  Rx         0021  5  00 00 00 00 00 
   293)       262.6  Rx         0023  5  00 00 00 00 00 
   294)       262.9  Rx         0020  5  0A 00 78 19 03 
   295)       263.2  Rx         0022  5  0B 00 F3 1C 03 
   296)       263.5  Rx         0021  5  00 00 00 00 00 
   297)       263.9  Rx         0023  5  00 00 00 00 00 
   298)       264.1  Rx         0020  5  0A 00 78 19 03 
   299)       264.5  Rx         0022  5  0B 00 F3 1C 03 
   300)       264.7  Rx         0021  5  00 00 00 00 00 
   301)       265.1  Rx         0023  5  00 00 00 00 00 
   302)       265.3  Rx         0020  5  0A 00 78 19 03 
   303)       265.7  Rx         0022  5  0B 00 F3 1C 03 
   304)       265.9  Rx         0021  5  00 00 00 00 00 
   305)       266.3  Rx         0023  5  00 00 00 00 00 
   306)       266.5  Rx         0020  5  0A 00 78 19 03 
   307)       266.9  Rx         0022  5  0B 00 F3 1C 03 
   308)       267.1  Rx         0021  5  00 00 00 00 00 
   309)       267.5  Rx         0023  5  00 00 00 00 00 
   310)       267.7  Rx         0020  5  0A 00 78 19 03 
   311)       268.1  Rx         0022  5  0B 00 F3 1C 03 
   312)       268.4  Rx         0021  5  00 00 00 00 00 
   313)       268.6  Rx         0023  5  00 00 00 00 00 
   314)       268.9  Rx         0020  5  0A 00 78 19 03 
   315)       269.1  Rx         0022  5  0B 00 F3 1C 03 
   316)       269.4  Rx         0021  5  00 00 00 00 00 
   317)       269.6  Rx         0023  5  00 00 00 00 00 
   318)       269.9  Rx         0020  5  0A 00 78 19 03 
   319)       270.4  Rx         0021  5  00 00 00 00 00 
   320)       271.1  Rx         0020  5  0A 00 78 19 03 
   321)       273.6  Rx         0020  5  0A 00 78 19 03 
   322)       273.8  Rx         0022  5  0B 00 F3 1C 03 
   323)       274.2  Rx         0021  5  00 00 00 00 00 
   324)       274.4  Rx         0023  5  00 00 00 00 00 
   325)       274.9  Rx         0020  5  0A 00 78 19 03 
   326)       275.1  Rx         0022  5  0B 00 F3 1C 03 
   327)       275.5  Rx         0021  5  00 00 00 00 00 
   328)       275.7  Rx         0023  5  00 00 00 00 00 
   329)       276.2  Rx         0020  5  0A 00 78 19 03 
   330)       276.4  Rx         0022  5  0B 00 F3 1C 03 
   331)       276.8  Rx         0021  5  00 00 00 00 00 
   332)       277.0  Rx         0023  5  00 00 00 00 00 
   333)       277.4  Rx         0020  5  0A 00 78 19 03 
   334)       277.6  Rx         0022  5  0B 00 F3 1C 03 
   335)       278.0  Rx         0021  5  00 00 00 00 00 
   336)       278.2  Rx         0023  5  00 00 00 00 00 
   337)       278.5  Rx         0020  5  0A 00 78 19 03 
   338)       278.8  Rx         0022  5  0B 00 F3 1C 03 
   339)       279.2  Rx         0021  5  00 00 00 00 00 
   340)       279.4  Rx         0023  5  00 00 00 00 00 
   341)       279.9  Rx         0020  5  0A 00 78 19 03 
   342)       280.1  Rx         0022  5  0B 00 F3 1C 03 
   343)       280.6  Rx         0021  5  00 00 00 00 00 
   344)       280.7  Rx         0023  5  00 00 00 00 00 
   345)       281.2  Rx         0020  5  0A 00 78 19 03 
   346)       283.0  Rx         0021  5  00 00 00 00 00 
   347)       292.6  Rx         0021  5  00 00 00 00 00 
   348)       293.6  Rx         0026  6  2D 00 FF 7F 60 3B 
   349)       293.8  Rx         0021  5  00 00 00 00 00 
   350)       294.2  Rx         0022  5  0B 00 F3 1C 03 
   351)       294.4  Rx         0020  5  0A 00 78 19 01 
   352)       296.5  Rx         0022  5  0B 00 F3 1C 03 
   353)       297.0  Rx         0020  5  0A 00 78 19 01 
   354)       297.2  Rx         0023  5  00 00 00 00 00 
   355)       303.7  Rx         0021  5  00 00 00 00 00 
   356)       304.6  Rx         0026  6  38 00 FF 7F 60 3B 
   357)       304.8  Rx         0021  5  00 00 00 00 00 
   358)       305.2  Rx         0022  5  0B 00 F3 1C 03 
   359)       305.5  Rx         0020  5  0A 00 78 19 01 
   360)       307.5  Rx         0022  5  0B 00 F3 1C 03 
   361)       307.8  Rx         0020  5  0A 00 78 19 01 
   362)       308.3  Rx         0023  5  00 00 00 00 00 
   363)       308.4  Rx         0021  5  00 00 00 00 00 
   364)       313.8  Rx         0020  5  0A 00 78 19 01 
   365)       314.3  Rx         0021  5  00 00 00 00 00 
   366)       316.1  Rx         0020  5  0A 00 78 19 01 
   367)       316.3  Rx         0022  5  0B 00 F3 1C 03 
   368)       316.8  Rx         0021  5  00 00 00 00 00 
   369)       317.0  Rx         0023  5  00 00 00 00 00 
   370)       317.4  Rx         0020  5  0A 00 78 19 01 
   371)       317.6  Rx         0022  5  0B 00 F3 1C 03 
   372)       323.3  Rx         0020  5  0A 00 78 19 01 
   373)       323.5  Rx         0022  5  0B 00 F3 1C 03 
   374)       324.0  Rx         0021  5  00 00 00 00 00 
   375)       324.1  Rx         0023  5  00 00 00 00 00 
   376)       325.1  Rx         0021  5  00 00 00 00 00 
   377)       326.3  Rx         0021  5  00 00 00 00 00 
   378)       326.5  Rx         0022  5  0B 00 F3 1C 03 
   379)       327.0  Rx         0020  5  0A 00 78 19 01 
   380)       327.1  Rx         0023  5  00 00 00 00 00 
   381)       334.6  Rx         0021  5  00 00 00 00 00 
   382)       334.8  Rx         0022  5  0B 00 F3 1C 03 
   383)       335.2  Rx         0020  5  0A 00 78 19 01 
   384)       335.4  Rx         0023  5  00 00 00 00 00 
   385)       336.4  Rx         0020  5  0A 00 78 19 01 
   386)       337.6  Rx         0020  5  0A 00 78 19 01 
   387)       337.7  Rx         0022  5  0B 00 F3 1C 03 
   388)       338.2  Rx         0021  5  00 00 00 00 00 
   389)       338.4  Rx         0023  5  00 00 00 00 00 
   390)       339.4  Rx         0021  5  00 00 00 00 00 
   391)       339.6  Rx         0023  5  00 00 00 00 00 
   392)       339.9  Rx         0020  5  0A 00 78 19 01 
   393)       340.0  Rx         0022  5  0B 00 F3 1C 03 
   394)       340.6  Rx         0021  5  00 00 00 00 00 
   395)       340.7  Rx         0023  5  00 00 00 00 00 
   396)       341.2  Rx         0020  5  0A 00 78 19 01 
   397)       341.3  Rx         0022  5  0B 00 F3 1C 03 
   398)       341.8  Rx         0021  5  00 00 00 00 00 
   399)       342.0  Rx         0023  5  00 00 00 00 00 
   400)       342.3  Rx         0020  5  0A 00 78 19 01 
   401)       342.5  Rx         0022  5  0B 00 F3 1C 03 
   402)       342.9  Rx         0021  5  00 00 00 00 00 
   403)       343.2  Rx         0023  5  00 00 00 00 00 
   404)       343.6  Rx         0020  5  0A 00 78 19 01 
   405)       343.8  Rx         0022  5  0B 00 F3 1C 03 
   406)       344.2  Rx         0021  5  00 00 00 00 00 
   407)       344.4  Rx         0023  5  00 00 00 00 00 
   408)       344.8  Rx         0020  5  0A 00 78 19 01 
   409)       345.0  Rx         0022  5  0B 00 F3 1C 03 
   410)       345.4  Rx         0021  5  00 00 00 00 00 
   411)       345.6  Rx         0023  5  00 00 00 00 00 
   412)       346.0  Rx         0020  5  0A 00 78 19 01 
   413)       346.2  Rx         0022  5  0B 00 F3 1C 03 
   414)       346.6  Rx         0021  5  00 00 00 00 00 
   415)       346.8  Rx         0023  5  00 00 00 00 00 
   416)       347.2  Rx         0020  5  0A 00 78 19 01 
   417)       349.0  Rx         0021  5  00 00 00 00 00 
   418)       349.1  Rx         0022  5  0B 00 F3 1C 03 
   419)       349.5  Rx         0020  5  0A 00 78 19 01 
   420)       349.6  Rx         0023  5  00 00 00 00 00 
   421)       350.1  Rx         0021  5  00 00 00 00 00 
   422)       350.2  Rx         0022  5  0B 00 F3 1C 03 
   423)       350.7  Rx         0020  5  0A 00 78 19 01 
   424)       350.9  Rx         0023  5  00 00 00 00 00 
   425)       351.3  Rx         0021  5  00 00 00 00 00 
   426)       351.5  Rx         0022  5  0B 00 F3 1C 03 
   427)       351.9  Rx         0020  5  0A 00 78 19 01 
   428)       352.1  Rx         0023  5  00 00 00 00 00 
   429)       352.5  Rx         0021  5  00 00 00 00 00 
   430)       352.7  Rx         0022  5  0B 00 F3 1C 03 
   431)       353.1  Rx         0020  5  0A 00 78 19 01 
   432)       353.3  Rx         0023  5  00 00 00 00 00 
   433)       353.7  Rx         0021  5  00 00 00 00 00 
   434)       353.9  Rx         0022  5  0B 00 F3 1C 03 
   435)       354.3  Rx         0020  5  0A 00 78 19 01 
   436)       354.5  Rx         0023  5  00 00 00 00 00 
   437)       354.9  Rx         0021  5  00 00 00 00 00 
   438)       355.1  Rx         0022  5  0B 00 F3 1C 03 
   439)       355.5  Rx         0020  5  0A 00 78 19 01 
   440)       355.7  Rx         0023  5  00 00 00 00 00 
   441)       356.1  Rx         0021  5  00 00 00 00 00 
   442)       356.3  Rx         0022  5  0B 00 F3 1C 03 
   443)       356.7  Rx         0020  5  0A 00 78 19 03 
   444)       356.9  Rx         0023  5  00 00 00 00 00 
   445)       357.4  Rx         0021  5  00 00 00 00 00 
   446)       357.5  Rx         0022  5  0B 00 F3 1C 03 
   447)       358.0  Rx         0020  5  0A 00 78 19 03 
   448)       358.1  Rx         0023  5  00 00 00 00 00 
   449)       358.6  Rx         0021  5  00 00 00 00 00 
   450)       363.4  Rx         0021  5  00 00 00 00 00 
   451)       363.6  Rx         0023  5  00 00 00 00 00 
   452)       367.0  Rx         0021  5  00 00 00 00 00 
   453)       367.2  Rx         0023  5  00 00 00 00 00 
   454)       367.6  Rx         0020  5  0A 00 78 19 03 
   455)       367.8  Rx         0022  5  0B 00 F3 1C 03 
   456)       369.4  Rx         0021  5  00 00 00 00 00 
   457)       371.1  Rx         0026  6  9F 00 F4 7F 55 3B 
   458)       371.3  Rx         0020  5  0A 00 79 19 01 
   459)       371.8  Rx         0022  5  0B 00 F3 1C 03 
   460)       371.9  Rx         0021  5  00 00 00 00 00 
   461)       372.4  Rx         0023  5  00 00 00 00 00 
   462)       372.6  Rx         0020  5  0A 00 79 19 01 
   463)       376.0  Rx         0020  5  0A 00 79 19 01 
   464)       376.2  Rx         0023  5  00 00 00 00 00 
   465)       380.7  Rx         0020  5  0A 00 79 19 01 
   466)       381.2  Rx         0021  5  00 00 00 00 00 
   467)       382.8  Rx         0022  5  0B 00 F3 1C 03 
   468)       383.0  Rx         0020  5  0A 00 79 19 01 
   469)       383.5  Rx         0023  5  00 00 00 00 00 
   470)       383.7  Rx         0021  5  00 00 00 00 00 
   471)       384.1  Rx         0022  5  0B 00 F3 1C 03 
   472)       384.3  Rx         0020  5  0A 00 79 19 01 
   473)       387.6  Rx         0022  5  0B 00 F3 1C 01 
   474)       387.9  Rx         0020  5  0A 00 79 19 03 
   475)       388.2  Rx         0023  5  00 00 00 00 00 
   476)       388.4  Rx         0021  5  00 00 00 00 00 
   477)       388.7  Rx         0022  5  0B 00 F3 1C 01 
   478)       392.6  Rx         0020  5  0A 00 79 19 03 
   479)       393.7  Rx         0020  5  0A 00 79 19 03 
   480)       397.3  Rx         0020  5  0A 00 79 19 03 
   481)       397.4  Rx         0022  5  0B 00 F3 1C 01 
   482)       397.9  Rx         0021  5  00 00 00 00 00 
   483)       398.1  Rx         0023  5  00 00 00 00 00 
   484)       403.8  Rx         0021  5  00 00 00 00 00 
   485)       405.0  Rx         0021  5  00 00 00 00 00 
   486)       405.5  Rx         0026  6  CC 00 E8 7F 49 3B 
   487)       405.6  Rx         0020  5  0A 00 7A 19 01 
   488)       407.8  Rx         0023  5  00 00 00 00 00 
   489)       408.3  Rx         0020  5  0A 00 7A 19 01 
   490)       408.5  Rx         0022  5  0B 00 F3 1C 01 
   491)       414.2  Rx         0020  5  0A 00 7A 19 01 
   492)       415.7  Rx         0026  6  E3 00 DD 7F 49 3B 
   493)       416.0  Rx         0021  5  00 00 00 00 00 
   494)       416.2  Rx         0022  5  0B 00 F3 1C 01 
   495)       416.6  Rx         0020  5  0A 00 7A 19 01 
   496)       416.9  Rx         0023  5  00 00 00 00 00 
   497)       417.3  Rx         0021  5  00 00 00 00 00 
   498)       417.5  Rx         0022  5  0B 00 F3 1C 01 
   499)       425.0  Rx         0020  5  0A 00 7A 19 03 
   500)       425.1  Rx         0023  5  00 00 00 00 00 
   501)       425.6  Rx         0021  5  00 00 00 00 00 
   502)       427.3  Rx         0022  5  0B 00 F3 1C 01 
   503)       427.8  Rx         0020  5  0A 00 7A 19 03 
   504)       428.0  Rx         0023  5  00 00 00 00 00 
   505)       428.4  Rx         0021  5  00 00 00 00 00 
   506)       428.6  Rx         0022  5  0B 00 F3 1C 01 
   507)       434.3  Rx         0021  5  00 00 00 00 00 
   508)       434.5  Rx         0022  5  0B 00 F2 1C 03 
   509)       434.9  Rx         0020  5  0A 00 7A 19 03 
   510)       435.1  Rx         0023  5  00 00 00 00 00 
   511)       437.3  Rx         0020  5  0A 00 7A 19 03 
   512)       437.8  Rx         0021  5  00 00 00 00 00 
   513)       438.0  Rx         0026  6  FA 00 DD 7F 49 3B 
   514)       438.3  Rx         0020  5  0A 00 7A 19 03 
   515)       438.6  Rx         0022  5  0B 00 F2 1C 03 
   516)       439.5  Rx         0020  5  0A 00 7A 19 03 
   517)       439.7  Rx         0022  5  0B 00 F2 1C 03 
   518)       440.1  Rx         0021  5  00 00 00 00 00 
   519)       440.3  Rx         0023  5  00 00 00 00 00 
   520)       440.7  Rx         0020  5  0A 00 7A 19 03 
   521)       440.9  Rx         0022  5  0B 00 F2 1C 03 
   522)       441.3  Rx         0021  5  00 00 00 00 00 
   523)       441.5  Rx         0023  5  00 00 00 00 00 
   524)       442.0  Rx         0020  5  0A 00 7A 19 03 
   525)       442.1  Rx         0022  5  0B 00 F2 1C 03 
   526)       442.5  Rx         0021  5  00 00 00 00 00 
   527)       442.7  Rx         0023  5  00 00 00 00 00 
   528)       443.2  Rx         0020  5  0A 00 7A 19 03 
   529)       443.3  Rx         0022  5  0B 00 F2 1C 03 
   530)       443.8  Rx         0021  5  00 00 00 00 00 
   531)       443.9  Rx         0023  5  00 00 00 00 00 
   532)       444.4  Rx         0020  5  0A 00 7A 19 03 
   533)       444.6  Rx         0022  5  0B 00 F2 1C 03 
   534)       444.9  Rx         0021  5  00 00 00 00 00 
   535)       445.1  Rx         0023  5  00 00 00 00 00 
   536)       445.4  Rx         0020  5  0A 00 7A 19 03 
   537)       445.6  Rx         0022  5  0B 00 F2 1C 03 
   538)       445.9  Rx         0021  5  00 00 00 00 00 
   539)       446.1  Rx         0023  5  00 00 00 00 00 
   540)       446.4  Rx         0020  5  0A 00 7A 19 03 
   541)       446.6  Rx         0022  5  0B 00 F2 1C 03 
   542)       446.9  Rx         0021  5  00 00 00 00 00 
   543)       447.1  Rx         0023  5  00 00 00 00 00 
   544)       447.4  Rx         0020  5  0A 00 7A 19 03 
   545)       447.9  Rx         0021  5  00 00 00 00 00 
   546)       448.5  Rx         0020  5  0A 00 7A 19 03 
   547)       448.8  Rx         0026  6  05 01 DD 7F 49 3B 
   548)       449.0  Rx         0021  5  00 00 00 00 00 
   549)       449.3  Rx         0022  5  0B 00 F2 1C 03 
   550)       449.7  Rx         0020  5  0A 00 7A 19 03 
   551)       449.9  Rx         0023  5  00 00 00 00 00 
   552)       450.4  Rx         0021  5  00 00 00 00 00 
   553)       450.5  Rx         0022  5  0B 00 F2 1C 03 
   554)       451.0  Rx         0020  5  0A 00 7A 19 03 
   555)       451.2  Rx         0023  5  00 00 00 00 00 
   556)       451.7  Rx         0021  5  00 00 00 00 00 
   557)       451.8  Rx         0022  5  0B 00 F2 1C 03 
   558)       452.3  Rx         0020  5  0A 00 7A 19 03 
   559)       452.5  Rx         0023  5  00 00 00 00 00 
   560)       453.0  Rx         0021  5  00 00 00 00 00 
   561)       453.1  Rx         0022  5  0B 00 F2 1C 03 
   562)       453.6  Rx         0020  5  0A 00 7A 19 03 
   563)       453.8  Rx         0023  5  00 00 00 00 00 
   564)       454.3  Rx         0021  5  00 00 00 00 00 
   565)       454.4  Rx         0022  5  0B 00 F2 1C 03 
   566)       454.9  Rx         0020  5  0A 00 7A 19 03 
   567)       455.1  Rx         0023  5  00 00 00 00 00 
   568)       455.5  Rx         0021  5  00 00 00 00 00 
   569)       455.7  Rx         0022  5  0B 00 F2 1C 03 
   570)       456.2  Rx         0020  5  0A 00 7A 19 03 
   571)       456.4  Rx         0023  5  00 00 00 00 00 
   572)       456.9  Rx         0021  5  00 00 00 00 00 
   573)       457.0  Rx         0022  5  0B 00 F2 1C 03 
   574)       457.5  Rx         0020  5  0A 00 7A 19 03 
   575)       457.7  Rx         0023  5  00 00 00 00 00 
   576)       467.9  Rx         0022  5  0B 00 F2 1C 01 
   577)       468.4  Rx         0020  5  0A 00 7A 19 03 
   578)       468.6  Rx         0023  5  00 00 00 00 00 
   579)       470.2  Rx         0021  5  00 00 00 00 00 
   580)       473.8  Rx         0021  5  00 00 00 00 00 
   581)       474.0  Rx         0022  5  0B 00 F2 1C 01 
   582)       477.3  Rx         0021  5  00 00 00 00 00 
   583)       477.5  Rx         0022  5  0B 00 F2 1C 01 
   584)       478.0  Rx         0020  5  0A 00 7A 19 03 
   585)       478.2  Rx         0023  5  00 00 00 00 00 
   586)       482.6  Rx         0020  5  0A 00 7A 19 03 
   587)       485.6  Rx         0021  5  00 00 00 00 00 
   588)       485.8  Rx         0023  5  00 00 00 00 00 
   589)       486.2  Rx         0020  5  0A 00 7A 19 03 
   590)       486.4  Rx         0022  5  0B 00 F2 1C 01 
   591)       488.5  Rx         0020  5  0A 00 7A 19 03 
   592)       488.8  Rx         0022  5  0B 00 F2 1C 01 
   593)       489.2  Rx         0021  5  00 00 00 00 00 
   594)       489.4  Rx         0023  5  00 00 00 00 00 
   595)       492.8  Rx         0021  5  00 00 00 00 00 
   596)       493.3  Rx         0020  5  0A 00 7A 19 03 
   597)       494.9  Rx         0022  5  0B 00 F2 1C 01 
   598)       495.5  Rx         0021  5  00 00 00 00 00 
   599)       495.6  Rx         0023  5  00 00 00 00 00 
   600)       496.1  Rx         0020  5  0A 00 7A 19 03 
   601)       496.3  Rx         0022  5  0B 00 F2 1C 01 
   602)       498.4  Rx         0020  5  0A 00 7A 19 03 
   603)       498.6  Rx         0022  5  0B 00 F2 1C 01 
   604)       499.1  Rx         0021  5  00 00 00 00 00 
   605)       499.2  Rx         0023  5  00 00 00 00 00 
   606)       503.8  Rx         0021  5  00 00 00 00 00 
   607)       504.9  Rx         0021  5  00 00 00 00 00 
   608)       505.2  Rx         0026  6  3E 01 D1 7F 3E 3B 
   609)       505.6  Rx         0020  5  0A 00 7B 19 01 
   610)       505.8  Rx         0022  5  0B 00 F2 1C 01 
   611)       507.9  Rx         0020  5  0A 00 7B 19 01 
   612)       508.2  Rx         0022  5  0B 00 F2 1C 01 
   613)       508.6  Rx         0021  5  00 00 00 00 00 
   614)       508.8  Rx         0023  5  00 00 00 00 00 
   615)       514.5  Rx         0021  5  00 00 00 00 00 
   616)       516.3  Rx         0020  5  0A 00 7B 19 01 
   617)       516.5  Rx         0022  5  0B 00 F1 1C 03 
   618)       516.9  Rx         0021  5  00 00 00 00 00 
   619)       517.2  Rx         0023  5  00 00 00 00 00 
   620)       517.6  Rx         0020  5  0A 00 7B 19 01 
   621)       517.8  Rx         0022  5  0B 00 F1 1C 03 
   622)       518.2  Rx         0021  5  00 00 00 00 00 
   623)       518.4  Rx         0023  5  00 00 00 00 00 
   624)       518.8  Rx         0020  5  0A 00 7B 19 01 
   625)       519.0  Rx         0022  5  0B 00 F1 1C 03 
   626)       519.4  Rx         0021  5  00 00 00 00 00 
   627)       519.6  Rx         0023  5  00 00 00 00 00 
   628)       520.0  Rx         0020  5  0A 00 7B 19 01 
   629)       520.2  Rx         0022  5  0B 00 F1 1C 03 
   630)       520.6  Rx         0021  5  00 00 00 00 00 
   631)       520.8  Rx         0023  5  00 00 00 00 00 
   632)       521.3  Rx         0020  5  0A 00 7B 19 01 
   633)       521.4  Rx         0022  5  0B 00 F1 1C 03 
   634)       521.8  Rx         0021  5  00 00 00 00 00 
   635)       522.0  Rx         0023  5  00 00 00 00 00 
   636)       522.4  Rx         0020  5  0A 00 7B 19 03 
   637)       522.6  Rx         0022  5  0B 00 F1 1C 03 
   638)       523.0  Rx         0021  5  00 00 00 00 00 
   639)       523.3  Rx         0023  5  00 00 00 00 00 
   640)       523.6  Rx         0020  5  0A 00 7B 19 03 
   641)       523.9  Rx         0022  5  0B 00 F1 1C 03 
   642)       524.3  Rx         0021  5  00 00 00 00 00 
   643)       524.5  Rx         0023  5  00 00 00 00 00 
   644)       524.9  Rx         0020  5  0A 00 7B 19 03 
   645)       525.0  Rx         0022  5  0B 00 F1 1C 03 
   646)       525.5  Rx         0021  5  00 00 00 00 00 
   647)       525.6  Rx         0023  5  00 00 00 00 00 
   648)       526.1  Rx         0020  5  0A 00 7B 19 03 
   649)       527.8  Rx         0021  5  00 00 00 00 00 
   650)       528.0  Rx         0022  5  0B 00 F1 1C 01 
   651)       528.3  Rx         0020  5  0A 00 7B 19 03 
   652)       528.5  Rx         0023  5  00 00 00 00 00 
   653)       528.8  Rx         0021  5  00 00 00 00 00 
   654)       529.0  Rx         0022  5  0B 00 F1 1C 01 
   655)       529.4  Rx         0020  5  0A 00 7B 19 03 
   656)       529.6  Rx         0023  5  00 00 00 00 00 
   657)       530.0  Rx         0021  5  00 00 00 00 00 
   658)       530.2  Rx         0022  5  0B 00 F1 1C 01 
   659)       530.6  Rx         0020  5  0A 00 7B 19 03 
   660)       530.8  Rx         0023  5  00 00 00 00 00 
   661)       531.2  Rx         0021  5  00 00 00 00 00 
   662)       531.4  Rx         0022  5  0B 00 F1 1C 01 
   663)       531.8  Rx         0020  5  0A 00 7B 19 03 
   664)       532.0  Rx         0023  5  00 00 00 00 00 
   665)       532.4  Rx         0021  5  00 00 00 00 00 
   666)       532.6  Rx         0022  5  0B 00 F1 1C 01 
   667)       533.1  Rx         0020  5  0A 00 7B 19 03 
   668)       533.2  Rx         0023  5  00 00 00 00 00 
   669)       533.7  Rx         0021  5  00 00 00 00 00 
   670)       533.8  Rx         0022  5  0B 00 F1 1C 01 
   671)       534.3  Rx         0020  5  0A 00 7B 19 03 
   672)       534.4  Rx         0023  5  00 00 00 00 00 
   673)       534.9  Rx         0021  5  00 00 00 00 00 
   674)       535.0  Rx         0022  5  0B 00 F1 1C 01 
   675)       535.5  Rx         0020  5  0A 00 7B 19 03 
   676)       535.7  Rx         0023  5  00 00 00 00 00 
   677)       536.1  Rx         0021  5  00 00 00 00 00 
   678)       536.3  Rx         0022  5  0B 00 F1 1C 01 
   679)       536.6  Rx         0020  5  0A 00 7B 19 03 
   680)       536.9  Rx         0023  5  00 00 00 00 00 
   681)       537.3  Rx         0021  5  00 00 00 00 00 
   682)       539.0  Rx         0020  5  0A 00 7B 19 03 
   683)       539.2  Rx         0022  5  0B 00 F0 1C 03 
   684)       539.7  Rx         0021  5  00 00 00 00 00 
   685)       539.8  Rx         0023  5  00 00 00 00 00 
   686)       548.5  Rx         0020  5  0A 00 7B 19 03 
   687)       555.5  Rx         0022  5  0B 00 F0 1C 01 
   688)       555.9  Rx         0020  5  0A 00 7C 19 01 
   689)       556.1  Rx         0023  5  00 00 00 00 00 
   690)       559.5  Rx         0020  5  0A 00 7C 19 01 
   691)       561.1  Rx         0026  6  A4 01 C6 7F 32 3B 
   692)       561.3  Rx         0021  5  00 00 00 00 00 
   693)       561.7  Rx         0022  5  0B 00 EF 1C 03 
   694)       561.9  Rx         0020  5  0A 00 7C 19 01 
   695)       565.2  Rx         0022  5  0B 00 EF 1C 03 
   696)       565.4  Rx         0020  5  0A 00 7C 19 01 
   697)       565.9  Rx         0023  5  00 00 00 00 00 
   698)       566.1  Rx         0021  5  00 00 00 00 00 
   699)       569.4  Rx         0023  5  00 00 00 00 00 
   700)       569.9  Rx         0021  5  00 00 00 00 00 
   701)       570.0  Rx         0022  5  0B 00 EE 1C 03 
   702)       571.7  Rx         0020  5  0A 00 7C 19 01 
   703)       573.5  Rx         0021  5  00 00 00 00 00 
   704)       573.8  Rx         0022  5  0B 00 EE 1C 03 
   705)       574.2  Rx         0020  5  0A 00 7C 19 01 
   706)       574.4  Rx         0023  5  00 00 00 00 00 
   707)       574.9  Rx         0021  5  00 00 00 00 00 
   708)       575.0  Rx         0022  5  0B 00 EE 1C 03 
   709)       578.4  Rx         0021  5  00 00 00 00 00 
   710)       578.6  Rx         0022  5  0B 00 EE 1C 01 
   711)       579.0  Rx         0020  5  0A 00 7C 19 01 
   712)       579.2  Rx         0023  5  00 00 00 00 00 
   713)       582.5  Rx         0020  5  0A 00 7C 19 01 
   714)       585.9  Rx         0022  5  0B 00 EC 1C 03 
   715)       586.3  Rx         0020  5  0A 00 7C 19 01 
   716)       586.5  Rx         0023  5  00 00 00 00 00 
   717)       589.9  Rx         0020  5  0A 00 7C 19 01 
   718)       590.1  Rx         0023  5  00 00 00 00 00 
   719)       593.4  Rx         0020  5  0A 00 7C 19 01 
   720)       594.6  Rx         0020  5  0A 00 7C 19 03 
   721)       594.9  Rx         0026  6  DD 01 C6 7F 32 3B 
   722)       595.2  Rx         0021  5  00 00 00 00 00 
   723)       595.6  Rx         0022  5  0B 00 EB 1C 01 
   724)       595.8  Rx         0020  5  0A 00 7C 19 03 
   725)       596.1  Rx         0023  5  00 00 00 00 00 
   726)       596.3  Rx         0021  5  00 00 00 00 00 
   727)       596.6  Rx         0022  5  0B 00 EA 1C 01 
   728)       598.7  Rx         0021  5  00 00 00 00 00 
   729)       598.9  Rx         0022  5  0B 00 EA 1C 01 
   730)       599.4  Rx         0020  5  0A 00 7C 19 03 
   731)       599.6  Rx         0023  5  00 00 00 00 00 
   732)       605.3  Rx         0020  5  0A 00 7C 19 03 
   733)       608.9  Rx         0020  5  0A 00 7D 19 01 
   734)       609.1  Rx         0022  5  0B 00 E7 1C 01 
   735)       609.5  Rx         0021  5  00 00 00 00 00 
   736)       609.7  Rx         0023  5  00 00 00 00 00 
   737)       615.4  Rx         0021  5  00 00 00 00 00 
   738)       615.6  Rx         0023  5  00 00 00 00 00 
   739)       616.1  Rx         0020  5  0A 00 7E 19 01 
   740)       617.7  Rx         0022  5  0B 00 E4 1C 01 
   741)       618.2  Rx         0021  5  00 00 00 00 00 
   742)       618.4  Rx         0023  5  00 00 00 00 00 
   743)       618.8  Rx         0020  5  0A 00 7E 19 01 
   744)       619.0  Rx         0022  5  0B 00 E3 1C 03 
   745)       624.7  Rx         0020  5  0A 00 7F 19 01 
   746)       624.9  Rx         0022  5  0B 00 E1 1C 01 
   747)       627.1  Rx         0020  5  0A 00 7F 19 03 
   748)       628.9  Rx         0021  5  00 00 00 00 00 
   749)       629.4  Rx         0026  6  5B 02 BB 7F 3E 3B 
   750)       629.6  Rx         0020  5  0A 00 80 19 01 
   751)       630.0  Rx         0022  5  0B 00 DE 1C 03 
   752)       630.2  Rx         0021  5  00 00 00 00 00 
   753)       630.5  Rx         0023  5  00 00 00 00 00 
   754)       630.7  Rx         0020  5  0A 00 80 19 01 
   755)       631.0  Rx         0022  5  0B 00 DE 1C 01 
   756)       631.4  Rx         0021  5  00 00 00 00 00 
   757)       631.6  Rx         0023  5  00 00 00 00 00 
   758)       632.0  Rx         0020  5  0A 00 80 19 03 
   759)       632.2  Rx         0022  5  0B 00 DD 1C 03 
   760)       632.6  Rx         0021  5  00 00 00 00 00 
   761)       632.8  Rx         0023  5  00 00 00 00 00 
   762)       633.2  Rx         0020  5  0A 00 80 19 03 
   763)       633.4  Rx         0022  5  0B 00 DD 1C 01 
   764)       633.8  Rx         0021  5  00 00 00 00 00 
   765)       634.0  Rx         0023  5  00 00 00 00 00 
   766)       634.4  Rx         0020  5  0A 00 80 19 03 
   767)       634.6  Rx         0022  5  0B 00 DC 1C 01 
   768)       634.9  Rx         0021  5  00 00 00 00 00 
   769)       635.1  Rx         0023  5  00 00 00 00 00 
   770)       635.4  Rx         0020  5  0A 00 80 19 03 
   771)       635.6  Rx         0022  5  0B 00 DB 1C 03 
   772)       636.0  Rx         0021  5  00 00 00 00 00 
   773)       636.1  Rx         0023  5  00 00 00 00 00 
   774)       636.5  Rx         0020  5  0A 00 81 19 03 
   775)       636.7  Rx         0022  5  0B 00 DB 1C 01 
   776)       637.0  Rx         0021  5  00 00 00 00 00 
   777)       637.2  Rx         0023  5  00 00 00 00 00 
   778)       637.5  Rx         0020  5  0A 00 82 19 01 
   779)       638.0  Rx         0021  5  00 00 00 00 00 
   780)       638.5  Rx         0020  5  0A 00 82 19 01 
   781)       639.0  Rx         0021  5  00 00 00 00 00 
   782)       639.5  Rx         0020  5  0A 00 82 19 01 
   783)       639.7  Rx         0026  6  88 02 BB 7F 49 3B 
   784)       640.2  Rx         0021  5  00 00 00 00 00 
   785)       640.4  Rx         0022  5  0B 00 D9 1C 01 
   786)       640.8  Rx         0020  5  0A 00 82 19 03 
   787)       641.0  Rx         0023  5  00 00 00 00 00 
   788)       641.5  Rx         0021  5  00 00 00 00 00 
   789)       641.7  Rx         0022  5  0B 00 D8 1C 03 
   790)       642.1  Rx         0020  5  0A 00 82 19 03 
   791)       642.3  Rx         0023  5  00 00 00 00 00 
   792)       642.8  Rx         0021  5  00 00 00 00 00 
   793)       643.0  Rx         0022  5  0B 00 D7 1C 03 
   794)       643.4  Rx         0020  5  0A 00 83 19 01 
   795)       643.6  Rx         0023  5  00 00 00 00 00 
   796)       650.6  Rx         0020  5  0A 00 84 19 03 
   797)       655.2  Rx         0020  5  0A 00 85 19 03 
   798)       655.4  Rx         0022  5  0B 00 D0 1C 03 
   799)       658.7  Rx         0020  5  0A 00 86 19 03 
   800)       658.9  Rx         0022  5  0B 00 CE 1C 03 
   801)       659.3  Rx         0021  5  00 00 00 00 00 
   802)       659.6  Rx         0023  5  00 00 00 00 00 
   803)       661.1  Rx         0020  5  0A 00 87 19 01 
   804)       664.7  Rx         0020  5  0A 00 88 19 01 
   805)       664.8  Rx         0022  5  0B 00 CB 1C 03 
   806)       668.2  Rx         0020  5  0A 00 88 19 03 
   807)       668.4  Rx         0022  5  0B 00 CA 1C 01 
   808)       668.9  Rx         0021  5  00 00 00 00 00 
   809)       669.1  Rx         0023  5  00 00 00 00 00 
   810)       671.2  Rx         0021  5  00 00 00 00 00 
   811)       672.4  Rx         0021  5  00 00 00 00 00 
   812)       675.9  Rx         0021  5  00 00 00 00 00 
   813)       676.1  Rx         0022  5  0B 00 C6 1C 01 
   814)       676.6  Rx         0020  5  0A 00 8A 19 01 
   815)       676.8  Rx         0023  5  00 00 00 00 00 
   816)       680.1  Rx         0020  5  0A 00 8B 19 01 
   817)       680.3  Rx         0023  5  00 00 00 00 00 
   818)       682.5  Rx         0020  5  0A 00 8B 19 03 
   819)       683.6  Rx         0020  5  0A 00 8C 19 01 
   820)       685.4  Rx         0021  5  00 00 00 00 00 
   821)       685.6  Rx         0023  5  00 00 00 00 00 
   822)       686.0  Rx         0020  5  0A 00 8C 19 01 
   823)       686.2  Rx         0022  5  0B 00 C1 1C 03 
   824)       688.4  Rx         0020  5  0A 00 8C 19 03 
   825)       688.6  Rx         0022  5  0B 00 C0 1C 03 
   826)       689.0  Rx         0021  5  00 00 00 00 00 
   827)       689.2  Rx         0023  5  00 00 00 00 00 
   828)       693.7  Rx         0021  5  00 00 00 00 00 
   829)       694.8  Rx         0026  6  82 03 A4 7F 8D 3B 
   830)       695.0  Rx         0021  5  00 00 00 00 00 
   831)       695.4  Rx         0022  5  0B 00 BE 1C 01 
   832)       695.6  Rx         0020  5  0A 00 8D 19 03 
   833)       697.7  Rx         0022  5  0B 00 BD 1C 03 
   834)       698.2  Rx         0020  5  0A 00 8E 19 01 
   835)       698.4  Rx         0023  5  00 00 00 00 00 
   836)       700.5  Rx         0020  5  0A 00 8E 19 01 
   837)       700.8  Rx         0023  5  00 00 00 00 00 
   838)       704.6  Rx         0021  5  00 00 00 00 00 
   839)       706.5  Rx         0020  5  0A 00 8F 19 01 
   840)       706.7  Rx         0022  5  0B 00 BA 1C 01 
   841)       707.2  Rx         0021  5  00 00 00 00 00 
   842)       707.3  Rx         0023  5  00 00 00 00 00 
   843)       707.8  Rx         0020  5  0A 00 8F 19 01 
   844)       708.0  Rx         0022  5  0B 00 B9 1C 03 
   845)       710.1  Rx         0020  5  0A 00 8F 19 01 
   846)       710.3  Rx         0022  5  0B 00 B8 1C 03 
   847)       714.2  Rx         0021  5  00 00 00 00 00 
   848)       714.4  Rx         0023  5  00 00 00 00 00 
   849)       715.4  Rx         0021  5  00 00 00 00 00 
   850)       716.5  Rx         0021  5  00 00 00 00 00 
   851)       716.7  Rx         0022  5  0B 00 B6 1C 03 
   852)       717.2  Rx         0020  5  0A 00 8F 19 03 
   853)       717.4  Rx         0023  5  00 00 00 00 00 
   854)       719.6  Rx         0020  5  0A 00 8F 19 03 
   855)       719.8  Rx         0023  5  00 00 00 00 00 
   856)       720.2  Rx         0021  5  00 00 00 00 00 
   857)       720.4  Rx         0022  5  0B 00 B5 1C 03 
   858)       721.4  Rx         0021  5  00 00 00 00 00 
   859)       721.6  Rx         0022  5  0B 00 B4 1C 03 
   860)       721.9  Rx         0020  5  0A 00 8F 19 03 
   861)       722.1  Rx         0023  5  00 00 00 00 00 
   862)       722.5  Rx         0021  5  00 00 00 00 00 
   863)       722.8  Rx         0022  5  0B 00 B4 1C 03 
   864)       723.1  Rx         0020  5  0A 00 90 19 01 
   865)       723.4  Rx         0023  5  00 00 00 00 00 
   866)       723.8  Rx         0021  5  00 00 00 00 00 
   867)       724.0  Rx         0022  5  0B 00 B4 1C 01 
   868)       724.4  Rx         0020  5  0A 00 90 19 01 
   869)       724.6  Rx         0023  5  00 00 00 00 00 
   870)       725.0  Rx         0021  5  00 00 00 00 00 
   871)       725.1  Rx         0022  5  0B 00 B4 1C 01 
   872)       725.6  Rx         0020  5  0A 00 90 19 01 
   873)       725.8  Rx         0023  5  00 00 00 00 00 
   874)       726.2  Rx         0021  5  00 00 00 00 00 
   875)       727.3  Rx         0021  5  00 00 00 00 00 
   876)       727.5  Rx         0026  6  4F 04 8D 7F D2 3B 
   877)       727.8  Rx         0020  5  0A 00 90 19 03 
   878)       728.0  Rx         0022  5  0B 00 B3 1C 01 
   879)       728.3  Rx         0021  5  00 00 00 00 00 
   880)       728.5  Rx         0023  5  00 00 00 00 00 
   881)       728.8  Rx         0020  5  0A 00 90 19 03 
   882)       729.0  Rx         0022  5  0B 00 B2 1C 03 
   883)       729.4  Rx         0021  5  00 00 00 00 00 
   884)       729.6  Rx         0023  5  00 00 00 00 00 
   885)       730.0  Rx         0020  5  0A 00 90 19 03 
   886)       730.2  Rx         0022  5  0B 00 B2 1C 03 
   887)       730.6  Rx         0021  5  00 00 00 00 00 
   888)       730.8  Rx         0023  5  00 00 00 00 00 
   889)       731.2  Rx         0020  5  0A 00 90 19 03 
   890)       731.4  Rx         0022  5  0B 00 B2 1C 01 
   891)       731.8  Rx         0021  5  00 00 00 00 00 
   892)       732.1  Rx         0023  5  00 00 00 00 00 
   893)       732.4  Rx         0020  5  0A 00 90 19 03 
   894)       732.6  Rx         0022  5  0B 00 B1 1C 03 
   895)       733.0  Rx         0021  5  00 00 00 00 00 
   896)       733.3  Rx         0023  5  00 00 00 00 00 
   897)       733.7  Rx         0020  5  0A 00 90 19 03 
   898)       733.8  Rx         0022  5  0B 00 B1 1C 01 
   899)       734.3  Rx         0021  5  00 00 00 00 00 
   900)       734.5  Rx         0023  5  00 00 00 00 00 
   901)       734.9  Rx         0020  5  0A 00 90 19 03 
   902)       735.0  Rx         0022  5  0B 00 B0 1C 03 
   903)       735.5  Rx         0021  5  00 00 00 00 00 
   904)       735.7  Rx         0023  5  00 00 00 00 00 
   905)       736.1  Rx         0020  5  0A 00 90 19 03 
   906)       736.3  Rx         0022  5  0B 00 B0 1C 03 
   907)       736.7  Rx         0021  5  00 00 00 00 00 
   908)       736.9  Rx         0023  5  00 00 00 00 00 
   909)       737.3  Rx         0020  5  0A 00 90 19 03 
   910)       747.1  Rx         0023  5  00 00 00 00 00 
   911)       747.3  Rx         0021  5  00 00 00 00 00 
   912)       747.8  Rx         0022  5  0B 00 AD 1C 01 
   913)       748.0  Rx         0020  5  0A 00 90 19 03 
   914)       749.5  Rx         0021  5  00 00 00 00 00 
   915)       750.8  Rx         0021  5  00 00 00 00 00 
   916)       751.3  Rx         0026  6  AA 04 82 7F E9 3B 
   917)       751.5  Rx         0020  5  0A 00 90 19 03 
   918)       756.6  Rx         0022  5  0B 00 AB 1C 01 
   919)       756.8  Rx         0021  5  00 00 00 00 00 
   920)       757.3  Rx         0023  5  00 00 00 00 00 
   921)       757.5  Rx         0020  5  0A 00 90 19 03 
   922)       760.4  Rx         0021  5  00 00 00 00 00 
   923)       761.1  Rx         0020  5  0A 00 90 19 03 
   924)       762.3  Rx         0026  6  D8 04 82 7F F4 3B 
   925)       762.4  Rx         0020  5  0A 00 90 19 03 
   926)       762.7  Rx         0022  5  0B 00 A9 1C 01 
   927)       763.1  Rx         0021  5  00 00 00 00 00 
   928)       763.4  Rx         0023  5  00 00 00 00 00 
   929)       766.7  Rx         0021  5  00 00 00 00 00 
   930)       766.9  Rx         0023  5  00 00 00 00 00 
   931)       767.3  Rx         0020  5  0A 00 90 19 03 
   932)       767.5  Rx         0022  5  0B 00 A7 1C 03 
   933)       770.8  Rx         0020  5  0A 00 90 19 03 
   934)       771.0  Rx         0022  5  0B 00 A6 1C 03 
   935)       772.6  Rx         0021  5  00 00 00 00 00 
   936)       773.9  Rx         0021  5  00 00 00 00 00 
   937)       774.2  Rx         0026  6  05 05 76 7F FF 3B 
   938)       774.4  Rx         0020  5  0A 00 90 19 03 
   939)       777.7  Rx         0023  5  00 00 00 00 00 
   940)       778.2  Rx         0020  5  0A 00 90 19 03 
   941)       778.3  Rx         0022  5  0B 00 A4 1C 03 
   942)       783.4  Rx         0021  5  00 00 00 00 00 
   943)       786.9  Rx         0023  5  00 00 00 00 00 
   944)       787.4  Rx         0021  5  00 00 00 00 00 
   945)       787.6  Rx         0022  5  0B 00 A1 1C 01 
   946)       791.0  Rx         0021  5  00 00 00 00 00 
   947)       791.1  Rx         0022  5  0B 00 A0 1C 01 
   948)       795.1  Rx         0020  5  0A 00 90 19 01 
   949)       796.2  Rx         0020  5  0A 00 90 19 01 
   950)       796.4  Rx         0022  5  0B 00 9E 1C 01 
   951)       796.9  Rx         0021  5  00 00 00 00 00 
   952)       797.1  Rx         0023  5  00 00 00 00 00 
   953)       800.4  Rx         0021  5  00 00 00 00 00 
   954)       800.6  Rx         0023  5  00 00 00 00 00 
   955)       806.3  Rx         0021  5  00 00 00 00 00 
   956)       809.8  Rx         0021  5  00 00 00 00 00 
   957)       810.0  Rx         0022  5  0B 00 99 1C 01 
   958)       810.5  Rx         0020  5  0A 00 90 19 01 
   959)       810.7  Rx         0023  5  00 00 00 00 00 
   960)       814.6  Rx         0021  5  00 00 00 00 00 
   961)       814.8  Rx         0022  5  0B 00 97 1C 01 
   962)       817.0  Rx         0021  5  00 00 00 00 00 
   963)       818.6  Rx         0026  6  0B 06 60 7F 21 3C 
   964)       818.8  Rx         0020  5  0A 00 90 19 01 
   965)       819.2  Rx         0022  5  0B 00 95 1C 03 
   966)       819.4  Rx         0021  5  00 00 00 00 00 
   967)       819.9  Rx         0023  5  00 00 00 00 00 
   968)       820.0  Rx         0020  5  0A 00 90 19 01 
   969)       820.5  Rx         0022  5  0B 00 95 1C 01 
   970)       820.7  Rx         0021  5  00 00 00 00 00 
   971)       825.8  Rx         0023  5  00 00 00 00 00 
   972)       826.0  Rx         0020  5  0A 00 8F 19 03 
   973)       826.4  Rx         0022  5  0B 00 92 1C 03 
   974)       826.6  Rx         0021  5  00 00 00 00 00 
   975)       829.0  Rx         0021  5  00 00 00 00 00 
   976)       830.1  Rx         0021  5  00 00 00 00 00 
   977)       831.3  Rx         0021  5  00 00 00 00 00 
   978)       831.5  Rx         0022  5  0B 00 90 1C 01 
   979)       835.4  Rx         0020  5  0A 00 8F 19 03 
   980)       835.6  Rx         0023  5  00 00 00 00 00 
   981)       836.0  Rx         0021  5  00 00 00 00 00 
   982)       836.2  Rx         0022  5  0B 00 8E 1C 01 
   983)       838.4  Rx         0021  5  00 00 00 00 00 
   984)       838.5  Rx         0022  5  0B 00 8D 1C 01 
   985)       839.0  Rx         0020  5  0A 00 8F 19 03 
   986)       839.2  Rx         0023  5  00 00 00 00 00 
   987)       840.2  Rx         0020  5  0A 00 8F 19 03 
   988)       841.4  Rx         0020  5  0A 00 8F 19 03 
   989)       843.2  Rx         0021  5  00 00 00 00 00 
   990)       843.4  Rx         0023  5  00 00 00 00 00 
   991)       844.3  Rx         0021  5  00 00 00 00 00 
   992)       844.5  Rx         0023  5  00 00 00 00 00 
   993)       844.8  Rx         0020  5  0A 00 8F 19 03 
   994)       845.0  Rx         0022  5  0B 00 8A 1C 01 
   995)       845.3  Rx         0021  5  00 00 00 00 00 
   996)       845.5  Rx         0023  5  00 00 00 00 00 
   997)       846.0  Rx         0020  5  0A 00 8F 19 03 
   998)       846.2  Rx         0022  5  0B 00 89 1C 03 
   999)       846.6  Rx         0021  5  00 00 00 00 00 
  1000)       846.8  Rx         0023  5  00 00 00 00 00 
  1001)       847.2  Rx         0020  5  0A 00 8F 19 03 
  1002)       847.4  Rx         0022  5  0B 00 89 1C 01 
  1003)       847.8  Rx         0021  5  00 00 00 00 00 
  1004)       848.1  Rx         0023  5  00 00 00 00 00 
  1005)       848.4  Rx         0020  5  0A 00 8F 19 03 
  1006)       848.6  Rx         0022  5  0B 00 88 1C 03 
  1007)       849.0  Rx         0021  5  00 00 00 00 00 
  1008)       849.3  Rx         0023  5  00 00 00 00 00 
  1009)       849.7  Rx         0020  5  0A 00 8F 19 03 
  1010)       849.8  Rx         0022  5  0B 00 88 1C 01 
  1011)       850.3  Rx         0021  5  00 00 00 00 00 
  1012)       850.4  Rx         0023  5  00 00 00 00 00 
  1013)       850.9  Rx         0020  5  0A 00 8F 19 03 
  1014)       852.0  Rx         0020  5  0A 00 8F 19 03 
  1015)       852.5  Rx         0021  5  00 00 00 00 00 
  1016)       853.1  Rx         0020  5  0A 00 8F 19 03 
  1017)       853.3  Rx         0026  6  B6 06 54 7F 38 3C 
  1018)       853.6  Rx         0021  5  00 00 00 00 00 
  1019)       853.9  Rx         0022  5  0B 00 86 1C 03 
  1020)       854.2  Rx         0020  5  0A 00 8F 19 03 
  1021)       854.4  Rx         0023  5  00 00 00 00 00 
  1022)       854.7  Rx         0021  5  00 00 00 00 00 
  1023)       854.8  Rx         0022  5  0B 00 85 1C 03 
  1024)       855.2  Rx         0020  5  0A 00 8F 19 03 
  1025)       855.3  Rx         0023  5  00 00 00 00 00 
  1026)       855.9  Rx         0021  5  00 00 00 00 00 
  1027)       856.1  Rx         0022  5  0B 00 85 1C 03 
  1028)       856.6  Rx         0020  5  0A 00 8F 19 03 
  1029)       856.8  Rx         0023  5  00 00 00 00 00 
  1030)       857.2  Rx         0021  5  00 00 00 00 00 
  1031)       857.4  Rx         0022  5  0B 00 85 1C 01 
  1032)       857.9  Rx         0020  5  0A 00 8F 19 03 
  1033)       858.0  Rx         0023  5  00 00 00 00 00 
  1034)       858.5  Rx         0021  5  00 00 00 00 00 
  1035)       858.7  Rx         0022  5  0B 00 84 1C 01 
  1036)       859.1  Rx         0020  5  0A 00 8F 19 03 
  1037)       859.3  Rx         0023  5  00 00 00 00 00 
  1038)       859.8  Rx         0021  5  00 00 00 00 00 
  1039)       860.0  Rx         0022  5  0B 00 83 1C 03 
  1040)       860.4  Rx         0020  5  0A 00 8F 19 03 
  1041)       860.6  Rx         0023  5  00 00 00 00 00 
  1042)       861.1  Rx         0021  5  00 00 00 00 00 
  1043)       861.3  Rx         0022  5  0B 00 83 1C 01 
  1044)       861.7  Rx         0020  5  0A 00 8F 19 03 
  1045)       861.9  Rx         0023  5  00 00 00 00 00 
  1046)       862.4  Rx         0021  5  00 00 00 00 00 
  1047)       864.1  Rx         0026  6  E3 06 54 7F 44 3C 
  1048)       864.3  Rx         0020  5  0A 00 8F 19 03 
  1049)       864.8  Rx         0022  5  0B 00 81 1C 03 
  1050)       864.9  Rx         0021  5  00 00 00 00 00 
  1051)       865.4  Rx         0023  5  00 00 00 00 00 
  1052)       865.6  Rx         0020  5  0A 00 8F 19 03 
  1053)       866.1  Rx         0022  5  0B 00 81 1C 01 
  1054)       866.3  Rx         0021  5  00 00 00 00 00 
  1055)       866.7  Rx         0023  5  00 00 00 00 00 
  1056)       866.9  Rx         0020  5  0A 00 8F 19 03 
  1057)       867.3  Rx         0022  5  0B 00 80 1C 03 
  1058)       867.5  Rx         0021  5  00 00 00 00 00 
  1059)       867.9  Rx         0023  5  00 00 00 00 00 
  1060)       868.1  Rx         0020  5  0A 00 8F 19 03 
  1061)       868.5  Rx         0022  5  0B 00 80 1C 01 
  1062)       868.7  Rx         0021  5  00 00 00 00 00 
  1063)       869.1  Rx         0023  5  00 00 00 00 00 
  1064)       869.3  Rx         0020  5  0A 00 8F 19 03 
  1065)       869.7  Rx         0022  5  0B 00 7F 1C 03 
  1066)       869.9  Rx         0021  5  00 00 00 00 00 
  1067)       870.4  Rx         0023  5  00 00 00 00 00 
  1068)       870.6  Rx         0020  5  0A 00 8F 19 03 
  1069)       871.0  Rx         0022  5  0B 00 7F 1C 01 
  1070)       871.2  Rx         0021  5  00 00 00 00 00 
  1071)       871.7  Rx         0023  5  00 00 00 00 00 
  1072)       871.9  Rx         0020  5  0A 00 8F 19 03 
  1073)       872.3  Rx         0022  5  0B 00 7E 1C 03 
  1074)       872.5  Rx         0021  5  00 00 00 00 00 
  1075)       873.0  Rx         0023  5  00 00 00 00 00 
  1076)       873.1  Rx         0020  5  0A 00 8F 19 03 
  1077)       884.4  Rx         0021  5  00 00 00 00 00 
  1078)       884.9  Rx         0026  6  82 07 49 7F 4F 3C 
  1079)       885.0  Rx         0020  5  0A 00 8F 19 03 
  1080)       885.4  Rx         0022  5  0B 00 79 1C 03 
  1081)       885.6  Rx         0021  5  00 00 00 00 00 
  1082)       887.1  Rx         0023  5  00 00 00 00 00 
  1083)       887.5  Rx         0020  5  0A 00 8F 19 03 
  1084)       887.8  Rx         0022  5  0B 00 79 1C 01 
  1085)       888.2  Rx         0021  5  00 00 00 00 00 
  1086)       888.4  Rx         0023  5  00 00 00 00 00 
  1087)       890.6  Rx         0021  5  00 00 00 00 00 
  1088)       890.8  Rx         0023  5  00 00 00 00 00 
  1089)       891.2  Rx         0020  5  0A 00 8F 19 03 
  1090)       891.4  Rx         0022  5  0B 00 78 1C 01 
  1091)       892.4  Rx         0020  5  0A 00 8F 19 03 
  1092)       892.6  Rx         0022  5  0B 00 77 1C 01 
  1093)       892.9  Rx         0021  5  00 00 00 00 00 
  1094)       893.1  Rx         0023  5  00 00 00 00 00 
  1095)       893.5  Rx         0020  5  0A 00 8F 19 03 
  1096)       893.7  Rx         0022  5  0B 00 77 1C 01 
  1097)       894.2  Rx         0021  5  00 00 00 00 00 
  1098)       894.3  Rx         0023  5  00 00 00 00 00 
  1099)       894.8  Rx         0020  5  0A 00 8F 19 03 
  1100)       895.9  Rx         0020  5  0A 00 8F 19 03 
  1101)       896.1  Rx         0026  6  BB 07 49 7F 5A 3C 
  1102)       896.4  Rx         0021  5  00 00 00 00 00 
  1103)       896.6  Rx         0022  5  0B 00 75 1C 03 
  1104)       896.9  Rx         0020  5  0A 00 8F 19 03 
  1105)       897.1  Rx         0023  5  00 00 00 00 00 
  1106)       897.5  Rx         0021  5  00 00 00 00 00 
  1107)       897.7  Rx         0022  5  0B 00 75 1C 03 
  1108)       898.1  Rx         0020  5  0A 00 8F 19 03 
  1109)       898.3  Rx         0023  5  00 00 00 00 00 
  1110)       898.7  Rx         0021  5  00 00 00 00 00 
  1111)       898.9  Rx         0022  5  0B 00 75 1C 01 
  1112)       899.3  Rx         0020  5  0A 00 8F 19 03 
  1113)       899.5  Rx         0023  5  00 00 00 00 00 
  1114)       899.9  Rx         0021  5  00 00 00 00 00 
  1115)       900.1  Rx         0022  5  0B 00 74 1C 03 
  1116)       900.6  Rx         0020  5  0A 00 8F 19 03 
  1117)       900.7  Rx         0023  5  00 00 00 00 00 
  1118)       901.2  Rx         0021  5  00 00 00 00 00 
  1119)       901.3  Rx         0022  5  0B 00 74 1C 01 
  1120)       901.7  Rx         0020  5  0A 00 8F 19 03 
  1121)       901.9  Rx         0023  5  00 00 00 00 00 
  1122)       902.3  Rx         0021  5  00 00 00 00 00 
  1123)       902.6  Rx         0022  5  0B 00 73 1C 03 
  1124)       902.9  Rx         0020  5  0A 00 8F 19 03 
  1125)       903.2  Rx         0023  5  00 00 00 00 00 
  1126)       903.5  Rx         0021  5  00 00 00 00 00 
  1127)       903.8  Rx         0022  5  0B 00 73 1C 03 
  1128)       904.1  Rx         0020  5  0A 00 8F 19 03 
  1129)       904.4  Rx         0023  5  00 00 00 00 00 
  1130)       904.8  Rx         0021  5  00 00 00 00 00 
  1131)       904.9  Rx         0022  5  0B 00 73 1C 01 
  1132)       905.4  Rx         0020  5  0A 00 8F 19 03 
  1133)       905.5  Rx         0023  5  00 00 00 00 00 
  1134)       906.0  Rx         0021  5  00 00 00 00 00 
  1135)       907.7  Rx         0020  5  0A 00 8F 19 03 
  1136)       907.9  Rx         0022  5  0B 00 72 1C 01 
  1137)       908.5  Rx         0021  5  00 00 00 00 00 
  1138)       908.7  Rx         0023  5  00 00 00 00 00 
  1139)       918.0  Rx         0021  5  00 00 00 00 00 
  1140)       919.6  Rx         0026  6  22 08 49 7F 66 3C 
  1141)       919.8  Rx         0020  5  0A 00 8F 19 03 
  1142)       920.3  Rx         0022  5  0B 00 6E 1C 03 
  1143)       920.5  Rx         0021  5  00 00 00 00 00 
  1144)       920.9  Rx         0023  5  00 00 00 00 00 
  1145)       921.1  Rx         0020  5  0A 00 8F 19 03 
  1146)       926.1  Rx         0022  5  0B 00 6C 1C 03 
  1147)       926.4  Rx         0021  5  00 00 00 00 00 
  1148)       926.9  Rx         0023  5  00 00 00 00 00 
  1149)       927.0  Rx         0020  5  0A 00 8F 19 01 
  1150)       928.6  Rx         0021  5  00 00 00 00 00 
  1151)       935.7  Rx         0021  5  00 00 00 00 00 
  1152)       935.9  Rx         0022  5  0B 00 6A 1C 03 
  1153)       936.3  Rx         0020  5  0A 00 8F 19 01 
  1154)       936.5  Rx         0023  5  00 00 00 00 00 
  1155)       938.7  Rx         0020  5  0A 00 8F 19 01 
  1156)       939.8  Rx         0020  5  0A 00 8F 19 01 
  1157)       946.9  Rx         0020  5  0A 00 8F 19 01 
  1158)       947.1  Rx         0022  5  0B 00 68 1C 01 
  1159)       947.6  Rx         0021  5  00 00 00 00 00 
  1160)       947.8  Rx         0023  5  00 00 00 00 00 
  1161)       949.9  Rx         0021  5  00 00 00 00 00 
  1162)       951.0  Rx         0021  5  00 00 00 00 00 
  1163)       956.4  Rx         0020  5  0A 00 8E 19 03 
  1164)       956.6  Rx         0023  5  00 00 00 00 00 
  1165)       957.0  Rx         0021  5  00 00 00 00 00 
  1166)       957.2  Rx         0022  5  0B 00 65 1C 03 
  1167)       960.6  Rx         0021  5  00 00 00 00 00 
  1168)       962.4  Rx         0020  5  0A 00 8E 19 03 
  1169)       966.0  Rx         0020  5  0A 00 8E 19 01 
  1170)       966.1  Rx         0022  5  0B 00 64 1C 01 
  1171)       966.6  Rx         0021  5  00 00 00 00 00 
  1172)       966.8  Rx         0023  5  00 00 00 00 00 
  1173)       970.1  Rx         0021  5  00 00 00 00 00 
  1174)       970.3  Rx         0023  5  00 00 00 00 00 
  1175)       972.5  Rx         0021  5  00 00 00 00 00 
  1176)       973.6  Rx         0021  5  00 00 00 00 00 
  1177)       973.9  Rx         0026  6  1C 09 32 7F 7C 3C 
  1178)       974.3  Rx         0020  5  0A 00 8E 19 01 
  1179)       974.5  Rx         0022  5  0B 00 63 1C 01 
  1180)       975.0  Rx         0021  5  00 00 00 00 00 
  1181)       975.2  Rx         0023  5  00 00 00 00 00 
  1182)       980.3  Rx         0020  5  0A 00 8D 19 03 
  1183)       980.4  Rx         0022  5  0B 00 62 1C 01 
  1184)       980.9  Rx         0021  5  00 00 00 00 00 
  1185)       981.1  Rx         0023  5  00 00 00 00 00 
  1186)       985.0  Rx         0020  5  0A 00 8D 19 01 
  1187)       985.2  Rx         0026  6  82 09 32 7F 88 3C 
  1188)       985.6  Rx         0021  5  00 00 00 00 00 
  1189)       985.8  Rx         0022  5  0B 00 61 1C 03 
  1190)       986.3  Rx         0020  5  0A 00 8D 19 01 
  1191)       986.5  Rx         0023  5  00 00 00 00 00 
  1192)       986.9  Rx         0021  5  00 00 00 00 00 
  1193)       987.1  Rx         0022  5  0B 00 61 1C 03 
  1194)       995.8  Rx         0020  5  0A 00 8C 19 03 
  1195)       997.7  Rx         0021  5  00 00 00 00 00 
  1196)       997.9  Rx         0023  5  00 00 00 00 00 
  1197)       998.3  Rx         0020  5  0A 00 8C 19 03 
  1198)       998.5  Rx         0022  5  0B 00 60 1C 03 
  1199)      1000.6  Rx         0020  5  0A 00 8C 19 03 
  1200)      1000.8  Rx         0022  5  0B 00 60 1C 01 
  1201)      1001.3  Rx         0021  5  00 00 00 00 00 
  1202)      1001.5  Rx         0023  5  00 00 00 00 00 
  1203)      1007.2  Rx         0021  5  00 00 00 00 00 
  1204)      1010.8  Rx         0021  5  00 00 00 00 00 
  1205)      1010.9  Rx         0022  5  0B 00 5F 1C 03 
  1206)      1011.4  Rx         0020  5  0A 00 8B 19 01 
  1207)      1011.6  Rx         0023  5  00 00 00 00 00 
  1208)      1017.3  Rx         0020  5  0A 00 8A 19 03 
  1209)      1017.5  Rx         0023  5  00 00 00 00 00 
  1210)      1018.0  Rx         0021  5  00 00 00 00 00 
  1211)      1019.7  Rx         0020  5  0A 00 8A 19 03 
  1212)      1020.1  Rx         0026  6  16 0A 27 7F 88 3C 
  1213)      1020.4  Rx         0021  5  00 00 00 00 00 
  1214)      1020.8  Rx         0022  5  0B 00 5F 1C 01 
  1215)      1021.0  Rx         0020  5  0A 00 8A 19 01 
  1216)      1021.4  Rx         0023  5  00 00 00 00 00 
  1217)      1021.6  Rx         0021  5  00 00 00 00 00 
  1218)      1022.0  Rx         0022  5  0B 00 5F 1C 01 
  1219)      1022.2  Rx         0020  5  0A 00 8A 19 01 
  1220)      1022.6  Rx         0023  5  00 00 00 00 00 
  1221)      1022.8  Rx         0021  5  00 00 00 00 00 
  1222)      1023.2  Rx         0022  5  0B 00 5F 1C 01 
  1223)      1023.4  Rx         0020  5  0A 00 8A 19 01 
  1224)      1023.8  Rx         0023  5  00 00 00 00 00 
  1225)      1024.0  Rx         0021  5  00 00 00 00 00 
  1226)      1024.4  Rx         0022  5  0B 00 5F 1C 01 
  1227)      1024.6  Rx         0020  5  0A 00 8A 19 01 
  1228)      1025.0  Rx         0023  5  00 00 00 00 00 
  1229)      1025.2  Rx         0021  5  00 00 00 00 00 
  1230)      1025.6  Rx         0022  5  0B 00 5E 1C 03 
  1231)      1025.8  Rx         0020  5  0A 00 8A 19 01 
  1232)      1026.2  Rx         0023  5  00 00 00 00 00 
  1233)      1026.4  Rx         0021  5  00 00 00 00 00 
  1234)      1026.8  Rx         0022  5  0B 00 5E 1C 03 
  1235)      1027.0  Rx         0020  5  0A 00 89 19 03 
  1236)      1027.4  Rx         0023  5  00 00 00 00 00 
  1237)      1027.6  Rx         0021  5  00 00 00 00 00 
  1238)      1028.0  Rx         0022  5  0B 00 5E 1C 03 
  1239)      1028.2  Rx         0020  5  0A 00 89 19 03 
  1240)      1028.6  Rx         0023  5  00 00 00 00 00 
  1241)      1028.8  Rx         0021  5  00 00 00 00 00 
  1242)      1029.2  Rx         0022  5  0B 00 5E 1C 03 
  1243)      1029.4  Rx         0020  5  0A 00 89 19 03 
  1244)      1029.8  Rx         0023  5  00 00 00 00 00 
  1245)      1030.0  Rx         0021  5  00 00 00 00 00 
  1246)      1031.7  Rx         0020  5  0A 00 89 19 01 
  1247)      1032.9  Rx         0020  5  0A 00 89 19 01 
  1248)      1033.1  Rx         0022  5  0B 00 5E 1C 03 
  1249)      1033.4  Rx         0021  5  00 00 00 00 00 
  1250)      1033.6  Rx         0023  5  00 00 00 00 00 
  1251)      1034.0  Rx         0020  5  0A 00 88 19 03 
  1252)      1034.3  Rx         0022  5  0B 00 5E 1C 03 
  1253)      1034.6  Rx         0021  5  00 00 00 00 00 
  1254)      1034.9  Rx         0023  5  00 00 00 00 00 
  1255)      1035.1  Rx         0020  5  0A 00 88 19 03 
  1256)      1035.3  Rx         0022  5  0B 00 5E 1C 03 
  1257)      1035.7  Rx         0021  5  00 00 00 00 00 
  1258)      1035.9  Rx         0023  5  00 00 00 00 00 
  1259)      1036.2  Rx         0020  5  0A 00 88 19 03 
  1260)      1036.3  Rx         0022  5  0B 00 5E 1C 03 
  1261)      1036.7  Rx         0021  5  00 00 00 00 00 
  1262)      1036.9  Rx         0023  5  00 00 00 00 00 
  1263)      1037.4  Rx         0020  5  0A 00 88 19 03 
  1264)      1037.6  Rx         0022  5  0B 00 5E 1C 03 
  1265)      1038.0  Rx         0021  5  00 00 00 00 00 
  1266)      1038.2  Rx         0023  5  00 00 00 00 00 
  1267)      1038.7  Rx         0020  5  0A 00 88 19 01 
  1268)      1038.9  Rx         0022  5  0B 00 5E 1C 03 
  1269)      1039.3  Rx         0021  5  00 00 00 00 00 
  1270)      1039.5  Rx         0023  5  00 00 00 00 00 
  1271)      1040.0  Rx         0020  5  0A 00 87 19 03 
  1272)      1040.2  Rx         0022  5  0B 00 5E 1C 03 
  1273)      1040.7  Rx         0021  5  00 00 00 00 00 
  1274)      1040.8  Rx         0023  5  00 00 00 00 00 
  1275)      1041.3  Rx         0020  5  0A 00 87 19 03 
  1276)      1041.5  Rx         0022  5  0B 00 5E 1C 03 
  1277)      1041.9  Rx         0021  5  00 00 00 00 00 
  1278)      1042.1  Rx         0023  5  00 00 00 00 00 
  1279)      1042.6  Rx         0020  5  0A 00 87 19 03 
  1280)      1045.9  Rx         0022  5  0B 00 5E 1C 03 
  1281)      1046.5  Rx         0020  5  0A 00 87 19 01 
  1282)      1046.7  Rx         0023  5  00 00 00 00 00 
  1283)      1047.1  Rx         0021  5  00 00 00 00 00 
  1284)      1047.3  Rx         0022  5  0B 00 5E 1C 03 
  1285)      1047.8  Rx         0020  5  0A 00 86 19 03 
  1286)      1047.9  Rx         0023  5  00 00 00 00 00 
  1287)      1048.4  Rx         0021  5  00 00 00 00 00 
  1288)      1048.6  Rx         0022  5  0B 00 5E 1C 03 
  1289)      1049.0  Rx         0020  5  0A 00 86 19 03 
  1290)      1049.2  Rx         0023  5  00 00 00 00 00 
  1291)      1049.6  Rx         0021  5  00 00 00 00 00 
  1292)      1049.8  Rx         0022  5  0B 00 5E 1C 03 
  1293)      1050.2  Rx         0020  5  0A 00 86 19 03 
  1294)      1050.4  Rx         0023  5  00 00 00 00 00 
  1295)      1050.8  Rx         0021  5  00 00 00 00 00 
  1296)      1051.0  Rx         0022  5  0B 00 5E 1C 03 
  1297)      1051.4  Rx         0020  5  0A 00 86 19 01 
  1298)      1051.6  Rx         0023  5  00 00 00 00 00 
  1299)      1052.1  Rx         0021  5  00 00 00 00 00 
  1300)      1052.3  Rx         0022  5  0B 00 5E 1C 03 
  1301)      1052.7  Rx         0020  5  0A 00 86 19 01 
  1302)      1052.9  Rx         0023  5  00 00 00 00 00 
  1303)      1053.4  Rx         0021  5  00 00 00 00 00 
  1304)      1065.2  Rx         0021  5  00 00 00 00 00 
  1305)      1067.3  Rx         0023  5  00 00 00 00 00 
  1306)      1067.5  Rx         0021  5  00 00 00 00 00 
  1307)      1068.0  Rx         0022  5  0B 00 5E 1C 03 
  1308)      1068.2  Rx         0020  5  0A 00 83 19 03 
  1309)      1070.3  Rx         0022  5  0B 00 5E 1C 03 
  1310)      1070.8  Rx         0020  5  0A 00 83 19 03 
  1311)      1071.0  Rx         0023  5  00 00 00 00 00 
  1312)      1076.6  Rx         0020  5  0A 00 82 19 03 
  1313)      1080.2  Rx         0020  5  0A 00 82 19 01 
  1314)      1080.4  Rx         0022  5  0B 00 5E 1C 03 
  1315)      1080.8  Rx         0021  5  00 00 00 00 00 
  1316)      1081.0  Rx         0023  5  00 00 00 00 00 
  1317)      1086.7  Rx         0021  5  00 00 00 00 00 
  1318)      1086.9  Rx         0023  5  00 00 00 00 00 
  1319)      1087.3  Rx         0020  5  0A 00 81 19 03 
  1320)      1088.6  Rx         0020  5  0A 00 81 19 01 
  1321)      1089.1  Rx         0021  5  00 00 00 00 00 
  1322)      1089.6  Rx         0026  6  49 0B 10 7F 66 3C 
  1323)      1089.7  Rx         0020  5  0A 00 81 19 01 
  1324)      1090.2  Rx         0022  5  0B 00 5E 1C 03 
  1325)      1090.4  Rx         0021  5  00 00 00 00 00 
  1326)      1092.5  Rx         0022  5  0B 00 5E 1C 03 
  1327)      1092.9  Rx         0021  5  00 00 00 00 00 
  1328)      1093.1  Rx         0023  5  00 00 00 00 00 
  1329)      1097.1  Rx         0020  5  0A 00 80 19 03 
  1330)      1097.2  Rx         0022  5  0B 00 5E 1C 03 
  1331)      1097.7  Rx         0021  5  00 00 00 00 00 
  1332)      1097.9  Rx         0023  5  00 00 00 00 00 
  1333)      1098.9  Rx         0021  5  00 00 00 00 00 
  1334)      1099.4  Rx         0020  5  0A 00 80 19 01 
  1335)      1099.9  Rx         0021  5  00 00 00 00 00 
  1336)      1100.4  Rx         0026  6  77 0B 10 7F 5A 3C 
  1337)      1100.6  Rx         0020  5  0A 00 80 19 01 
  1338)      1101.0  Rx         0022  5  0B 00 5E 1C 03 
  1339)      1101.2  Rx         0021  5  00 00 00 00 00 
  1340)      1101.6  Rx         0023  5  00 00 00 00 00 
  1341)      1101.8  Rx         0020  5  0A 00 80 19 01 
  1342)      1102.2  Rx         0022  5  0B 00 5E 1C 03 
  1343)      1102.4  Rx         0021  5  00 00 00 00 00 
  1344)      1102.8  Rx         0023  5  00 00 00 00 00 
  1345)      1103.0  Rx         0020  5  0A 00 7F 19 03 
  1346)      1103.4  Rx         0022  5  0B 00 5E 1C 03 
  1347)      1103.6  Rx         0021  5  00 00 00 00 00 
  1348)      1104.0  Rx         0023  5  00 00 00 00 00 
  1349)      1104.2  Rx         0020  5  0A 00 7F 19 03 
  1350)      1104.6  Rx         0022  5  0B 00 5E 1C 03 
  1351)      1104.8  Rx         0021  5  00 00 00 00 00 
  1352)      1105.2  Rx         0023  5  00 00 00 00 00 
  1353)      1105.4  Rx         0020  5  0A 00 7F 19 03 
  1354)      1105.8  Rx         0022  5  0B 00 5E 1C 03 
  1355)      1106.0  Rx         0021  5  00 00 00 00 00 
  1356)      1106.4  Rx         0023  5  00 00 00 00 00 
  1357)      1106.6  Rx         0020  5  0A 00 7F 19 03 
  1358)      1107.0  Rx         0022  5  0B 00 5E 1C 03 
  1359)      1107.2  Rx         0021  5  00 00 00 00 00 
  1360)      1107.6  Rx         0023  5  00 00 00 00 00 
  1361)      1107.8  Rx         0020  5  0A 00 7F 19 03 
  1362)      1108.2  Rx         0022  5  0B 00 5E 1C 03 
  1363)      1108.4  Rx         0021  5  00 00 00 00 00 
  1364)      1108.8  Rx         0023  5  00 00 00 00 00 
  1365)      1109.0  Rx         0020  5  0A 00 7F 19 01 
  1366)      1110.7  Rx         0021  5  00 00 00 00 00 
  1367)      1111.2  Rx         0020  5  0A 00 7F 19 01 
  1368)      1111.4  Rx         0026  6  B0 0B 05 7F 4F 3C 
  1369)      1111.9  Rx         0021  5  00 00 00 00 00 
  1370)      1112.1  Rx         0022  5  0B 00 5E 1C 03 
  1371)      1112.5  Rx         0020  5  0A 00 7F 19 01 
  1372)      1112.7  Rx         0023  5  00 00 00 00 00 
  1373)      1113.1  Rx         0021  5  00 00 00 00 00 
  1374)      1113.3  Rx         0022  5  0B 00 5E 1C 03 
  1375)      1113.7  Rx         0020  5  0A 00 7E 19 03 
  1376)      1113.9  Rx         0023  5  00 00 00 00 00 
  1377)      1114.3  Rx         0021  5  00 00 00 00 00 
  1378)      1114.5  Rx         0022  5  0B 00 5E 1C 03 
  1379)      1121.3  Rx         0021  5  00 00 00 00 00 
  1380)      1123.1  Rx         0020  5  0A 00 7E 19 01 
  1381)      1123.3  Rx         0022  5  0B 00 5E 1C 03 
  1382)      1123.8  Rx         0021  5  00 00 00 00 00 
  1383)      1124.0  Rx         0023  5  00 00 00 00 00 
  1384)      1127.3  Rx         0021  5  00 00 00 00 00 
  1385)      1127.5  Rx         0023  5  00 00 00 00 00 
  1386)      1127.9  Rx         0020  5  0A 00 7D 19 03 
  1387)      1128.1  Rx         0022  5  0B 00 5E 1C 03 
  1388)      1131.4  Rx         0020  5  0A 00 7D 19 03 
  1389)      1132.0  Rx         0021  5  00 00 00 00 00 
  1390)      1133.2  Rx         0021  5  00 00 00 00 00 
  1391)      1133.4  Rx         0026  6  0B 0C 05 7F 38 3C 
  1392)      1133.7  Rx         0020  5  0A 00 7D 19 01 
  1393)      1133.9  Rx         0022  5  0B 00 5E 1C 03 
  1394)      1134.3  Rx         0021  5  00 00 00 00 00 
  1395)      1134.5  Rx         0023  5  00 00 00 00 00 
  1396)      1137.8  Rx         0021  5  00 00 00 00 00 
  1397)      1138.1  Rx         0023  5  00 00 00 00 00 
  1398)      1141.4  Rx         0021  5  00 00 00 00 00 
  1399)      1141.6  Rx         0023  5  00 00 00 00 00 
  1400)      1142.1  Rx         0020  5  0A 00 7C 19 03 
  1401)      1143.3  Rx         0020  5  0A 00 7C 19 03 
  1402)      1143.8  Rx         0026  6  38 0C 05 7F 2D 3C 
  1403)      1143.9  Rx         0021  5  00 00 00 00 00 
  1404)      1144.4  Rx         0022  5  0B 00 5E 1C 03 
  1405)      1144.6  Rx         0020  5  0A 00 7C 19 03 
  1406)      1148.0  Rx         0020  5  0A 00 7C 19 01 
  1407)      1148.1  Rx         0022  5  0B 00 5E 1C 03 
  1408)      1151.5  Rx         0020  5  0A 00 7C 19 01 
  1409)      1151.7  Rx         0022  5  0B 00 5E 1C 01 
  1410)      1152.1  Rx         0021  5  00 00 00 00 00 
  1411)      1152.3  Rx         0023  5  00 00 00 00 00 
  1412)      1153.9  Rx         0020  5  0A 00 7B 19 03 
  1413)      1157.2  Rx         0022  5  0B 00 5D 1C 03 
  1414)      1157.5  Rx         0020  5  0A 00 7B 19 03 
  1415)      1157.9  Rx         0023  5  00 00 00 00 00 
  1416)      1158.1  Rx         0021  5  00 00 00 00 00 
  1417)      1161.4  Rx         0023  5  00 00 00 00 00 
  1418)      1161.6  Rx         0021  5  00 00 00 00 00 
  1419)      1162.1  Rx         0022  5  0B 00 5D 1C 03 
  1420)      1162.2  Rx         0020  5  0A 00 7B 19 03 
  1421)      1164.6  Rx         0020  5  0A 00 7B 19 03 
  1422)      1165.6  Rx         0026  6  CC 0C F9 7E 16 3C 
  1423)      1165.9  Rx         0020  5  0A 00 7B 19 03 
  1424)      1166.2  Rx         0022  5  0B 00 5D 1C 01 
  1425)      1167.7  Rx         0021  5  00 00 00 00 00 
  1426)      1167.9  Rx         0023  5  00 00 00 00 00 
  1427)      1168.3  Rx         0020  5  0A 00 7B 19 03 
  1428)      1168.5  Rx         0022  5  0B 00 5D 1C 01 
  1429)      1169.0  Rx         0021  5  00 00 00 00 00 
  1430)      1169.2  Rx         0023  5  00 00 00 00 00 
  1431)      1171.4  Rx         0021  5  00 00 00 00 00 
  1432)      1171.5  Rx         0023  5  00 00 00 00 00 
  1433)      1172.0  Rx         0020  5  0A 00 7B 19 03 
  1434)      1172.2  Rx         0022  5  0B 00 5C 1C 01 
  1435)      1176.1  Rx         0021  5  00 00 00 00 00 
  1436)      1177.9  Rx         0020  5  0A 00 7B 19 03 
  1437)      1178.1  Rx         0022  5  0B 00 5B 1C 01 
  1438)      1178.5  Rx         0021  5  00 00 00 00 00 
  1439)      1178.7  Rx         0023  5  00 00 00 00 00 
  1440)      1179.2  Rx         0020  5  0A 00 7B 19 03 
  1441)      1179.3  Rx         0022  5  0B 00 5B 1C 01 
  1442)      1181.5  Rx         0020  5  0A 00 7B 19 03 
  1443)      1181.7  Rx         0022  5  0B 00 5A 1C 03 
  1444)      1182.1  Rx         0021  5  00 00 00 00 00 
  1445)      1182.3  Rx         0023  5  00 00 00 00 00 
  1446)      1186.2  Rx         0020  5  0A 00 7B 19 03 
  1447)      1188.0  Rx         0021  5  00 00 00 00 00 
  1448)      1188.5  Rx         0026  6  3E 0D E3 7E 0B 3C 
  1449)      1188.7  Rx         0020  5  0A 00 7B 19 03 
  1450)      1189.1  Rx         0022  5  0B 00 59 1C 03 
  1451)      1189.3  Rx         0021  5  00 00 00 00 00 
  1452)      1189.8  Rx         0023  5  00 00 00 00 00 
  1453)      1190.0  Rx         0020  5  0A 00 7B 19 03 
  1454)      1196.8  Rx         0023  5  00 00 00 00 00 
  1455)      1197.0  Rx         0020  5  0A 00 7C 19 01 
  1456)      1198.2  Rx         0020  5  0A 00 7C 19 01 
  1457)      1198.7  Rx         0021  5  00 00 00 00 00 
  1458)      1199.2  Rx         0020  5  0A 00 7C 19 03 
  1459)      1199.4  Rx         0026  6  77 0D E3 7E FF 3B 
  1460)      1199.7  Rx         0021  5  00 00 00 00 00 
  1461)      1199.9  Rx         0022  5  0B 00 56 1C 03 
  1462)      1200.4  Rx         0020  5  0A 00 7C 19 03 
  1463)      1200.5  Rx         0023  5  00 00 00 00 00 
  1464)      1201.0  Rx         0021  5  00 00 00 00 00 
  1465)      1201.1  Rx         0022  5  0B 00 56 1C 03 
  1466)      1201.6  Rx         0020  5  0A 00 7C 19 03 
  1467)      1201.7  Rx         0023  5  00 00 00 00 00 
  1468)      1202.2  Rx         0021  5  00 00 00 00 00 
  1469)      1202.4  Rx         0022  5  0B 00 56 1C 01 
  1470)      1202.8  Rx         0020  5  0A 00 7C 19 03 
  1471)      1203.0  Rx         0023  5  00 00 00 00 00 
  1472)      1203.3  Rx         0021  5  00 00 00 00 00 
  1473)      1203.6  Rx         0022  5  0B 00 55 1C 03 
  1474)      1204.0  Rx         0020  5  0A 00 7D 19 01 
  1475)      1204.2  Rx         0023  5  00 00 00 00 00 
  1476)      1204.6  Rx         0021  5  00 00 00 00 00 
  1477)      1204.8  Rx         0022  5  0B 00 55 1C 03 
  1478)      1205.2  Rx         0020  5  0A 00 7D 19 01 
  1479)      1205.4  Rx         0023  5  00 00 00 00 00 
  1480)      1205.8  Rx         0021  5  00 00 00 00 00 
  1481)      1206.0  Rx         0022  5  0B 00 55 1C 03 
  1482)      1206.4  Rx         0020  5  0A 00 7D 19 01 
  1483)      1206.6  Rx         0023  5  00 00 00 00 00 
  1484)      1207.0  Rx         0021  5  00 00 00 00 00 
  1485)      1207.2  Rx         0022  5  0B 00 54 1C 03 
  1486)      1207.6  Rx         0020  5  0A 00 7D 19 01 
  1487)      1207.8  Rx         0023  5  00 00 00 00 00 
  1488)      1208.2  Rx         0021  5  00 00 00 00 00 
  1489)      1208.7  Rx         0020  5  0A 00 7D 19 03 
  1490)      1209.2  Rx         0021  5  00 00 00 00 00 
  1491)      1209.7  Rx         0020  5  0A 00 7D 19 03 
  1492)      1210.5  Rx         0021  5  00 00 00 00 00 
  1493)      1214.2  Rx         0021  5  00 00 00 00 00 
  1494)      1214.4  Rx         0023  5  00 00 00 00 00 
  1495)      1214.8  Rx         0020  5  0A 00 7E 19 01 
  1496)      1215.0  Rx         0022  5  0B 00 52 1C 01 
  1497)      1215.5  Rx         0021  5  00 00 00 00 00 
  1498)      1215.7  Rx         0023  5  00 00 00 00 00 
  1499)      1216.1  Rx         0020  5  0A 00 7E 19 03 
  1500)      1216.3  Rx         0022  5  0B 00 51 1C 03 
  1501)      1216.7  Rx         0021  5  00 00 00 00 00 
  1502)      1217.0  Rx         0023  5  00 00 00 00 00 
  1503)      1217.3  Rx         0020  5  0A 00 7E 19 03 
  1504)      1217.6  Rx         0022  5  0B 00 51 1C 01 
  1505)      1218.0  Rx         0021  5  00 00 00 00 00 
  1506)      1218.1  Rx         0023  5  00 00 00 00 00 
  1507)      1218.5  Rx         0020  5  0A 00 7F 19 01 
  1508)      1218.7  Rx         0022  5  0B 00 51 1C 01 
  1509)      1219.1  Rx         0021  5  00 00 00 00 00 
  1510)      1219.3  Rx         0023  5  00 00 00 00 00 
  1511)      1219.8  Rx         0020  5  0A 00 7F 19 01 
  1512)      1221.6  Rx         0021  5  00 00 00 00 00 
  1513)      1231.6  Rx         0020  5  0A 00 81 19 03 
  1514)      1232.1  Rx         0021  5  00 00 00 00 00 
  1515)      1237.4  Rx         0020  5  0A 00 82 19 03 
  1516)      1237.6  Rx         0023  5  00 00 00 00 00 
  1517)      1241.0  Rx         0020  5  0A 00 83 19 01 
  1518)      1241.2  Rx         0023  5  00 00 00 00 00 
  1519)      1241.6  Rx         0021  5  00 00 00 00 00 
  1520)      1241.8  Rx         0022  5  0B 00 46 1C 03 
  1521)      1243.4  Rx         0020  5  0A 00 84 19 01 
  1522)      1248.7  Rx         0021  5  00 00 00 00 00 
  1523)      1248.9  Rx         0023  5  00 00 00 00 00 
  1524)      1249.4  Rx         0020  5  0A 00 85 19 03 
  1525)      1249.5  Rx         0022  5  0B 00 42 1C 03 
  1526)      1252.9  Rx         0020  5  0A 00 86 19 03 
  1527)      1253.1  Rx         0022  5  0B 00 40 1C 01 
  1528)      1254.7  Rx         0021  5  00 00 00 00 00 
  1529)      1258.2  Rx         0021  5  00 00 00 00 00 
  1530)      1258.4  Rx         0022  5  0B 00 3D 1C 03 
  1531)      1258.8  Rx         0020  5  0A 00 88 19 01 
  1532)      1259.0  Rx         0023  5  00 00 00 00 00 
  1533)      1261.2  Rx         0020  5  0A 00 89 19 01 
  1534)      1261.4  Rx         0023  5  00 00 00 00 00 
  1535)      1261.9  Rx         0021  5  00 00 00 00 00 
  1536)      1262.0  Rx         0022  5  0B 00 3A 1C 03 
  1537)      1264.8  Rx         0020  5  0A 00 8A 19 01 
  1538)      1267.7  Rx         0021  5  00 00 00 00 00 
  1539)      1267.9  Rx         0023  5  00 00 00 00 00 
  1540)      1270.0  Rx         0021  5  00 00 00 00 00 
  1541)      1270.2  Rx         0023  5  00 00 00 00 00 
  1542)      1270.6  Rx         0020  5  0A 00 8C 19 01 
  1543)      1270.9  Rx         0022  5  0B 00 35 1C 01 
  1544)      1273.0  Rx         0020  5  0A 00 8D 19 01 
  1545)      1273.2  Rx         0022  5  0B 00 33 1C 03 
  1546)      1276.5  Rx         0020  5  0A 00 8E 19 03 
  1547)      1276.7  Rx         0026  6  82 0F 9E 7E F4 3B 
  1548)      1277.2  Rx         0021  5  00 00 00 00 00 
  1549)      1277.3  Rx         0022  5  0B 00 30 1C 01 
  1550)      1279.5  Rx         0021  5  00 00 00 00 00 
  1551)      1279.7  Rx         0022  5  0B 00 2E 1C 01 
  1552)      1280.1  Rx         0020  5  0A 00 8F 19 03 
  1553)      1280.3  Rx         0023  5  00 00 00 00 00 
  1554)      1282.5  Rx         0020  5  0A 00 91 19 01 
  1555)      1282.7  Rx         0023  5  00 00 00 00 00 
  1556)      1283.1  Rx         0021  5  00 00 00 00 00 
  1557)      1283.3  Rx         0022  5  0B 00 2B 1C 03 
  1558)      1287.2  Rx         0020  5  0A 00 93 19 01 
  1559)      1288.5  Rx         0020  5  0A 00 94 19 01 
  1560)      1288.9  Rx         0026  6  D2 0F 93 7E FF 3B 
  1561)      1289.0  Rx         0021  5  00 00 00 00 00 
  1562)      1289.5  Rx         0022  5  0B 00 26 1C 03 
  1563)      1289.7  Rx         0020  5  0A 00 94 19 01 
  1564)      1291.8  Rx         0022  5  0B 00 24 1C 03 
  1565)      1292.0  Rx         0020  5  0A 00 95 19 03 
  1566)      1292.5  Rx         0023  5  00 00 00 00 00 
  1567)      1292.7  Rx         0021  5  00 00 00 00 00 
  1568)      1298.3  Rx         0023  5  00 00 00 00 00 
  1569)      1298.8  Rx         0021  5  00 00 00 00 00 
  1570)      1299.3  Rx         0020  5  0A 00 98 19 03 
  1571)      1299.8  Rx         0021  5  00 00 00 00 00 
  1572)      1300.3  Rx         0020  5  0A 00 99 19 01 
  1573)      1300.8  Rx         0026  6  22 10 93 7E 0B 3C 
  1574)      1301.0  Rx         0021  5  00 00 00 00 00 
  1575)      1301.2  Rx         0022  5  0B 00 1C 1C 03 
  1576)      1301.5  Rx         0020  5  0A 00 9A 19 01 
  1577)      1301.9  Rx         0023  5  00 00 00 00 00 
  1578)      1302.1  Rx         0021  5  00 00 00 00 00 
  1579)      1302.5  Rx         0022  5  0B 00 1B 1C 01 
  1580)      1302.7  Rx         0020  5  0A 00 9A 19 03 
  1581)      1303.1  Rx         0023  5  00 00 00 00 00 
  1582)      1303.3  Rx         0021  5  00 00 00 00 00 
  1583)      1303.7  Rx         0022  5  0B 00 1A 1C 01 
  1584)      1303.9  Rx         0020  5  0A 00 9A 19 03 
  1585)      1304.3  Rx         0023  5  00 00 00 00 00 
  1586)      1304.5  Rx         0021  5  00 00 00 00 00 
  1587)      1304.9  Rx         0022  5  0B 00 19 1C 01 
  1588)      1305.1  Rx         0020  5  0A 00 9B 19 03 
  1589)      1305.5  Rx         0023  5  00 00 00 00 00 
  1590)      1305.7  Rx         0021  5  00 00 00 00 00 
  1591)      1306.1  Rx         0022  5  0B 00 18 1C 01 
  1592)      1306.3  Rx         0020  5  0A 00 9C 19 01 
  1593)      1306.7  Rx         0023  5  00 00 00 00 00 
  1594)      1306.9  Rx         0021  5  00 00 00 00 00 
  1595)      1307.3  Rx         0022  5  0B 00 17 1C 01 
  1596)      1307.5  Rx         0020  5  0A 00 9C 19 03 
  1597)      1307.9  Rx         0023  5  00 00 00 00 00 
  1598)      1308.1  Rx         0021  5  00 00 00 00 00 
  1599)      1309.8  Rx         0020  5  0A 00 9D 19 03 
  1600)      1310.3  Rx         0021  5  00 00 00 00 00 
  1601)      1310.5  Rx         0026  6  66 10 88 7E 16 3C 
  1602)      1311.0  Rx         0020  5  0A 00 9E 19 01 
  1603)      1311.2  Rx         0022  5  0B 00 13 1C 03 
  1604)      1320.5  Rx         0020  5  0A 00 A3 19 03 
  1605)      1322.3  Rx         0021  5  00 00 00 00 00 
  1606)      1322.5  Rx         0022  5  0B 00 08 1C 03 
  1607)      1322.9  Rx         0020  5  0A 00 A4 19 03 
  1608)      1323.1  Rx         0023  5  00 00 00 00 00 
  1609)      1323.6  Rx         0021  5  00 00 00 00 00 
  1610)      1323.8  Rx         0022  5  0B 00 07 1C 03 
  1611)      1328.9  Rx         0020  5  0A 00 A8 19 01 
  1612)      1329.1  Rx         0023  5  00 00 00 00 00 
  1613)      1329.5  Rx         0021  5  00 00 00 00 00 
  1614)      1329.7  Rx         0022  5  0B 00 01 1C 03 
  1615)      1331.3  Rx         0020  5  0A 00 A9 19 01 
  1616)      1332.6  Rx         0020  5  0A 00 A9 19 03 
  1617)      1332.9  Rx         0026  6  05 11 71 7E 44 3C 
  1618)      1333.1  Rx         0021  5  00 00 00 00 00 
  1619)      1333.3  Rx         0022  5  0B 00 FE 1B 01 
  1620)      1333.6  Rx         0020  5  0A 00 AA 19 03 
  1621)      1333.8  Rx         0023  5  00 00 00 00 00 
  1622)      1334.1  Rx         0021  5  00 00 00 00 00 
  1623)      1334.4  Rx         0022  5  0B 00 FD 1B 03 
  1624)      1334.7  Rx         0020  5  0A 00 AB 19 01 
  1625)      1334.9  Rx         0023  5  00 00 00 00 00 
  1626)      1335.2  Rx         0021  5  00 00 00 00 00 
  1627)      1335.4  Rx         0022  5  0B 00 FC 1B 03 
  1628)      1343.4  Rx         0021  5  00 00 00 00 00 
  1629)      1348.5  Rx         0023  5  00 00 00 00 00 
  1630)      1348.9  Rx         0020  5  0A 00 B2 19 01 
  1631)      1349.1  Rx         0022  5  0B 00 EF 1B 01 
  1632)      1352.4  Rx         0020  5  0A 00 B4 19 01 
  1633)      1354.2  Rx         0021  5  00 00 00 00 00 
  1634)      1354.4  Rx         0022  5  0B 00 EA 1B 03 
  1635)      1354.8  Rx         0020  5  0A 00 B5 19 03 
  1636)      1355.0  Rx         0023  5  00 00 00 00 00 
  1637)      1359.0  Rx         0021  5  00 00 00 00 00 
  1638)      1359.1  Rx         0022  5  0B 00 E6 1B 01 
  1639)      1359.6  Rx         0020  5  0A 00 B8 19 01 
  1640)      1359.8  Rx         0023  5  00 00 00 00 00 
  1641)      1361.9  Rx         0020  5  0A 00 B9 19 01 
  1642)      1362.1  Rx         0023  5  00 00 00 00 00 
  1643)      1362.6  Rx         0021  5  00 00 00 00 00 
  1644)      1362.8  Rx         0022  5  0B 00 E2 1B 03 
  1645)      1364.4  Rx         0020  5  0A 00 BA 19 03 
  1646)      1364.9  Rx         0021  5  00 00 00 00 00 
  1647)      1365.2  Rx         0026  6  44 12 43 7E AA 3C 
  1648)      1365.5  Rx         0020  5  0A 00 BB 19 01 
  1649)      1365.7  Rx         0022  5  0B 00 DF 1B 03 
  1650)      1366.0  Rx         0021  5  00 00 00 00 00 
  1651)      1366.2  Rx         0023  5  00 00 00 00 00 
  1652)      1366.5  Rx         0020  5  0A 00 BB 19 03 
  1653)      1366.7  Rx         0022  5  0B 00 DE 1B 03 
  1654)      1367.0  Rx         0021  5  00 00 00 00 00 
  1655)      1367.3  Rx         0023  5  00 00 00 00 00 
  1656)      1367.5  Rx         0020  5  0A 00 BB 19 03 
  1657)      1367.8  Rx         0022  5  0B 00 DD 1B 03 
  1658)      1368.0  Rx         0021  5  00 00 00 00 00 
  1659)      1368.4  Rx         0023  5  00 00 00 00 00 
  1660)      1368.6  Rx         0020  5  0A 00 BC 19 03 
  1661)      1369.0  Rx         0022  5  0B 00 DC 1B 01 
  1662)      1369.2  Rx         0021  5  00 00 00 00 00 
  1663)      1369.7  Rx         0023  5  00 00 00 00 00 
  1664)      1369.8  Rx         0020  5  0A 00 BD 19 01 
  1665)      1370.2  Rx         0022  5  0B 00 DB 1B 01 
  1666)      1370.4  Rx         0021  5  00 00 00 00 00 
  1667)      1370.9  Rx         0023  5  00 00 00 00 00 
  1668)      1371.0  Rx         0020  5  0A 00 BD 19 03 
  1669)      1371.4  Rx         0022  5  0B 00 DA 1B 01 
  1670)      1371.6  Rx         0021  5  00 00 00 00 00 
  1671)      1372.1  Rx         0023  5  00 00 00 00 00 
  1672)      1372.2  Rx         0020  5  0A 00 BE 19 01 
  1673)      1372.7  Rx         0022  5  0B 00 D8 1B 03 
  1674)      1372.8  Rx         0021  5  00 00 00 00 00 
  1675)      1373.3  Rx         0023  5  00 00 00 00 00 
  1676)      1373.4  Rx         0020  5  0A 00 BE 19 03 
  1677)      1373.9  Rx         0022  5  0B 00 D7 1B 03 
  1678)      1374.1  Rx         0021  5  00 00 00 00 00 
  1679)      1374.4  Rx         0023  5  00 00 00 00 00 
  1680)      1374.7  Rx         0020  5  0A 00 BF 19 01 
  1681)      1376.8  Rx         0022  5  0B 00 D5 1B 01 
  1682)      1377.0  Rx         0020  5  0A 00 C0 19 03 
  1683)      1377.2  Rx         0023  5  00 00 00 00 00 
  1684)      1377.6  Rx         0021  5  00 00 00 00 00 
  1685)      1377.8  Rx         0022  5  0B 00 D3 1B 03 
  1686)      1378.2  Rx         0020  5  0A 00 C1 19 01 
  1687)      1378.4  Rx         0023  5  00 00 00 00 00 
  1688)      1378.8  Rx         0021  5  00 00 00 00 00 
  1689)      1379.0  Rx         0022  5  0B 00 D2 1B 03 
  1690)      1379.4  Rx         0020  5  0A 00 C1 19 03 
  1691)      1379.6  Rx         0023  5  00 00 00 00 00 
  1692)      1380.0  Rx         0021  5  00 00 00 00 00 
  1693)      1380.2  Rx         0022  5  0B 00 D1 1B 03 
  1694)      1380.6  Rx         0020  5  0A 00 C2 19 01 
  1695)      1380.8  Rx         0023  5  00 00 00 00 00 
  1696)      1381.2  Rx         0021  5  00 00 00 00 00 
  1697)      1381.4  Rx         0022  5  0B 00 D0 1B 01 
  1698)      1381.8  Rx         0020  5  0A 00 C2 19 03 
  1699)      1382.0  Rx         0023  5  00 00 00 00 00 
  1700)      1382.4  Rx         0021  5  00 00 00 00 00 
  1701)      1382.6  Rx         0022  5  0B 00 CF 1B 01 
  1702)      1382.9  Rx         0020  5  0A 00 C3 19 01 
  1703)      1383.1  Rx         0023  5  00 00 00 00 00 
  1704)      1383.4  Rx         0021  5  00 00 00 00 00 
  1705)      1383.6  Rx         0022  5  0B 00 CE 1B 03 
  1706)      1383.9  Rx         0020  5  0A 00 C4 19 01 
  1707)      1384.1  Rx         0023  5  00 00 00 00 00 
  1708)      1384.5  Rx         0021  5  00 00 00 00 00 
  1709)      1384.6  Rx         0022  5  0B 00 CD 1B 01 
  1710)      1384.9  Rx         0020  5  0A 00 C4 19 03 
  1711)      1385.2  Rx         0023  5  00 00 00 00 00 
  1712)      1385.5  Rx         0021  5  00 00 00 00 00 
  1713)      1385.7  Rx         0022  5  0B 00 CC 1B 03 
