;$FILEVERSION=1.1
;$STARTTIME=45826.7344453472
;
;   Start time: 2025/6/18 17:37:36.078.0
;   Generated by PCAN-View v5.3.2.952
;
;   Message Number
;   |         Time Offset (ms)
;   |         |        Type
;   |         |        |        ID (hex)
;   |         |        |        |     Data Length
;   |         |        |        |     |   Data Bytes (hex) ...
;   |         |        |        |     |   |
;---+--   ----+----  --+--  ----+---  +  -+ -- -- -- -- -- -- --
     1)         0.0  Rx         0020  5  0A 00 F5 17 03 
     2)         0.2  Rx         0023  5  00 00 00 00 00 
     3)         0.7  Rx         0021  5  00 00 00 00 00 
     4)         0.8  Rx         0022  5  0B 00 FD 1F 03 
     5)         1.2  Rx         0020  5  0A 00 F5 17 03 
     6)         1.4  Rx         0023  5  00 00 00 00 00 
     7)         1.9  Rx         0021  5  00 00 00 00 00 
     8)         2.0  Rx         0022  5  0B 00 FD 1F 03 
     9)         2.5  Rx         0020  5  0A 00 F5 17 03 
    10)         2.6  Rx         0023  5  00 00 00 00 00 
    11)         3.0  Rx         0021  5  00 00 00 00 00 
    12)         3.3  Rx         0022  5  0B 00 FD 1F 03 
    13)         3.6  Rx         0020  5  0A 00 F5 17 03 
    14)         3.9  Rx         0023  5  00 00 00 00 00 
    15)         4.3  Rx         0021  5  00 00 00 00 00 
    16)         4.5  Rx         0022  5  0B 00 FD 1F 03 
    17)         4.9  Rx         0020  5  0A 00 F5 17 03 
    18)         5.1  Rx         0023  5  00 00 00 00 00 
    19)         5.5  Rx         0021  5  00 00 00 00 00 
    20)         5.7  Rx         0022  5  0B 00 FD 1F 03 
    21)         6.1  Rx         0020  5  0A 00 F5 17 03 
    22)         6.3  Rx         0023  5  00 00 00 00 00 
    23)         6.7  Rx         0021  5  00 00 00 00 00 
    24)        19.1  Rx         0020  5  0A 00 F5 17 03 
    25)        19.6  Rx         0021  5  00 00 00 00 00 
    26)        22.9  Rx         0022  5  0B 00 FD 1F 01 
    27)        23.3  Rx         0021  5  00 00 00 00 00 
    28)        23.5  Rx         0023  5  00 00 00 00 00 
    29)        24.0  Rx         0020  5  0A 00 F5 17 03 
    30)        24.2  Rx         0022  5  0B 00 FD 1F 01 
    31)        24.6  Rx         0021  5  00 00 00 00 00 
    32)        24.8  Rx         0023  5  00 00 00 00 00 
    33)        25.2  Rx         0020  5  0A 00 F5 17 03 
    34)        25.5  Rx         0022  5  0B 00 FD 1F 01 
    35)        25.8  Rx         0021  5  00 00 00 00 00 
    36)        26.1  Rx         0023  5  00 00 00 00 00 
    37)        26.4  Rx         0020  5  0A 00 F5 17 03 
    38)        26.6  Rx         0022  5  0B 00 FC 1F 03 
    39)        27.0  Rx         0021  5  00 00 00 00 00 
    40)        27.2  Rx         0023  5  00 00 00 00 00 
    41)        27.6  Rx         0020  5  0A 00 F5 17 03 
    42)        27.8  Rx         0022  5  0B 00 FC 1F 03 
    43)        28.2  Rx         0021  5  00 00 00 00 00 
    44)        28.4  Rx         0023  5  00 00 00 00 00 
    45)        28.9  Rx         0020  5  0A 00 F5 17 03 
    46)        29.0  Rx         0022  5  0B 00 FC 1F 03 
    47)        29.5  Rx         0021  5  00 00 00 00 00 
    48)        29.7  Rx         0023  5  00 00 00 00 00 
    49)        30.2  Rx         0020  5  0A 00 F5 17 03 
    50)        33.5  Rx         0022  5  0B 00 FC 1F 03 
    51)        33.9  Rx         0020  5  0A 00 F5 17 03 
    52)        34.1  Rx         0023  5  00 00 00 00 00 
    53)        34.6  Rx         0021  5  00 00 00 00 00 
    54)        34.8  Rx         0022  5  0B 00 FC 1F 03 
    55)        35.2  Rx         0020  5  0A 00 F5 17 03 
    56)        35.4  Rx         0023  5  00 00 00 00 00 
    57)        35.9  Rx         0021  5  00 00 00 00 00 
    58)        36.1  Rx         0022  5  0B 00 FC 1F 03 
    59)        36.5  Rx         0020  5  0A 00 F5 17 03 
    60)        36.6  Rx         0023  5  00 00 00 00 00 
    61)        37.1  Rx         0021  5  00 00 00 00 00 
    62)        37.2  Rx         0022  5  0B 00 FC 1F 03 
    63)        37.7  Rx         0020  5  0A 00 F5 17 03 
    64)        37.8  Rx         0023  5  00 00 00 00 00 
    65)        38.2  Rx         0021  5  00 00 00 00 00 
    66)        38.4  Rx         0022  5  0B 00 FC 1F 03 
    67)        38.9  Rx         0020  5  0A 00 F5 17 03 
    68)        39.1  Rx         0023  5  00 00 00 00 00 
    69)        39.5  Rx         0021  5  00 00 00 00 00 
    70)        39.7  Rx         0022  5  0B 00 FC 1F 03 
    71)        40.1  Rx         0020  5  0A 00 F5 17 03 
    72)        40.4  Rx         0023  5  00 00 00 00 00 
    73)        40.8  Rx         0021  5  00 00 00 00 00 
    74)        44.2  Rx         0022  5  0B 00 FC 1F 01 
    75)        44.4  Rx         0021  5  00 00 00 00 00 
    76)        44.8  Rx         0023  5  00 00 00 00 00 
    77)        45.0  Rx         0020  5  0A 00 F5 17 03 
    78)        45.5  Rx         0022  5  0B 00 FC 1F 01 
    79)        45.6  Rx         0021  5  00 00 00 00 00 
    80)        46.1  Rx         0023  5  00 00 00 00 00 
    81)        46.3  Rx         0020  5  0A 00 F5 17 03 
    82)        46.8  Rx         0022  5  0B 00 FC 1F 01 
    83)        47.0  Rx         0021  5  00 00 00 00 00 
    84)        47.4  Rx         0023  5  00 00 00 00 00 
    85)        47.5  Rx         0020  5  0A 00 F5 17 03 
    86)        47.9  Rx         0022  5  0B 00 FC 1F 01 
    87)        48.1  Rx         0021  5  00 00 00 00 00 
    88)        54.4  Rx         0023  5  00 00 00 00 00 
    89)        54.7  Rx         0020  5  0A 00 F5 17 03 
    90)        54.9  Rx         0022  5  0B 00 FB 1F 03 
    91)        55.2  Rx         0021  5  00 00 00 00 00 
    92)        55.6  Rx         0023  5  00 00 00 00 00 
    93)        55.8  Rx         0020  5  0A 00 F5 17 03 
    94)        56.2  Rx         0022  5  0B 00 FB 1F 03 
    95)        56.4  Rx         0021  5  00 00 00 00 00 
    96)        56.8  Rx         0023  5  00 00 00 00 00 
    97)        57.0  Rx         0020  5  0A 00 F5 17 03 
    98)        57.4  Rx         0022  5  0B 00 FB 1F 03 
    99)        57.6  Rx         0021  5  00 00 00 00 00 
   100)        58.1  Rx         0023  5  00 00 00 00 00 
   101)        58.2  Rx         0020  5  0A 00 F5 17 03 
   102)        58.7  Rx         0022  5  0B 00 FB 1F 03 
   103)        58.8  Rx         0021  5  00 00 00 00 00 
   104)        59.3  Rx         0023  5  00 00 00 00 00 
   105)        59.4  Rx         0020  5  0A 00 F5 17 03 
   106)        59.9  Rx         0022  5  0B 00 FB 1F 03 
   107)        60.0  Rx         0021  5  00 00 00 00 00 
   108)        60.5  Rx         0023  5  00 00 00 00 00 
   109)        60.6  Rx         0020  5  0A 00 F5 17 03 
   110)        61.1  Rx         0022  5  0B 00 FB 1F 03 
   111)        61.2  Rx         0021  5  00 00 00 00 00 
   112)        61.7  Rx         0023  5  00 00 00 00 00 
   113)        61.9  Rx         0020  5  0A 00 F5 17 03 
   114)        63.6  Rx         0021  5  00 00 00 00 00 
   115)        64.1  Rx         0020  5  0A 00 F5 17 03 
   116)        64.3  Rx         0026  6  99 0D 60 83 FA 36 
   117)        64.6  Rx         0021  5  00 00 00 00 00 
   118)        64.8  Rx         0022  5  0B 00 FB 1F 03 
   119)        65.2  Rx         0020  5  0A 00 F5 17 03 
   120)        65.4  Rx         0023  5  00 00 00 00 00 
   121)        65.8  Rx         0021  5  00 00 00 00 00 
   122)        66.0  Rx         0022  5  0B 00 FB 1F 03 
   123)        66.4  Rx         0020  5  0A 00 F5 17 03 
   124)        66.6  Rx         0023  5  00 00 00 00 00 
   125)        67.0  Rx         0021  5  00 00 00 00 00 
   126)        67.2  Rx         0022  5  0B 00 FB 1F 01 
   127)        67.6  Rx         0020  5  0A 00 F5 17 03 
   128)        67.8  Rx         0023  5  00 00 00 00 00 
   129)        68.2  Rx         0021  5  00 00 00 00 00 
   130)        68.4  Rx         0022  5  0B 00 FB 1F 01 
   131)        68.8  Rx         0020  5  0A 00 F5 17 03 
   132)        69.0  Rx         0023  5  00 00 00 00 00 
   133)        69.4  Rx         0021  5  00 00 00 00 00 
   134)        69.6  Rx         0022  5  0B 00 FB 1F 01 
   135)        70.0  Rx         0020  5  0A 00 F5 17 03 
   136)        70.2  Rx         0023  5  00 00 00 00 00 
   137)        70.7  Rx         0021  5  00 00 00 00 00 
   138)        70.8  Rx         0022  5  0B 00 FB 1F 01 
   139)        71.3  Rx         0020  5  0A 00 F5 17 03 
   140)        71.4  Rx         0023  5  00 00 00 00 00 
   141)        71.9  Rx         0021  5  00 00 00 00 00 
   142)        72.1  Rx         0022  5  0B 00 FB 1F 01 
   143)        72.4  Rx         0020  5  0A 00 F5 17 03 
   144)        72.7  Rx         0023  5  00 00 00 00 00 
   145)        73.0  Rx         0021  5  00 00 00 00 00 
   146)        77.9  Rx         0021  5  00 00 00 00 00 
   147)        78.1  Rx         0023  5  00 00 00 00 00 
   148)        78.6  Rx         0020  5  0A 00 F5 17 03 
   149)        78.7  Rx         0022  5  0B 00 FA 1F 03 
   150)        83.8  Rx         0021  5  00 00 00 00 00 
   151)        84.0  Rx         0023  5  00 00 00 00 00 
   152)        84.4  Rx         0020  5  0A 00 F5 17 03 
   153)        86.0  Rx         0021  5  00 00 00 00 00 
   154)        93.1  Rx         0021  5  00 00 00 00 00 
   155)        93.3  Rx         0022  5  0B 00 FA 1F 01 
   156)        93.8  Rx         0020  5  0A 00 F5 17 03 
   157)        94.0  Rx         0023  5  00 00 00 00 00 
   158)        96.1  Rx         0020  5  0A 00 F5 17 03 
   159)        97.2  Rx         0020  5  0A 00 F5 17 03 
   160)       104.3  Rx         0020  5  0A 00 F5 17 03 
   161)       104.5  Rx         0022  5  0B 00 F9 1F 03 
   162)       104.9  Rx         0021  5  00 00 00 00 00 
   163)       105.1  Rx         0023  5  00 00 00 00 00 
   164)       107.3  Rx         0021  5  00 00 00 00 00 
   165)       108.3  Rx         0021  5  00 00 00 00 00 
   166)       113.6  Rx         0020  5  0A 00 F5 17 03 
   167)       113.9  Rx         0022  5  0B 00 F9 1F 01 
   168)       114.3  Rx         0021  5  00 00 00 00 00 
   169)       114.5  Rx         0023  5  00 00 00 00 00 
   170)       117.8  Rx         0021  5  00 00 00 00 00 
   171)       118.0  Rx         0023  5  00 00 00 00 00 
   172)       118.5  Rx         0020  5  0A 00 F5 17 03 
   173)       119.7  Rx         0020  5  0A 00 F5 17 03 
   174)       119.8  Rx         0026  6  99 0D 60 83 05 37 
   175)       120.2  Rx         0021  5  00 00 00 00 00 
   176)       120.3  Rx         0022  5  0B 00 F9 1F 01 
   177)       120.8  Rx         0020  5  0A 00 F5 17 03 
   178)       121.0  Rx         0023  5  00 00 00 00 00 
   179)       124.3  Rx         0020  5  0A 00 F5 17 03 
   180)       124.5  Rx         0023  5  00 00 00 00 00 
   181)       127.9  Rx         0020  5  0A 00 F5 17 03 
   182)       128.0  Rx         0023  5  00 00 00 00 00 
   183)       128.5  Rx         0021  5  00 00 00 00 00 
   184)       129.7  Rx         0026  6  99 0D 60 83 05 37 
   185)       129.9  Rx         0021  5  00 00 00 00 00 
   186)       130.2  Rx         0022  5  0B 00 F8 1F 03 
   187)       130.6  Rx         0020  5  0A 00 F5 17 03 
   188)       130.8  Rx         0023  5  00 00 00 00 00 
   189)       132.9  Rx         0020  5  0A 00 F5 17 03 
   190)       133.1  Rx         0023  5  00 00 00 00 00 
   191)       135.3  Rx         0020  5  0A 00 F5 17 03 
   192)       135.5  Rx         0023  5  00 00 00 00 00 
   193)       135.9  Rx         0021  5  00 00 00 00 00 
   194)       136.1  Rx         0022  5  0B 00 F7 1F 03 
   195)       138.3  Rx         0021  5  00 00 00 00 00 
   196)       138.5  Rx         0022  5  0B 00 F7 1F 03 
   197)       138.9  Rx         0020  5  0A 00 F5 17 03 
   198)       139.1  Rx         0023  5  00 00 00 00 00 
   199)       140.1  Rx         0020  5  0A 00 F5 17 03 
   200)       143.0  Rx         0021  5  00 00 00 00 00 
   201)       143.2  Rx         0023  5  00 00 00 00 00 
   202)       145.3  Rx         0021  5  00 00 00 00 00 
   203)       145.5  Rx         0023  5  00 00 00 00 00 
   204)       146.0  Rx         0020  5  0A 00 F5 17 03 
   205)       146.2  Rx         0022  5  0B 00 F7 1F 01 
   206)       148.3  Rx         0020  5  0A 00 F5 17 03 
   207)       148.5  Rx         0022  5  0B 00 F7 1F 01 
   208)       148.9  Rx         0021  5  00 00 00 00 00 
   209)       149.1  Rx         0023  5  00 00 00 00 00 
   210)       151.3  Rx         0021  5  00 00 00 00 00 
   211)       154.8  Rx         0023  5  00 00 00 00 00 
   212)       155.3  Rx         0021  5  00 00 00 00 00 
   213)       155.5  Rx         0022  5  0B 00 F6 1F 03 
   214)       157.6  Rx         0021  5  00 00 00 00 00 
   215)       157.9  Rx         0022  5  0B 00 F6 1F 03 
   216)       158.3  Rx         0020  5  0A 00 F5 17 03 
   217)       158.5  Rx         0023  5  00 00 00 00 00 
   218)       163.0  Rx         0020  5  0A 00 F5 17 03 
   219)       164.1  Rx         0020  5  0A 00 F6 17 01 
   220)       164.6  Rx         0026  6  99 0D 60 83 05 37 
   221)       164.8  Rx         0021  5  00 00 00 00 00 
   222)       165.7  Rx         0023  5  00 00 00 00 00 
   223)       165.9  Rx         0021  5  00 00 00 00 00 
   224)       166.2  Rx         0022  5  0B 00 F5 1F 03 
   225)       166.4  Rx         0020  5  0A 00 F6 17 01 
   226)       166.6  Rx         0023  5  00 00 00 00 00 
   227)       166.9  Rx         0021  5  00 00 00 00 00 
   228)       167.1  Rx         0022  5  0B 00 F5 1F 03 
   229)       167.4  Rx         0020  5  0A 00 F6 17 01 
   230)       167.6  Rx         0023  5  00 00 00 00 00 
   231)       168.1  Rx         0021  5  00 00 00 00 00 
   232)       168.2  Rx         0022  5  0B 00 F5 1F 03 
   233)       168.7  Rx         0020  5  0A 00 F6 17 01 
   234)       168.9  Rx         0023  5  00 00 00 00 00 
   235)       169.3  Rx         0021  5  00 00 00 00 00 
   236)       169.5  Rx         0022  5  0B 00 F5 1F 03 
   237)       169.9  Rx         0020  5  0A 00 F6 17 01 
   238)       170.1  Rx         0023  5  00 00 00 00 00 
   239)       170.5  Rx         0021  5  00 00 00 00 00 
   240)       170.7  Rx         0022  5  0B 00 F5 1F 01 
   241)       171.1  Rx         0020  5  0A 00 F6 17 01 
   242)       171.3  Rx         0023  5  00 00 00 00 00 
   243)       171.7  Rx         0021  5  00 00 00 00 00 
   244)       171.9  Rx         0022  5  0B 00 F5 1F 01 
   245)       172.3  Rx         0020  5  0A 00 F6 17 01 
   246)       172.5  Rx         0023  5  00 00 00 00 00 
   247)       172.9  Rx         0021  5  00 00 00 00 00 
   248)       173.4  Rx         0020  5  0A 00 F6 17 01 
   249)       173.9  Rx         0021  5  00 00 00 00 00 
   250)       174.4  Rx         0020  5  0A 00 F6 17 01 
   251)       174.9  Rx         0021  5  00 00 00 00 00 
   252)       175.1  Rx         0026  6  99 0D 60 83 05 37 
   253)       175.4  Rx         0020  5  0A 00 F6 17 01 
   254)       175.6  Rx         0022  5  0B 00 F5 1F 01 
   255)       176.0  Rx         0021  5  00 00 00 00 00 
   256)       176.1  Rx         0023  5  00 00 00 00 00 
   257)       176.7  Rx         0020  5  0A 00 F6 17 01 
   258)       176.8  Rx         0022  5  0B 00 F4 1F 03 
   259)       177.3  Rx         0021  5  00 00 00 00 00 
   260)       177.5  Rx         0023  5  00 00 00 00 00 
   261)       178.0  Rx         0020  5  0A 00 F6 17 01 
   262)       178.1  Rx         0022  5  0B 00 F4 1F 03 
   263)       178.6  Rx         0021  5  00 00 00 00 00 
   264)       178.8  Rx         0023  5  00 00 00 00 00 
   265)       179.2  Rx         0020  5  0A 00 F6 17 01 
   266)       179.4  Rx         0022  5  0B 00 F4 1F 03 
   267)       179.9  Rx         0021  5  00 00 00 00 00 
   268)       180.1  Rx         0023  5  00 00 00 00 00 
   269)       180.5  Rx         0020  5  0A 00 F6 17 01 
   270)       180.7  Rx         0022  5  0B 00 F4 1F 03 
   271)       181.2  Rx         0021  5  00 00 00 00 00 
   272)       181.4  Rx         0023  5  00 00 00 00 00 
   273)       181.8  Rx         0020  5  0A 00 F6 17 03 
   274)       182.0  Rx         0022  5  0B 00 F4 1F 03 
   275)       182.5  Rx         0021  5  00 00 00 00 00 
   276)       182.7  Rx         0023  5  00 00 00 00 00 
   277)       183.1  Rx         0020  5  0A 00 F6 17 03 
   278)       183.3  Rx         0022  5  0B 00 F4 1F 01 
   279)       183.8  Rx         0021  5  00 00 00 00 00 
   280)       184.0  Rx         0023  5  00 00 00 00 00 
   281)       184.4  Rx         0020  5  0A 00 F6 17 03 
   282)       186.2  Rx         0021  5  00 00 00 00 00 
   283)       196.8  Rx         0021  5  00 00 00 00 00 
   284)       198.6  Rx         0020  5  0A 00 F6 17 03 
   285)       198.7  Rx         0022  5  0B 00 F3 1F 01 
   286)       199.2  Rx         0021  5  00 00 00 00 00 
   287)       199.4  Rx         0023  5  00 00 00 00 00 
   288)       199.9  Rx         0020  5  0A 00 F6 17 03 
   289)       200.1  Rx         0022  5  0B 00 F2 1F 03 
   290)       204.0  Rx         0021  5  00 00 00 00 00 
   291)       204.2  Rx         0023  5  00 00 00 00 00 
   292)       204.6  Rx         0020  5  0A 00 F6 17 03 
   293)       204.8  Rx         0022  5  0B 00 F2 1F 03 
   294)       206.9  Rx         0020  5  0A 00 F7 17 01 
   295)       208.5  Rx         0026  6  99 0D 60 83 10 37 
   296)       208.7  Rx         0021  5  00 00 00 00 00 
   297)       208.9  Rx         0022  5  0B 00 F2 1F 01 
   298)       209.4  Rx         0020  5  0A 00 F7 17 01 
   299)       209.6  Rx         0023  5  00 00 00 00 00 
   300)       210.0  Rx         0021  5  00 00 00 00 00 
   301)       210.2  Rx         0022  5  0B 00 F2 1F 01 
   302)       214.1  Rx         0020  5  0A 00 F7 17 01 
   303)       214.3  Rx         0023  5  00 00 00 00 00 
   304)       214.8  Rx         0021  5  00 00 00 00 00 
   305)       215.0  Rx         0022  5  0B 00 F1 1F 03 
   306)       217.1  Rx         0021  5  00 00 00 00 00 
   307)       218.9  Rx         0020  5  0A 00 F7 17 01 
   308)       219.1  Rx         0022  5  0B 00 F1 1F 03 
   309)       219.5  Rx         0021  5  00 00 00 00 00 
   310)       219.7  Rx         0023  5  00 00 00 00 00 
   311)       223.6  Rx         0020  5  0A 00 F7 17 01 
   312)       223.8  Rx         0022  5  0B 00 F1 1F 01 
   313)       224.2  Rx         0021  5  00 00 00 00 00 
   314)       224.4  Rx         0023  5  00 00 00 00 00 
   315)       226.6  Rx         0021  5  00 00 00 00 00 
   316)       226.8  Rx         0023  5  00 00 00 00 00 
   317)       227.2  Rx         0020  5  0A 00 F7 17 01 
   318)       227.4  Rx         0022  5  0B 00 F1 1F 01 
   319)       229.0  Rx         0021  5  00 00 00 00 00 
   320)       229.5  Rx         0020  5  0A 00 F7 17 01 
   321)       229.8  Rx         0026  6  99 0D 60 83 1C 37 
   322)       230.0  Rx         0021  5  00 00 00 00 00 
   323)       230.3  Rx         0022  5  0B 00 F0 1F 03 
   324)       231.3  Rx         0021  5  00 00 00 00 00 
   325)       231.4  Rx         0022  5  0B 00 F0 1F 03 
   326)       231.7  Rx         0020  5  0A 00 F7 17 01 
   327)       232.0  Rx         0023  5  00 00 00 00 00 
   328)       232.4  Rx         0021  5  00 00 00 00 00 
   329)       232.6  Rx         0022  5  0B 00 F0 1F 03 
   330)       233.0  Rx         0020  5  0A 00 F7 17 01 
   331)       233.2  Rx         0023  5  00 00 00 00 00 
   332)       233.6  Rx         0021  5  00 00 00 00 00 
   333)       233.8  Rx         0022  5  0B 00 F0 1F 03 
   334)       234.2  Rx         0020  5  0A 00 F7 17 01 
   335)       234.4  Rx         0023  5  00 00 00 00 00 
   336)       234.8  Rx         0021  5  00 00 00 00 00 
   337)       235.0  Rx         0022  5  0B 00 F0 1F 03 
   338)       235.4  Rx         0020  5  0A 00 F7 17 01 
   339)       235.6  Rx         0023  5  00 00 00 00 00 
   340)       236.0  Rx         0021  5  00 00 00 00 00 
   341)       236.2  Rx         0022  5  0B 00 F0 1F 03 
   342)       236.6  Rx         0020  5  0A 00 F7 17 01 
   343)       236.8  Rx         0023  5  00 00 00 00 00 
   344)       237.2  Rx         0021  5  00 00 00 00 00 
   345)       237.4  Rx         0022  5  0B 00 F0 1F 01 
   346)       237.8  Rx         0020  5  0A 00 F7 17 01 
   347)       238.0  Rx         0023  5  00 00 00 00 00 
   348)       238.4  Rx         0021  5  00 00 00 00 00 
   349)       238.6  Rx         0022  5  0B 00 F0 1F 01 
   350)       239.0  Rx         0020  5  0A 00 F7 17 03 
   351)       239.2  Rx         0023  5  00 00 00 00 00 
   352)       239.6  Rx         0021  5  00 00 00 00 00 
   353)       241.3  Rx         0020  5  0A 00 F7 17 03 
   354)       241.6  Rx         0022  5  0B 00 F0 1F 01 
   355)       242.0  Rx         0021  5  00 00 00 00 00 
   356)       242.2  Rx         0023  5  00 00 00 00 00 
   357)       242.6  Rx         0020  5  0A 00 F7 17 03 
   358)       242.8  Rx         0022  5  0B 00 F0 1F 01 
   359)       243.2  Rx         0021  5  00 00 00 00 00 
   360)       243.4  Rx         0023  5  00 00 00 00 00 
   361)       243.8  Rx         0020  5  0A 00 F7 17 03 
   362)       244.0  Rx         0022  5  0B 00 F0 1F 01 
   363)       244.4  Rx         0021  5  00 00 00 00 00 
   364)       244.6  Rx         0023  5  00 00 00 00 00 
   365)       245.0  Rx         0020  5  0A 00 F7 17 03 
   366)       245.2  Rx         0022  5  0B 00 F0 1F 01 
   367)       245.6  Rx         0021  5  00 00 00 00 00 
   368)       245.8  Rx         0023  5  00 00 00 00 00 
   369)       246.2  Rx         0020  5  0A 00 F7 17 03 
   370)       246.4  Rx         0022  5  0B 00 F0 1F 01 
   371)       246.8  Rx         0021  5  00 00 00 00 00 
   372)       247.0  Rx         0023  5  00 00 00 00 00 
   373)       247.4  Rx         0020  5  0A 00 F7 17 03 
   374)       247.6  Rx         0022  5  0B 00 F0 1F 01 
   375)       248.0  Rx         0021  5  00 00 00 00 00 
   376)       248.2  Rx         0023  5  00 00 00 00 00 
   377)       248.6  Rx         0020  5  0A 00 F7 17 03 
   378)       248.8  Rx         0022  5  0B 00 F0 1F 01 
   379)       249.2  Rx         0021  5  00 00 00 00 00 
   380)       249.4  Rx         0023  5  00 00 00 00 00 
   381)       249.8  Rx         0020  5  0A 00 F7 17 03 
   382)       250.0  Rx         0022  5  0B 00 F0 1F 01 
   383)       250.4  Rx         0021  5  00 00 00 00 00 
   384)       250.6  Rx         0023  5  00 00 00 00 00 
   385)       251.0  Rx         0020  5  0A 00 F7 17 03 
   386)       255.9  Rx         0020  5  0A 00 F7 17 03 
   387)       256.0  Rx         0023  5  00 00 00 00 00 
   388)       256.5  Rx         0021  5  00 00 00 00 00 
   389)       256.7  Rx         0022  5  0B 00 EF 1F 03 
   390)       261.7  Rx         0020  5  0A 00 F7 17 03 
   391)       262.9  Rx         0020  5  0A 00 F7 17 03 
   392)       263.4  Rx         0026  6  99 0D 60 83 1C 37 
   393)       263.5  Rx         0021  5  00 00 00 00 00 
   394)       266.8  Rx         0023  5  00 00 00 00 00 
   395)       267.3  Rx         0021  5  00 00 00 00 00 
   396)       267.5  Rx         0022  5  0B 00 EF 1F 01 
   397)       273.8  Rx         0020  5  0A 00 F7 17 03 
   398)       274.3  Rx         0021  5  00 00 00 00 00 
   399)       276.0  Rx         0020  5  0A 00 F7 17 03 
   400)       276.2  Rx         0022  5  0B 00 EF 1F 01 
   401)       276.7  Rx         0021  5  00 00 00 00 00 
   402)       276.9  Rx         0023  5  00 00 00 00 00 
   403)       277.3  Rx         0020  5  0A 00 F7 17 03 
   404)       277.5  Rx         0022  5  0B 00 EF 1F 01 
   405)       284.4  Rx         0020  5  0A 00 F7 17 03 
   406)       286.1  Rx         0021  5  00 00 00 00 00 
   407)       289.7  Rx         0021  5  00 00 00 00 00 
   408)       289.8  Rx         0022  5  0B 00 EE 1F 03 
   409)       294.9  Rx         0020  5  0A 00 F7 17 03 
   410)       295.1  Rx         0023  5  00 00 00 00 00 
   411)       295.5  Rx         0021  5  00 00 00 00 00 
   412)       295.7  Rx         0022  5  0B 00 EE 1F 03 
   413)       297.3  Rx         0020  5  0A 00 F7 17 03 
   414)       298.2  Rx         0026  6  99 0D 6B 83 1C 37 
   415)       298.7  Rx         0020  5  0A 00 F7 17 03 
   416)       298.8  Rx         0022  5  0B 00 EE 1F 03 
   417)       299.2  Rx         0021  5  00 00 00 00 00 
   418)       299.4  Rx         0023  5  00 00 00 00 00 
   419)       303.9  Rx         0021  5  00 00 00 00 00 
   420)       304.1  Rx         0023  5  00 00 00 00 00 
   421)       304.5  Rx         0020  5  0A 00 F7 17 03 
   422)       304.7  Rx         0022  5  0B 00 EE 1F 01 
   423)       308.0  Rx         0020  5  0A 00 F7 17 03 
   424)       313.3  Rx         0021  5  00 00 00 00 00 
   425)       313.5  Rx         0023  5  00 00 00 00 00 
   426)       316.8  Rx         0021  5  00 00 00 00 00 
   427)       317.0  Rx         0023  5  00 00 00 00 00 
   428)       317.4  Rx         0020  5  0A 00 F7 17 03 
   429)       317.6  Rx         0022  5  0B 00 EE 1F 01 
   430)       319.7  Rx         0020  5  0A 00 F7 17 03 
   431)       324.9  Rx         0021  5  00 00 00 00 00 
   432)       325.1  Rx         0023  5  00 00 00 00 00 
   433)       325.6  Rx         0020  5  0A 00 F7 17 03 
   434)       325.7  Rx         0022  5  0B 00 ED 1F 03 
   435)       327.9  Rx         0020  5  0A 00 F7 17 03 
   436)       328.1  Rx         0022  5  0B 00 ED 1F 03 
   437)       328.5  Rx         0021  5  00 00 00 00 00 
   438)       328.7  Rx         0023  5  00 00 00 00 00 
   439)       330.8  Rx         0021  5  00 00 00 00 00 
   440)       331.9  Rx         0026  6  99 0D 6B 83 1C 37 
   441)       332.1  Rx         0021  5  00 00 00 00 00 
   442)       333.6  Rx         0022  5  0B 00 ED 1F 03 
   443)       333.8  Rx         0020  5  0A 00 F7 17 03 
   444)       334.3  Rx         0023  5  00 00 00 00 00 
   445)       334.4  Rx         0021  5  00 00 00 00 00 
   446)       334.9  Rx         0022  5  0B 00 ED 1F 01 
   447)       335.1  Rx         0020  5  0A 00 F7 17 03 
   448)       337.2  Rx         0022  5  0B 00 ED 1F 01 
   449)       337.6  Rx         0020  5  0A 00 F7 17 03 
   450)       337.8  Rx         0023  5  00 00 00 00 00 
   451)       340.0  Rx         0020  5  0A 00 F7 17 03 
   452)       340.2  Rx         0023  5  00 00 00 00 00 
   453)       341.2  Rx         0020  5  0A 00 F7 17 03 
   454)       343.8  Rx         0023  5  00 00 00 00 00 
   455)       344.0  Rx         0021  5  00 00 00 00 00 
   456)       344.5  Rx         0022  5  0B 00 EC 1F 03 
   457)       344.6  Rx         0020  5  0A 00 F7 17 03 
   458)       346.7  Rx         0022  5  0B 00 EC 1F 03 
   459)       347.2  Rx         0020  5  0A 00 F7 17 03 
   460)       347.4  Rx         0023  5  00 00 00 00 00 
   461)       349.6  Rx         0020  5  0A 00 F7 17 03 
   462)       349.8  Rx         0023  5  00 00 00 00 00 
   463)       353.1  Rx         0020  5  0A 00 F7 17 03 
   464)       353.6  Rx         0021  5  00 00 00 00 00 
   465)       354.7  Rx         0026  6  99 0D 6B 83 1C 37 
   466)       354.9  Rx         0021  5  00 00 00 00 00 
   467)       355.1  Rx         0022  5  0B 00 EC 1F 03 
   468)       355.4  Rx         0020  5  0A 00 F7 17 03 
   469)       355.6  Rx         0023  5  00 00 00 00 00 
   470)       355.9  Rx         0021  5  00 00 00 00 00 
   471)       356.1  Rx         0022  5  0B 00 EC 1F 03 
   472)       356.4  Rx         0020  5  0A 00 F7 17 03 
   473)       356.6  Rx         0023  5  00 00 00 00 00 
   474)       357.0  Rx         0021  5  00 00 00 00 00 
   475)       357.2  Rx         0022  5  0B 00 EC 1F 03 
   476)       357.6  Rx         0020  5  0A 00 F7 17 03 
   477)       357.8  Rx         0023  5  00 00 00 00 00 
   478)       358.2  Rx         0021  5  00 00 00 00 00 
   479)       358.4  Rx         0022  5  0B 00 EC 1F 03 
   480)       358.8  Rx         0020  5  0A 00 F7 17 03 
   481)       359.0  Rx         0023  5  00 00 00 00 00 
   482)       359.4  Rx         0021  5  00 00 00 00 00 
   483)       359.6  Rx         0022  5  0B 00 EC 1F 03 
   484)       360.0  Rx         0020  5  0A 00 F7 17 01 
   485)       360.2  Rx         0023  5  00 00 00 00 00 
   486)       360.6  Rx         0021  5  00 00 00 00 00 
   487)       360.7  Rx         0022  5  0B 00 EC 1F 03 
   488)       361.0  Rx         0020  5  0A 00 F7 17 01 
   489)       361.2  Rx         0023  5  00 00 00 00 00 
   490)       361.6  Rx         0021  5  00 00 00 00 00 
   491)       361.7  Rx         0022  5  0B 00 EC 1F 01 
   492)       362.0  Rx         0020  5  0A 00 F7 17 01 
   493)       362.3  Rx         0023  5  00 00 00 00 00 
   494)       362.6  Rx         0021  5  00 00 00 00 00 
   495)       362.8  Rx         0022  5  0B 00 EC 1F 01 
   496)       363.1  Rx         0020  5  0A 00 F7 17 01 
   497)       363.3  Rx         0023  5  00 00 00 00 00 
   498)       363.6  Rx         0021  5  00 00 00 00 00 
   499)       364.1  Rx         0020  5  0A 00 F7 17 01 
   500)       364.7  Rx         0021  5  00 00 00 00 00 
   501)       365.5  Rx         0020  5  0A 00 F7 17 01 
   502)       368.7  Rx         0022  5  0B 00 EB 1F 03 
   503)       369.0  Rx         0020  5  0A 00 F7 17 01 
   504)       369.5  Rx         0023  5  00 00 00 00 00 
   505)       369.6  Rx         0021  5  00 00 00 00 00 
   506)       370.1  Rx         0022  5  0B 00 EB 1F 03 
   507)       370.3  Rx         0020  5  0A 00 F7 17 01 
   508)       370.7  Rx         0023  5  00 00 00 00 00 
   509)       370.9  Rx         0021  5  00 00 00 00 00 
   510)       371.4  Rx         0022  5  0B 00 EB 1F 03 
   511)       371.6  Rx         0020  5  0A 00 F7 17 01 
   512)       371.9  Rx         0023  5  00 00 00 00 00 
   513)       372.1  Rx         0021  5  00 00 00 00 00 
   514)       372.5  Rx         0022  5  0B 00 EB 1F 03 
   515)       372.7  Rx         0020  5  0A 00 F7 17 01 
   516)       373.1  Rx         0023  5  00 00 00 00 00 
   517)       373.3  Rx         0021  5  00 00 00 00 00 
   518)       373.7  Rx         0022  5  0B 00 EB 1F 03 
   519)       373.9  Rx         0020  5  0A 00 F7 17 01 
   520)       384.5  Rx         0020  5  0A 00 F7 17 01 
   521)       386.2  Rx         0021  5  00 00 00 00 00 
   522)       389.8  Rx         0021  5  00 00 00 00 00 
   523)       390.0  Rx         0022  5  0B 00 EB 1F 01 
   524)       395.1  Rx         0020  5  0A 00 F6 17 03 
   525)       395.3  Rx         0023  5  00 00 00 00 00 
   526)       395.8  Rx         0021  5  00 00 00 00 00 
   527)       395.9  Rx         0022  5  0B 00 EB 1F 01 
   528)       397.5  Rx         0020  5  0A 00 F6 17 03 
   529)       399.3  Rx         0021  5  00 00 00 00 00 
   530)       399.5  Rx         0023  5  00 00 00 00 00 
   531)       404.6  Rx         0020  5  0A 00 F6 17 03 
   532)       404.8  Rx         0022  5  0B 00 EA 1F 03 
   533)       405.2  Rx         0021  5  00 00 00 00 00 
   534)       405.4  Rx         0023  5  00 00 00 00 00 
   535)       407.5  Rx         0021  5  00 00 00 00 00 
   536)       407.8  Rx         0023  5  00 00 00 00 00 
   537)       408.2  Rx         0020  5  0A 00 F6 17 03 
   538)       409.9  Rx         0022  5  0B 00 EA 1F 03 
   539)       410.4  Rx         0021  5  00 00 00 00 00 
   540)       410.5  Rx         0023  5  00 00 00 00 00 
   541)       414.4  Rx         0020  5  0A 00 F6 17 01 
   542)       414.6  Rx         0022  5  0B 00 EA 1F 01 
   543)       415.1  Rx         0021  5  00 00 00 00 00 
   544)       415.3  Rx         0023  5  00 00 00 00 00 
   545)       417.4  Rx         0021  5  00 00 00 00 00 
   546)       417.6  Rx         0023  5  00 00 00 00 00 
   547)       418.0  Rx         0020  5  0A 00 F6 17 01 
   548)       418.2  Rx         0022  5  0B 00 EA 1F 01 
   549)       420.3  Rx         0020  5  0A 00 F6 17 01 
   550)       420.6  Rx         0026  6  8E 0D 6B 83 10 37 
   551)       424.4  Rx         0021  5  00 00 00 00 00 
   552)       424.6  Rx         0022  5  0B 00 EA 1F 01 
   553)       425.0  Rx         0020  5  0A 00 F5 17 03 
   554)       425.3  Rx         0023  5  00 00 00 00 00 
   555)       427.4  Rx         0020  5  0A 00 F5 17 03 
   556)       427.6  Rx         0023  5  00 00 00 00 00 
   557)       428.0  Rx         0021  5  00 00 00 00 00 
   558)       428.2  Rx         0022  5  0B 00 E9 1F 03 
   559)       430.4  Rx         0021  5  00 00 00 00 00 
   560)       431.6  Rx         0021  5  00 00 00 00 00 
   561)       432.1  Rx         0020  5  0A 00 F5 17 03 
   562)       432.6  Rx         0026  6  8E 0D 6B 83 10 37 
   563)       432.8  Rx         0021  5  00 00 00 00 00 
   564)       434.9  Rx         0023  5  00 00 00 00 00 
   565)       435.1  Rx         0021  5  00 00 00 00 00 
   566)       435.5  Rx         0022  5  0B 00 E9 1F 03 
   567)       435.7  Rx         0020  5  0A 00 F5 17 03 
   568)       437.8  Rx         0022  5  0B 00 E9 1F 03 
   569)       438.1  Rx         0020  5  0A 00 F5 17 03 
   570)       438.5  Rx         0023  5  00 00 00 00 00 
   571)       438.7  Rx         0021  5  00 00 00 00 00 
   572)       439.2  Rx         0022  5  0B 00 E9 1F 03 
   573)       439.3  Rx         0020  5  0A 00 F5 17 03 
   574)       439.8  Rx         0023  5  00 00 00 00 00 
   575)       439.9  Rx         0021  5  00 00 00 00 00 
   576)       440.4  Rx         0022  5  0B 00 E9 1F 03 
   577)       440.5  Rx         0020  5  0A 00 F5 17 03 
   578)       441.0  Rx         0023  5  00 00 00 00 00 
   579)       441.2  Rx         0021  5  00 00 00 00 00 
   580)       441.6  Rx         0022  5  0B 00 E9 1F 03 
   581)       441.8  Rx         0020  5  0A 00 F5 17 03 
   582)       442.2  Rx         0023  5  00 00 00 00 00 
   583)       442.4  Rx         0021  5  00 00 00 00 00 
   584)       443.0  Rx         0020  5  0A 00 F5 17 03 
   585)       444.1  Rx         0020  5  0A 00 F5 17 01 
   586)       444.6  Rx         0021  5  00 00 00 00 00 
   587)       444.8  Rx         0026  6  8E 0D 6B 83 10 37 
   588)       445.1  Rx         0020  5  0A 00 F5 17 01 
   589)       445.3  Rx         0022  5  0B 00 E9 1F 03 
   590)       445.8  Rx         0021  5  00 00 00 00 00 
   591)       446.0  Rx         0023  5  00 00 00 00 00 
   592)       446.4  Rx         0020  5  0A 00 F5 17 01 
   593)       446.6  Rx         0022  5  0B 00 E9 1F 03 
   594)       447.0  Rx         0021  5  00 00 00 00 00 
   595)       447.2  Rx         0023  5  00 00 00 00 00 
   596)       447.7  Rx         0020  5  0A 00 F5 17 01 
   597)       447.8  Rx         0022  5  0B 00 E9 1F 03 
   598)       448.3  Rx         0021  5  00 00 00 00 00 
   599)       448.4  Rx         0023  5  00 00 00 00 00 
   600)       448.9  Rx         0020  5  0A 00 F5 17 01 
   601)       449.1  Rx         0022  5  0B 00 E9 1F 03 
   602)       449.5  Rx         0021  5  00 00 00 00 00 
   603)       449.7  Rx         0023  5  00 00 00 00 00 
   604)       450.1  Rx         0020  5  0A 00 F5 17 01 
   605)       450.3  Rx         0022  5  0B 00 E9 1F 03 
   606)       450.7  Rx         0021  5  00 00 00 00 00 
   607)       450.9  Rx         0023  5  00 00 00 00 00 
   608)       451.3  Rx         0020  5  0A 00 F5 17 01 
   609)       451.5  Rx         0022  5  0B 00 E9 1F 01 
   610)       451.9  Rx         0021  5  00 00 00 00 00 
   611)       452.1  Rx         0023  5  00 00 00 00 00 
   612)       452.5  Rx         0020  5  0A 00 F5 17 01 
   613)       452.7  Rx         0022  5  0B 00 E9 1F 01 
   614)       453.1  Rx         0021  5  00 00 00 00 00 
   615)       453.3  Rx         0023  5  00 00 00 00 00 
   616)       453.7  Rx         0020  5  0A 00 F5 17 01 
   617)       455.5  Rx         0021  5  00 00 00 00 00 
   618)       455.8  Rx         0026  6  8E 0D 6B 83 10 37 
   619)       455.9  Rx         0020  5  0A 00 F5 17 01 
   620)       456.4  Rx         0022  5  0B 00 E9 1F 01 
   621)       456.6  Rx         0021  5  00 00 00 00 00 
   622)       466.7  Rx         0026  6  8E 0D 6B 83 10 37 
   623)       466.9  Rx         0020  5  0A 00 F4 17 03 
   624)       467.3  Rx         0022  5  0B 00 E8 1F 03 
   625)       467.5  Rx         0021  5  00 00 00 00 00 
   626)       467.9  Rx         0023  5  00 00 00 00 00 
   627)       468.1  Rx         0020  5  0A 00 F4 17 03 
   628)       468.6  Rx         0022  5  0B 00 E8 1F 03 
   629)       468.8  Rx         0021  5  00 00 00 00 00 
   630)       475.8  Rx         0021  5  00 00 00 00 00 
   631)       477.3  Rx         0026  6  8E 0D 6B 83 10 37 
   632)       477.6  Rx         0020  5  0A 00 F4 17 01 
   633)       477.8  Rx         0022  5  0B 00 E8 1F 03 
   634)       478.2  Rx         0021  5  00 00 00 00 00 
   635)       478.4  Rx         0023  5  00 00 00 00 00 
   636)       478.9  Rx         0020  5  0A 00 F4 17 01 
   637)       479.0  Rx         0022  5  0B 00 E8 1F 03 
   638)       484.2  Rx         0021  5  00 00 00 00 00 
   639)       484.3  Rx         0023  5  00 00 00 00 00 
   640)       484.8  Rx         0020  5  0A 00 F4 17 01 
   641)       485.0  Rx         0022  5  0B 00 E8 1F 03 
   642)       487.7  Rx         0021  5  00 00 00 00 00 
   643)       488.3  Rx         0020  5  0A 00 F4 17 01 
   644)       495.1  Rx         0022  5  0B 00 E8 1F 03 
   645)       495.4  Rx         0020  5  0A 00 F4 17 01 
   646)       495.8  Rx         0023  5  00 00 00 00 00 
   647)       496.0  Rx         0021  5  00 00 00 00 00 
   648)       499.0  Rx         0020  5  0A 00 F4 17 01 
   649)       499.5  Rx         0021  5  00 00 00 00 00 
   650)       499.7  Rx         0026  6  82 0D 76 83 05 37 
   651)       504.8  Rx         0020  5  0A 00 F4 17 01 
   652)       505.0  Rx         0022  5  0B 00 E8 1F 01 
   653)       505.4  Rx         0021  5  00 00 00 00 00 
   654)       505.6  Rx         0023  5  00 00 00 00 00 
   655)       508.9  Rx         0021  5  00 00 00 00 00 
   656)       509.1  Rx         0023  5  00 00 00 00 00 
   657)       509.5  Rx         0020  5  0A 00 F3 17 03 
   658)       510.8  Rx         0020  5  0A 00 F3 17 03 
   659)       511.0  Rx         0026  6  82 0D 76 83 05 37 
   660)       511.3  Rx         0021  5  00 00 00 00 00 
   661)       511.7  Rx         0022  5  0B 00 E8 1F 01 
   662)       511.9  Rx         0020  5  0A 00 F3 17 03 
   663)       515.2  Rx         0022  5  0B 00 E8 1F 01 
   664)       515.4  Rx         0020  5  0A 00 F3 17 03 
   665)       515.9  Rx         0023  5  00 00 00 00 00 
   666)       516.1  Rx         0021  5  00 00 00 00 00 
   667)       518.2  Rx         0023  5  00 00 00 00 00 
   668)       518.4  Rx         0021  5  00 00 00 00 00 
   669)       518.8  Rx         0022  5  0B 00 E8 1F 01 
   670)       519.0  Rx         0020  5  0A 00 F3 17 03 
   671)       520.2  Rx         0020  5  0A 00 F3 17 03 
   672)       524.6  Rx         0023  5  00 00 00 00 00 
   673)       525.1  Rx         0020  5  0A 00 F3 17 01 
   674)       525.3  Rx         0022  5  0B 00 E8 1F 01 
   675)       527.4  Rx         0020  5  0A 00 F3 17 01 
   676)       527.6  Rx         0022  5  0B 00 E8 1F 01 
   677)       528.1  Rx         0021  5  00 00 00 00 00 
   678)       528.2  Rx         0023  5  00 00 00 00 00 
   679)       530.4  Rx         0021  5  00 00 00 00 00 
   680)       530.6  Rx         0023  5  00 00 00 00 00 
   681)       531.5  Rx         0021  5  00 00 00 00 00 
   682)       534.2  Rx         0023  5  00 00 00 00 00 
   683)       534.6  Rx         0020  5  0A 00 F3 17 01 
   684)       534.8  Rx         0022  5  0B 00 E8 1F 01 
   685)       536.9  Rx         0020  5  0A 00 F3 17 01 
   686)       537.1  Rx         0022  5  0B 00 E8 1F 01 
   687)       537.6  Rx         0021  5  00 00 00 00 00 
   688)       537.8  Rx         0023  5  00 00 00 00 00 
   689)       539.9  Rx         0021  5  00 00 00 00 00 
   690)       540.1  Rx         0023  5  00 00 00 00 00 
   691)       540.6  Rx         0020  5  0A 00 F3 17 01 
   692)       540.7  Rx         0022  5  0B 00 E8 1F 01 
   693)       543.5  Rx         0021  5  00 00 00 00 00 
   694)       544.6  Rx         0021  5  00 00 00 00 00 
   695)       545.1  Rx         0026  6  82 0D 76 83 05 37 
   696)       545.3  Rx         0020  5  0A 00 F3 17 01 
   697)       547.4  Rx         0023  5  00 00 00 00 00 
   698)       547.6  Rx         0020  5  0A 00 F3 17 01 
   699)       548.0  Rx         0022  5  0B 00 E8 1F 01 
   700)       548.3  Rx         0021  5  00 00 00 00 00 
   701)       549.2  Rx         0022  5  0B 00 E8 1F 01 
   702)       549.4  Rx         0021  5  00 00 00 00 00 
   703)       549.7  Rx         0023  5  00 00 00 00 00 
   704)       549.9  Rx         0020  5  0A 00 F3 17 01 
   705)       550.1  Rx         0022  5  0B 00 E8 1F 01 
   706)       550.4  Rx         0021  5  00 00 00 00 00 
   707)       550.6  Rx         0023  5  00 00 00 00 00 
   708)       551.0  Rx         0020  5  0A 00 F3 17 01 
   709)       551.2  Rx         0022  5  0B 00 E8 1F 01 
   710)       551.6  Rx         0021  5  00 00 00 00 00 
   711)       551.8  Rx         0023  5  00 00 00 00 00 
   712)       552.2  Rx         0020  5  0A 00 F3 17 01 
   713)       552.4  Rx         0022  5  0B 00 E8 1F 01 
   714)       552.8  Rx         0021  5  00 00 00 00 00 
   715)       553.0  Rx         0023  5  00 00 00 00 00 
   716)       553.4  Rx         0020  5  0A 00 F3 17 01 
   717)       554.5  Rx         0020  5  0A 00 F3 17 01 
   718)       555.0  Rx         0021  5  00 00 00 00 00 
   719)       555.5  Rx         0026  6  82 0D 76 83 05 37 
   720)       555.7  Rx         0020  5  0A 00 F3 17 01 
   721)       556.0  Rx         0022  5  0B 00 E8 1F 01 
   722)       556.2  Rx         0021  5  00 00 00 00 00 
   723)       556.5  Rx         0023  5  00 00 00 00 00 
   724)       556.7  Rx         0020  5  0A 00 F3 17 01 
   725)       557.1  Rx         0022  5  0B 00 E8 1F 01 
   726)       557.3  Rx         0021  5  00 00 00 00 00 
   727)       557.7  Rx         0023  5  00 00 00 00 00 
   728)       557.9  Rx         0020  5  0A 00 F3 17 01 
   729)       558.3  Rx         0022  5  0B 00 E8 1F 01 
   730)       558.5  Rx         0021  5  00 00 00 00 00 
   731)       558.9  Rx         0023  5  00 00 00 00 00 
   732)       559.1  Rx         0020  5  0A 00 F3 17 01 
   733)       559.5  Rx         0022  5  0B 00 E8 1F 01 
   734)       559.7  Rx         0021  5  00 00 00 00 00 
   735)       560.1  Rx         0023  5  00 00 00 00 00 
   736)       560.3  Rx         0020  5  0A 00 F3 17 01 
   737)       560.7  Rx         0022  5  0B 00 E8 1F 01 
   738)       560.9  Rx         0021  5  00 00 00 00 00 
   739)       561.2  Rx         0023  5  00 00 00 00 00 
   740)       561.4  Rx         0020  5  0A 00 F3 17 01 
   741)       561.7  Rx         0022  5  0B 00 E8 1F 01 
   742)       561.9  Rx         0021  5  00 00 00 00 00 
   743)       562.4  Rx         0023  5  00 00 00 00 00 
   744)       562.6  Rx         0020  5  0A 00 F3 17 01 
   745)       563.0  Rx         0022  5  0B 00 E8 1F 01 
   746)       563.2  Rx         0021  5  00 00 00 00 00 
   747)       563.7  Rx         0023  5  00 00 00 00 00 
   748)       563.8  Rx         0020  5  0A 00 F3 17 01 
   749)       564.3  Rx         0022  5  0B 00 E8 1F 01 
   750)       564.5  Rx         0021  5  00 00 00 00 00 
   751)       564.9  Rx         0023  5  00 00 00 00 00 
   752)       565.2  Rx         0020  5  0A 00 F3 17 01 
   753)       567.5  Rx         0020  5  0A 00 F3 17 01 
   754)       567.7  Rx         0022  5  0B 00 E8 1F 01 
   755)       568.1  Rx         0021  5  00 00 00 00 00 
   756)       568.4  Rx         0023  5  00 00 00 00 00 
   757)       568.8  Rx         0020  5  0A 00 F3 17 01 
   758)       569.0  Rx         0022  5  0B 00 E8 1F 01 
   759)       569.4  Rx         0021  5  00 00 00 00 00 
   760)       569.6  Rx         0023  5  00 00 00 00 00 
   761)       570.1  Rx         0020  5  0A 00 F3 17 01 
   762)       570.3  Rx         0022  5  0B 00 E8 1F 01 
   763)       570.7  Rx         0021  5  00 00 00 00 00 
   764)       570.8  Rx         0023  5  00 00 00 00 00 
   765)       571.3  Rx         0020  5  0A 00 F3 17 01 
   766)       571.4  Rx         0022  5  0B 00 E8 1F 01 
   767)       571.9  Rx         0021  5  00 00 00 00 00 
   768)       572.0  Rx         0023  5  00 00 00 00 00 
   769)       572.4  Rx         0020  5  0A 00 F3 17 01 
   770)       572.6  Rx         0022  5  0B 00 E8 1F 01 
   771)       573.1  Rx         0021  5  00 00 00 00 00 
   772)       573.3  Rx         0023  5  00 00 00 00 00 
   773)       573.7  Rx         0020  5  0A 00 F3 17 01 
   774)       573.9  Rx         0022  5  0B 00 E8 1F 01 
   775)       574.3  Rx         0021  5  00 00 00 00 00 
   776)       574.5  Rx         0023  5  00 00 00 00 00 
   777)       575.0  Rx         0020  5  0A 00 F3 17 01 
   778)       575.1  Rx         0022  5  0B 00 E8 1F 01 
   779)       575.6  Rx         0021  5  00 00 00 00 00 
   780)       575.8  Rx         0023  5  00 00 00 00 00 
   781)       576.3  Rx         0020  5  0A 00 F3 17 01 
   782)       576.4  Rx         0022  5  0B 00 E8 1F 01 
   783)       576.9  Rx         0021  5  00 00 00 00 00 
   784)       577.1  Rx         0023  5  00 00 00 00 00 
   785)       577.5  Rx         0020  5  0A 00 F3 17 01 
   786)       580.9  Rx         0022  5  0B 00 E8 1F 01 
   787)       581.4  Rx         0020  5  0A 00 F3 17 01 
   788)       581.5  Rx         0023  5  00 00 00 00 00 
   789)       582.0  Rx         0021  5  00 00 00 00 00 
   790)       582.2  Rx         0022  5  0B 00 E8 1F 01 
   791)       582.6  Rx         0020  5  0A 00 F3 17 01 
   792)       582.8  Rx         0023  5  00 00 00 00 00 
   793)       583.3  Rx         0021  5  00 00 00 00 00 
   794)       583.5  Rx         0022  5  0B 00 E8 1F 01 
   795)       583.9  Rx         0020  5  0A 00 F3 17 01 
   796)       584.0  Rx         0023  5  00 00 00 00 00 
   797)       590.7  Rx         0023  5  00 00 00 00 00 
   798)       591.1  Rx         0020  5  0A 00 F2 17 03 
   799)       591.3  Rx         0022  5  0B 00 E8 1F 01 
   800)       595.2  Rx         0021  5  00 00 00 00 00 
   801)       595.4  Rx         0023  5  00 00 00 00 00 
   802)       595.8  Rx         0020  5  0A 00 F2 17 03 
   803)       596.0  Rx         0022  5  0B 00 E8 1F 01 
   804)       598.2  Rx         0020  5  0A 00 F2 17 03 
   805)       600.0  Rx         0021  5  00 00 00 00 00 
   806)       600.2  Rx         0022  5  0B 00 E8 1F 01 
   807)       600.6  Rx         0020  5  0A 00 F2 17 03 
   808)       600.8  Rx         0023  5  00 00 00 00 00 
   809)       604.7  Rx         0021  5  00 00 00 00 00 
   810)       604.9  Rx         0022  5  0B 00 E8 1F 01 
   811)       605.3  Rx         0020  5  0A 00 F2 17 03 
   812)       605.5  Rx         0023  5  00 00 00 00 00 
   813)       606.0  Rx         0021  5  00 00 00 00 00 
   814)       606.1  Rx         0022  5  0B 00 E8 1F 01 
   815)       606.6  Rx         0020  5  0A 00 F2 17 03 
   816)       606.7  Rx         0023  5  00 00 00 00 00 
   817)       607.2  Rx         0021  5  00 00 00 00 00 
   818)       607.4  Rx         0022  5  0B 00 E8 1F 01 
   819)       607.8  Rx         0020  5  0A 00 F2 17 01 
   820)       608.0  Rx         0023  5  00 00 00 00 00 
   821)       608.4  Rx         0021  5  00 00 00 00 00 
   822)       608.6  Rx         0022  5  0B 00 E8 1F 01 
   823)       609.0  Rx         0020  5  0A 00 F2 17 01 
   824)       609.2  Rx         0023  5  00 00 00 00 00 
   825)       609.6  Rx         0021  5  00 00 00 00 00 
   826)       610.7  Rx         0021  5  00 00 00 00 00 
   827)       611.2  Rx         0020  5  0A 00 F2 17 01 
   828)       611.5  Rx         0026  6  82 0D 76 83 05 37 
   829)       611.9  Rx         0021  5  00 00 00 00 00 
   830)       612.1  Rx         0022  5  0B 00 E8 1F 01 
   831)       612.5  Rx         0020  5  0A 00 F2 17 01 
   832)       612.7  Rx         0023  5  00 00 00 00 00 
   833)       613.1  Rx         0021  5  00 00 00 00 00 
   834)       613.3  Rx         0022  5  0B 00 E8 1F 01 
   835)       613.7  Rx         0020  5  0A 00 F2 17 01 
   836)       613.9  Rx         0023  5  00 00 00 00 00 
   837)       614.3  Rx         0021  5  00 00 00 00 00 
   838)       614.5  Rx         0022  5  0B 00 E8 1F 01 
   839)       615.0  Rx         0020  5  0A 00 F2 17 01 
   840)       615.1  Rx         0023  5  00 00 00 00 00 
   841)       615.6  Rx         0021  5  00 00 00 00 00 
   842)       615.7  Rx         0022  5  0B 00 E8 1F 01 
   843)       616.2  Rx         0020  5  0A 00 F2 17 01 
   844)       616.3  Rx         0023  5  00 00 00 00 00 
   845)       616.8  Rx         0021  5  00 00 00 00 00 
   846)       616.9  Rx         0022  5  0B 00 E8 1F 01 
   847)       617.4  Rx         0020  5  0A 00 F2 17 01 
   848)       617.6  Rx         0023  5  00 00 00 00 00 
   849)       618.0  Rx         0021  5  00 00 00 00 00 
   850)       618.1  Rx         0022  5  0B 00 E8 1F 01 
   851)       618.6  Rx         0020  5  0A 00 F2 17 01 
   852)       618.7  Rx         0023  5  00 00 00 00 00 
   853)       619.2  Rx         0021  5  00 00 00 00 00 
   854)       619.4  Rx         0022  5  0B 00 E8 1F 01 
   855)       619.7  Rx         0020  5  0A 00 F2 17 01 
   856)       620.0  Rx         0023  5  00 00 00 00 00 
   857)       620.3  Rx         0021  5  00 00 00 00 00 
   858)       620.6  Rx         0022  5  0B 00 E8 1F 01 
   859)       620.9  Rx         0020  5  0A 00 F2 17 01 
   860)       621.2  Rx         0023  5  00 00 00 00 00 
   861)       621.6  Rx         0021  5  00 00 00 00 00 
   862)       623.3  Rx         0020  5  0A 00 F2 17 01 
   863)       623.7  Rx         0026  6  82 0D 76 83 05 37 
   864)       623.8  Rx         0021  5  00 00 00 00 00 
   865)       624.1  Rx         0022  5  0B 00 E8 1F 01 
   866)       624.4  Rx         0020  5  0A 00 F2 17 01 
   867)       624.8  Rx         0023  5  00 00 00 00 00 
   868)       625.0  Rx         0021  5  00 00 00 00 00 
   869)       625.5  Rx         0022  5  0B 00 E8 1F 01 
   870)       625.6  Rx         0020  5  0A 00 F2 17 01 
   871)       635.7  Rx         0026  6  82 0D 76 83 05 37 
   872)       635.9  Rx         0021  5  00 00 00 00 00 
   873)       636.4  Rx         0022  5  0B 00 E8 1F 01 
   874)       636.5  Rx         0020  5  0A 00 F2 17 01 
   875)       639.8  Rx         0022  5  0B 00 E8 1F 01 
   876)       640.3  Rx         0020  5  0A 00 F1 17 03 
   877)       640.5  Rx         0023  5  00 00 00 00 00 
   878)       643.8  Rx         0020  5  0A 00 F1 17 03 
   879)       645.0  Rx         0020  5  0A 00 F1 17 03 
   880)       645.4  Rx         0026  6  82 0D 76 83 05 37 
   881)       645.6  Rx         0021  5  00 00 00 00 00 
   882)       646.0  Rx         0022  5  0B 00 E8 1F 01 
   883)       646.2  Rx         0020  5  0A 00 F1 17 03 
   884)       649.5  Rx         0022  5  0B 00 E8 1F 01 
   885)       649.7  Rx         0020  5  0A 00 F1 17 03 
   886)       650.1  Rx         0023  5  00 00 00 00 00 
   887)       650.4  Rx         0021  5  00 00 00 00 00 
   888)       656.9  Rx         0026  6  82 0D 76 83 05 37 
   889)       657.1  Rx         0020  5  0A 00 F1 17 03 
   890)       657.5  Rx         0022  5  0B 00 E8 1F 01 
   891)       657.7  Rx         0021  5  00 00 00 00 00 
   892)       658.2  Rx         0023  5  00 00 00 00 00 
   893)       658.3  Rx         0020  5  0A 00 F1 17 03 
   894)       658.8  Rx         0022  5  0B 00 E8 1F 01 
   895)       659.0  Rx         0021  5  00 00 00 00 00 
   896)       665.8  Rx         0021  5  00 00 00 00 00 
   897)       666.0  Rx         0022  5  0B 00 E8 1F 01 
   898)       666.4  Rx         0020  5  0A 00 F1 17 03 
   899)       666.6  Rx         0023  5  00 00 00 00 00 
   900)       668.2  Rx         0021  5  00 00 00 00 00 
   901)       669.8  Rx         0023  5  00 00 00 00 00 
   902)       670.2  Rx         0020  5  0A 00 F1 17 03 
   903)       670.4  Rx         0022  5  0B 00 E8 1F 01 
   904)       675.4  Rx         0021  5  00 00 00 00 00 
   905)       675.7  Rx         0023  5  00 00 00 00 00 
   906)       676.1  Rx         0020  5  0A 00 F1 17 03 
   907)       676.3  Rx         0022  5  0B 00 E8 1F 01 
   908)       679.1  Rx         0021  5  00 00 00 00 00 
   909)       679.5  Rx         0020  5  0A 00 F1 17 01 
   910)       679.8  Rx         0026  6  82 0D 76 83 05 37 
   911)       684.9  Rx         0021  5  00 00 00 00 00 
   912)       685.1  Rx         0022  5  0B 00 E8 1F 01 
   913)       685.5  Rx         0020  5  0A 00 F1 17 01 
   914)       685.7  Rx         0023  5  00 00 00 00 00 
   915)       687.8  Rx         0020  5  0A 00 F1 17 01 
   916)       688.0  Rx         0023  5  00 00 00 00 00 
   917)       688.5  Rx         0021  5  00 00 00 00 00 
   918)       690.2  Rx         0022  5  0B 00 E8 1F 01 
   919)       690.4  Rx         0020  5  0A 00 F1 17 01 
   920)       690.8  Rx         0023  5  00 00 00 00 00 
   921)       691.0  Rx         0021  5  00 00 00 00 00 
   922)       694.9  Rx         0022  5  0B 00 E8 1F 01 
   923)       695.1  Rx         0020  5  0A 00 F0 17 03 
   924)       695.6  Rx         0023  5  00 00 00 00 00 
   925)       695.8  Rx         0021  5  00 00 00 00 00 
   926)       697.9  Rx         0023  5  00 00 00 00 00 
   927)       698.1  Rx         0021  5  00 00 00 00 00 
   928)       698.6  Rx         0022  5  0B 00 E8 1F 01 
   929)       698.8  Rx         0020  5  0A 00 F0 17 03 
   930)       699.9  Rx         0020  5  0A 00 F0 17 03 
   931)       701.7  Rx         0021  5  00 00 00 00 00 
   932)       701.9  Rx         0026  6  82 0D 76 83 FA 36 
   933)       702.3  Rx         0020  5  0A 00 F0 17 03 
   934)       702.5  Rx         0022  5  0B 00 E8 1F 01 
   935)       704.0  Rx         0021  5  00 00 00 00 00 
   936)       704.2  Rx         0023  5  00 00 00 00 00 
   937)       704.6  Rx         0020  5  0A 00 F0 17 03 
   938)       704.8  Rx         0022  5  0B 00 E8 1F 01 
   939)       707.0  Rx         0020  5  0A 00 F0 17 01 
   940)       707.2  Rx         0022  5  0B 00 E8 1F 01 
   941)       707.6  Rx         0021  5  00 00 00 00 00 
   942)       707.8  Rx         0023  5  00 00 00 00 00 
   943)       710.0  Rx         0021  5  00 00 00 00 00 
   944)       710.1  Rx         0023  5  00 00 00 00 00 
   945)       710.6  Rx         0020  5  0A 00 F0 17 01 
   946)       712.3  Rx         0021  5  00 00 00 00 00 
   947)       715.8  Rx         0021  5  00 00 00 00 00 
   948)       716.0  Rx         0022  5  0B 00 E8 1F 01 
   949)       716.4  Rx         0020  5  0A 00 F0 17 01 
   950)       716.6  Rx         0023  5  00 00 00 00 00 
   951)       717.1  Rx         0021  5  00 00 00 00 00 
   952)       717.2  Rx         0022  5  0B 00 E8 1F 01 
   953)       717.7  Rx         0020  5  0A 00 F0 17 01 
   954)       717.8  Rx         0023  5  00 00 00 00 00 
   955)       718.3  Rx         0021  5  00 00 00 00 00 
   956)       718.5  Rx         0022  5  0B 00 E8 1F 01 
   957)       718.9  Rx         0020  5  0A 00 F0 17 01 
   958)       719.1  Rx         0023  5  00 00 00 00 00 
   959)       719.5  Rx         0021  5  00 00 00 00 00 
   960)       719.7  Rx         0022  5  0B 00 E8 1F 01 
   961)       720.1  Rx         0020  5  0A 00 F0 17 01 
   962)       720.3  Rx         0023  5  00 00 00 00 00 
   963)       720.7  Rx         0021  5  00 00 00 00 00 
   964)       720.9  Rx         0022  5  0B 00 E8 1F 01 
   965)       721.3  Rx         0020  5  0A 00 F0 17 01 
   966)       721.5  Rx         0023  5  00 00 00 00 00 
   967)       721.9  Rx         0021  5  00 00 00 00 00 
   968)       722.4  Rx         0020  5  0A 00 F0 17 01 
   969)       723.0  Rx         0021  5  00 00 00 00 00 
   970)       723.5  Rx         0020  5  0A 00 F0 17 01 
   971)       724.0  Rx         0021  5  00 00 00 00 00 
   972)       724.1  Rx         0026  6  77 0D 76 83 FA 36 
   973)       724.5  Rx         0020  5  0A 00 F0 17 01 
   974)       724.7  Rx         0022  5  0B 00 E8 1F 01 
   975)       725.0  Rx         0021  5  00 00 00 00 00 
   976)       725.2  Rx         0023  5  00 00 00 00 00 
   977)       725.5  Rx         0020  5  0A 00 F0 17 01 
   978)       725.7  Rx         0022  5  0B 00 E8 1F 01 
   979)       726.0  Rx         0021  5  00 00 00 00 00 
   980)       726.2  Rx         0023  5  00 00 00 00 00 
   981)       726.5  Rx         0020  5  0A 00 F0 17 01 
   982)       726.7  Rx         0022  5  0B 00 E8 1F 01 
   983)       727.2  Rx         0021  5  00 00 00 00 00 
   984)       727.3  Rx         0023  5  00 00 00 00 00 
   985)       727.8  Rx         0020  5  0A 00 EF 17 03 
   986)       728.0  Rx         0022  5  0B 00 E8 1F 01 
   987)       728.5  Rx         0021  5  00 00 00 00 00 
   988)       728.7  Rx         0023  5  00 00 00 00 00 
   989)       729.1  Rx         0020  5  0A 00 EF 17 03 
   990)       729.3  Rx         0022  5  0B 00 E8 1F 01 
   991)       729.7  Rx         0021  5  00 00 00 00 00 
   992)       729.9  Rx         0023  5  00 00 00 00 00 
   993)       730.4  Rx         0020  5  0A 00 EF 17 03 
   994)       730.6  Rx         0022  5  0B 00 E8 1F 01 
   995)       731.0  Rx         0021  5  00 00 00 00 00 
   996)       731.2  Rx         0023  5  00 00 00 00 00 
   997)       731.7  Rx         0020  5  0A 00 EF 17 03 
   998)       731.8  Rx         0022  5  0B 00 E8 1F 01 
   999)       732.3  Rx         0021  5  00 00 00 00 00 
  1000)       732.5  Rx         0023  5  00 00 00 00 00 
  1001)       745.3  Rx         0021  5  00 00 00 00 00 
  1002)       747.1  Rx         0020  5  0A 00 EF 17 03 
  1003)       747.3  Rx         0022  5  0B 00 E8 1F 01 
  1004)       747.8  Rx         0021  5  00 00 00 00 00 
  1005)       747.9  Rx         0023  5  00 00 00 00 00 
  1006)       748.4  Rx         0020  5  0A 00 EF 17 03 
  1007)       748.6  Rx         0022  5  0B 00 E8 1F 01 
  1008)       755.4  Rx         0020  5  0A 00 EF 17 01 
  1009)       757.2  Rx         0021  5  00 00 00 00 00 
  1010)       757.4  Rx         0022  5  0B 00 E8 1F 01 
  1011)       757.8  Rx         0020  5  0A 00 EF 17 01 
  1012)       758.0  Rx         0023  5  00 00 00 00 00 
  1013)       758.5  Rx         0021  5  00 00 00 00 00 
  1014)       758.6  Rx         0022  5  0B 00 E8 1F 01 
  1015)       765.5  Rx         0021  5  00 00 00 00 00 
  1016)       767.3  Rx         0020  5  0A 00 EF 17 01 
  1017)       767.5  Rx         0022  5  0B 00 E8 1F 01 
  1018)       767.9  Rx         0021  5  00 00 00 00 00 
  1019)       768.1  Rx         0023  5  00 00 00 00 00 
  1020)       768.6  Rx         0020  5  0A 00 EF 17 01 
  1021)       768.8  Rx         0022  5  0B 00 E8 1F 01 
  1022)       770.9  Rx         0020  5  0A 00 EF 17 01 
  1023)       771.1  Rx         0022  5  0B 00 E8 1F 01 
  1024)       776.7  Rx         0020  5  0A 00 EE 17 03 
  1025)       777.2  Rx         0021  5  00 00 00 00 00 
  1026)       779.0  Rx         0020  5  0A 00 EE 17 03 
  1027)       779.2  Rx         0023  5  00 00 00 00 00 
  1028)       779.7  Rx         0021  5  00 00 00 00 00 
  1029)       779.8  Rx         0022  5  0B 00 E8 1F 01 
  1030)       785.5  Rx         0021  5  00 00 00 00 00 
  1031)       785.7  Rx         0022  5  0B 00 E8 1F 01 
  1032)       786.1  Rx         0020  5  0A 00 EE 17 03 
  1033)       786.3  Rx         0023  5  00 00 00 00 00 
  1034)       788.5  Rx         0020  5  0A 00 EE 17 01 
  1035)       795.5  Rx         0020  5  0A 00 EE 17 01 
  1036)       795.7  Rx         0022  5  0B 00 E8 1F 01 
  1037)       796.2  Rx         0021  5  00 00 00 00 00 
  1038)       796.4  Rx         0023  5  00 00 00 00 00 
  1039)       798.5  Rx         0021  5  00 00 00 00 00 
  1040)       798.7  Rx         0023  5  00 00 00 00 00 
  1041)       799.1  Rx         0020  5  0A 00 EE 17 01 
  1042)       799.4  Rx         0022  5  0B 00 E8 1F 01 
  1043)       801.4  Rx         0020  5  0A 00 EE 17 01 
  1044)       803.2  Rx         0021  5  00 00 00 00 00 
  1045)       803.4  Rx         0022  5  0B 00 E8 1F 01 
  1046)       803.8  Rx         0020  5  0A 00 ED 17 03 
  1047)       804.0  Rx         0023  5  00 00 00 00 00 
  1048)       806.1  Rx         0020  5  0A 00 ED 17 03 
  1049)       806.4  Rx         0023  5  00 00 00 00 00 
  1050)       806.8  Rx         0021  5  00 00 00 00 00 
  1051)       807.0  Rx         0022  5  0B 00 E8 1F 01 
  1052)       809.1  Rx         0021  5  00 00 00 00 00 
  1053)       809.3  Rx         0022  5  0B 00 E8 1F 01 
  1054)       809.8  Rx         0020  5  0A 00 ED 17 03 
  1055)       810.0  Rx         0023  5  00 00 00 00 00 
  1056)       812.1  Rx         0020  5  0A 00 ED 17 03 
  1057)       813.4  Rx         0020  5  0A 00 ED 17 03 
  1058)       813.8  Rx         0026  6  77 0D 82 83 EE 36 
  1059)       814.0  Rx         0021  5  00 00 00 00 00 
  1060)       814.9  Rx         0023  5  00 00 00 00 00 
  1061)       815.1  Rx         0021  5  00 00 00 00 00 
  1062)       815.4  Rx         0022  5  0B 00 E8 1F 01 
  1063)       815.6  Rx         0020  5  0A 00 ED 17 03 
  1064)       815.8  Rx         0023  5  00 00 00 00 00 
  1065)       816.1  Rx         0021  5  00 00 00 00 00 
  1066)       816.3  Rx         0022  5  0B 00 E8 1F 01 
  1067)       816.6  Rx         0020  5  0A 00 ED 17 03 
  1068)       816.8  Rx         0023  5  00 00 00 00 00 
  1069)       817.2  Rx         0021  5  00 00 00 00 00 
  1070)       817.4  Rx         0022  5  0B 00 E8 1F 01 
  1071)       817.8  Rx         0020  5  0A 00 ED 17 03 
  1072)       818.0  Rx         0023  5  00 00 00 00 00 
  1073)       818.4  Rx         0021  5  00 00 00 00 00 
  1074)       818.6  Rx         0022  5  0B 00 E8 1F 01 
  1075)       819.0  Rx         0020  5  0A 00 ED 17 03 
  1076)       819.2  Rx         0023  5  00 00 00 00 00 
  1077)       819.6  Rx         0021  5  00 00 00 00 00 
  1078)       819.8  Rx         0022  5  0B 00 E8 1F 01 
  1079)       820.2  Rx         0020  5  0A 00 ED 17 03 
  1080)       820.4  Rx         0023  5  00 00 00 00 00 
  1081)       820.8  Rx         0021  5  00 00 00 00 00 
  1082)       821.0  Rx         0022  5  0B 00 E8 1F 01 
  1083)       821.4  Rx         0020  5  0A 00 ED 17 03 
  1084)       821.6  Rx         0023  5  00 00 00 00 00 
  1085)       822.1  Rx         0021  5  00 00 00 00 00 
  1086)       822.2  Rx         0022  5  0B 00 E8 1F 01 
  1087)       822.7  Rx         0020  5  0A 00 ED 17 03 
  1088)       822.9  Rx         0023  5  00 00 00 00 00 
  1089)       823.3  Rx         0021  5  00 00 00 00 00 
  1090)       825.0  Rx         0020  5  0A 00 ED 17 03 
  1091)       825.3  Rx         0026  6  77 0D 82 83 EE 36 
  1092)       825.5  Rx         0021  5  00 00 00 00 00 
  1093)       825.8  Rx         0022  5  0B 00 E8 1F 01 
  1094)       826.0  Rx         0020  5  0A 00 ED 17 03 
  1095)       826.2  Rx         0023  5  00 00 00 00 00 
  1096)       826.5  Rx         0021  5  00 00 00 00 00 
  1097)       826.8  Rx         0022  5  0B 00 E8 1F 01 
  1098)       827.1  Rx         0020  5  0A 00 ED 17 03 
  1099)       827.4  Rx         0023  5  00 00 00 00 00 
  1100)       827.8  Rx         0021  5  00 00 00 00 00 
  1101)       828.0  Rx         0022  5  0B 00 E8 1F 01 
  1102)       828.4  Rx         0020  5  0A 00 ED 17 03 
  1103)       828.6  Rx         0023  5  00 00 00 00 00 
  1104)       829.0  Rx         0021  5  00 00 00 00 00 
  1105)       829.2  Rx         0022  5  0B 00 E8 1F 01 
  1106)       829.6  Rx         0020  5  0A 00 ED 17 03 
  1107)       829.8  Rx         0023  5  00 00 00 00 00 
  1108)       830.2  Rx         0021  5  00 00 00 00 00 
  1109)       830.4  Rx         0022  5  0B 00 E8 1F 01 
  1110)       830.8  Rx         0020  5  0A 00 ED 17 03 
  1111)       831.0  Rx         0023  5  00 00 00 00 00 
  1112)       840.1  Rx         0023  5  00 00 00 00 00 
  1113)       840.5  Rx         0020  5  0A 00 ED 17 01 
  1114)       840.7  Rx         0022  5  0B 00 E8 1F 01 
  1115)       845.8  Rx         0021  5  00 00 00 00 00 
  1116)       846.0  Rx         0023  5  00 00 00 00 00 
  1117)       846.5  Rx         0020  5  0A 00 ED 17 01 
  1118)       848.1  Rx         0021  5  00 00 00 00 00 
  1119)       848.2  Rx         0022  5  0B 00 E8 1F 01 
  1120)       848.7  Rx         0020  5  0A 00 ED 17 01 
  1121)       848.9  Rx         0023  5  00 00 00 00 00 
  1122)       849.3  Rx         0021  5  00 00 00 00 00 
  1123)       849.5  Rx         0022  5  0B 00 E8 1F 01 
  1124)       856.3  Rx         0021  5  00 00 00 00 00 
  1125)       858.1  Rx         0020  5  0A 00 EC 17 03 
  1126)       858.3  Rx         0022  5  0B 00 E8 1F 01 
  1127)       858.8  Rx         0021  5  00 00 00 00 00 
  1128)       858.9  Rx         0023  5  00 00 00 00 00 
  1129)       859.4  Rx         0020  5  0A 00 EC 17 03 
  1130)       859.6  Rx         0022  5  0B 00 E8 1F 01 
  1131)       866.4  Rx         0020  5  0A 00 EC 17 03 
  1132)       866.6  Rx         0022  5  0B 00 E8 1F 01 
  1133)       867.1  Rx         0021  5  00 00 00 00 00 
  1134)       867.3  Rx         0023  5  00 00 00 00 00 
  1135)       868.9  Rx         0020  5  0A 00 EC 17 03 
  1136)       869.1  Rx         0026  6  77 0D 82 83 E3 36 
  1137)       869.5  Rx         0021  5  00 00 00 00 00 
  1138)       869.7  Rx         0022  5  0B 00 E8 1F 01 
  1139)       870.2  Rx         0020  5  0A 00 EC 17 03 
  1140)       870.4  Rx         0023  5  00 00 00 00 00 
  1141)       877.2  Rx         0020  5  0A 00 EC 17 03 
  1142)       877.4  Rx         0023  5  00 00 00 00 00 
  1143)       877.8  Rx         0021  5  00 00 00 00 00 
  1144)       878.0  Rx         0022  5  0B 00 E8 1F 01 
  1145)       879.6  Rx         0020  5  0A 00 EC 17 03 
  1146)       880.8  Rx         0020  5  0A 00 EC 17 03 
  1147)       881.2  Rx         0026  6  77 0D 82 83 E3 36 
  1148)       881.4  Rx         0021  5  00 00 00 00 00 
  1149)       886.4  Rx         0022  5  0B 00 E8 1F 01 
  1150)       886.9  Rx         0020  5  0A 00 EC 17 01 
  1151)       887.1  Rx         0023  5  00 00 00 00 00 
  1152)       889.2  Rx         0020  5  0A 00 EC 17 01 
  1153)       889.4  Rx         0023  5  00 00 00 00 00 
  1154)       889.9  Rx         0021  5  00 00 00 00 00 
  1155)       890.1  Rx         0022  5  0B 00 E8 1F 01 
  1156)       891.7  Rx         0020  5  0A 00 EC 17 01 
  1157)       892.2  Rx         0021  5  00 00 00 00 00 
  1158)       893.9  Rx         0022  5  0B 00 E8 1F 01 
  1159)       894.3  Rx         0020  5  0A 00 EC 17 01 
  1160)       894.5  Rx         0023  5  00 00 00 00 00 
  1161)       896.7  Rx         0020  5  0A 00 EC 17 01 
  1162)       896.9  Rx         0023  5  00 00 00 00 00 
  1163)       897.4  Rx         0021  5  00 00 00 00 00 
  1164)       897.5  Rx         0022  5  0B 00 E8 1F 01 
  1165)       899.7  Rx         0021  5  00 00 00 00 00 
  1166)       899.9  Rx         0022  5  0B 00 E8 1F 01 
  1167)       900.3  Rx         0020  5  0A 00 EC 17 01 
  1168)       900.5  Rx         0023  5  00 00 00 00 00 
  1169)       902.7  Rx         0020  5  0A 00 EC 17 01 
  1170)       906.0  Rx         0022  5  0B 00 E8 1F 01 
  1171)       906.2  Rx         0020  5  0A 00 EC 17 01 
  1172)       906.7  Rx         0023  5  00 00 00 00 00 
  1173)       906.9  Rx         0021  5  00 00 00 00 00 
  1174)       909.0  Rx         0023  5  00 00 00 00 00 
  1175)       909.2  Rx         0021  5  00 00 00 00 00 
  1176)       909.6  Rx         0022  5  0B 00 E8 1F 01 
  1177)       909.9  Rx         0020  5  0A 00 EC 17 01 
  1178)       912.0  Rx         0022  5  0B 00 E8 1F 01 
  1179)       912.4  Rx         0020  5  0A 00 EC 17 01 
  1180)       912.6  Rx         0023  5  00 00 00 00 00 
  1181)       913.6  Rx         0020  5  0A 00 EC 17 01 
  1182)       916.2  Rx         0023  5  00 00 00 00 00 
  1183)       916.4  Rx         0021  5  00 00 00 00 00 
  1184)       916.9  Rx         0022  5  0B 00 E8 1F 01 
  1185)       917.1  Rx         0020  5  0A 00 EC 17 01 
  1186)       919.2  Rx         0022  5  0B 00 E8 1F 01 
  1187)       919.7  Rx         0020  5  0A 00 EC 17 01 
  1188)       919.8  Rx         0023  5  00 00 00 00 00 
  1189)       920.3  Rx         0021  5  00 00 00 00 00 
  1190)       920.4  Rx         0022  5  0B 00 E8 1F 01 
  1191)       920.9  Rx         0020  5  0A 00 EC 17 01 
  1192)       921.1  Rx         0023  5  00 00 00 00 00 
  1193)       921.5  Rx         0021  5  00 00 00 00 00 
  1194)       921.7  Rx         0022  5  0B 00 E8 1F 01 
  1195)       922.1  Rx         0020  5  0A 00 EC 17 01 
  1196)       922.3  Rx         0023  5  00 00 00 00 00 
  1197)       922.7  Rx         0021  5  00 00 00 00 00 
  1198)       922.9  Rx         0022  5  0B 00 E8 1F 01 
  1199)       923.3  Rx         0020  5  0A 00 EC 17 01 
  1200)       923.5  Rx         0023  5  00 00 00 00 00 
  1201)       923.9  Rx         0021  5  00 00 00 00 00 
  1202)       925.1  Rx         0021  5  00 00 00 00 00 
  1203)       925.6  Rx         0020  5  0A 00 EC 17 01 
  1204)       925.8  Rx         0026  6  77 0D 82 83 E3 36 
  1205)       926.1  Rx         0021  5  00 00 00 00 00 
  1206)       926.2  Rx         0022  5  0B 00 E8 1F 01 
  1207)       926.6  Rx         0020  5  0A 00 EC 17 01 
  1208)       926.8  Rx         0023  5  00 00 00 00 00 
  1209)       927.2  Rx         0021  5  00 00 00 00 00 
  1210)       927.4  Rx         0022  5  0B 00 E8 1F 01 
  1211)       927.8  Rx         0020  5  0A 00 EC 17 01 
  1212)       928.0  Rx         0023  5  00 00 00 00 00 
  1213)       928.4  Rx         0021  5  00 00 00 00 00 
  1214)       928.6  Rx         0022  5  0B 00 E8 1F 01 
  1215)       929.0  Rx         0020  5  0A 00 EC 17 01 
  1216)       929.2  Rx         0023  5  00 00 00 00 00 
  1217)       929.6  Rx         0021  5  00 00 00 00 00 
  1218)       929.8  Rx         0022  5  0B 00 E8 1F 01 
  1219)       930.2  Rx         0020  5  0A 00 EC 17 01 
  1220)       930.4  Rx         0023  5  00 00 00 00 00 
  1221)       930.9  Rx         0021  5  00 00 00 00 00 
  1222)       931.0  Rx         0022  5  0B 00 E8 1F 01 
  1223)       931.4  Rx         0020  5  0A 00 EC 17 01 
  1224)       931.6  Rx         0023  5  00 00 00 00 00 
  1225)       931.9  Rx         0021  5  00 00 00 00 00 
  1226)       932.1  Rx         0022  5  0B 00 E8 1F 01 
  1227)       932.4  Rx         0020  5  0A 00 EB 17 03 
  1228)       932.6  Rx         0023  5  00 00 00 00 00 
  1229)       932.9  Rx         0021  5  00 00 00 00 00 
  1230)       933.1  Rx         0022  5  0B 00 E8 1F 01 
  1231)       933.4  Rx         0020  5  0A 00 EB 17 03 
  1232)       933.6  Rx         0023  5  00 00 00 00 00 
  1233)       933.9  Rx         0021  5  00 00 00 00 00 
  1234)       934.1  Rx         0022  5  0B 00 E8 1F 01 
  1235)       934.5  Rx         0020  5  0A 00 EB 17 03 
  1236)       934.7  Rx         0023  5  00 00 00 00 00 
  1237)       935.2  Rx         0021  5  00 00 00 00 00 
  1238)       937.6  Rx         0021  5  00 00 00 00 00 
  1239)       937.8  Rx         0022  5  0B 00 E8 1F 01 
  1240)       938.2  Rx         0020  5  0A 00 EB 17 03 
  1241)       938.4  Rx         0023  5  00 00 00 00 00 
  1242)       938.9  Rx         0021  5  00 00 00 00 00 
  1243)       939.1  Rx         0022  5  0B 00 E8 1F 01 
  1244)       939.5  Rx         0020  5  0A 00 EB 17 03 
  1245)       939.7  Rx         0023  5  00 00 00 00 00 
  1246)       940.2  Rx         0021  5  00 00 00 00 00 
  1247)       940.3  Rx         0022  5  0B 00 E8 1F 01 
  1248)       940.8  Rx         0020  5  0A 00 EB 17 03 
  1249)       940.9  Rx         0023  5  00 00 00 00 00 
  1250)       941.4  Rx         0021  5  00 00 00 00 00 
  1251)       941.5  Rx         0022  5  0B 00 E8 1F 01 
  1252)       941.9  Rx         0020  5  0A 00 EB 17 03 
  1253)       942.1  Rx         0023  5  00 00 00 00 00 
  1254)       942.6  Rx         0021  5  00 00 00 00 00 
  1255)       942.7  Rx         0022  5  0B 00 E8 1F 01 
  1256)       943.1  Rx         0020  5  0A 00 EB 17 03 
  1257)       943.4  Rx         0023  5  00 00 00 00 00 
  1258)       943.8  Rx         0021  5  00 00 00 00 00 
  1259)       944.0  Rx         0022  5  0B 00 E8 1F 01 
  1260)       944.5  Rx         0020  5  0A 00 EB 17 03 
  1261)       944.6  Rx         0023  5  00 00 00 00 00 
  1262)       945.1  Rx         0021  5  00 00 00 00 00 
  1263)       945.3  Rx         0022  5  0B 00 E8 1F 01 
  1264)       945.8  Rx         0020  5  0A 00 EB 17 03 
  1265)       945.9  Rx         0023  5  00 00 00 00 00 
  1266)       946.4  Rx         0021  5  00 00 00 00 00 
  1267)       959.6  Rx         0021  5  00 00 00 00 00 
  1268)       959.8  Rx         0026  6  77 0D 82 83 E3 36 
  1269)       960.1  Rx         0020  5  0A 00 EB 17 01 
  1270)       960.3  Rx         0022  5  0B 00 E8 1F 01 
  1271)       960.7  Rx         0021  5  00 00 00 00 00 
  1272)       960.9  Rx         0023  5  00 00 00 00 00 
  1273)       966.6  Rx         0021  5  00 00 00 00 00 
  1274)       966.8  Rx         0023  5  00 00 00 00 00 
  1275)       967.2  Rx         0020  5  0A 00 EB 17 01 
  1276)       967.4  Rx         0022  5  0B 00 E8 1F 03 
  1277)       969.6  Rx         0020  5  0A 00 EB 17 01 
  1278)       971.3  Rx         0021  5  00 00 00 00 00 
  1279)       971.8  Rx         0026  6  77 0D 82 83 E3 36 
  1280)       972.0  Rx         0020  5  0A 00 EB 17 01 
  1281)       977.6  Rx         0023  5  00 00 00 00 00 
  1282)       977.8  Rx         0020  5  0A 00 EA 17 03 
  1283)       978.3  Rx         0022  5  0B 00 E8 1F 03 
  1284)       978.5  Rx         0021  5  00 00 00 00 00 
  1285)       979.6  Rx         0021  5  00 00 00 00 00 
  1286)       980.8  Rx         0021  5  00 00 00 00 00 
  1287)       986.1  Rx         0020  5  0A 00 EA 17 03 
  1288)       986.3  Rx         0023  5  00 00 00 00 00 
  1289)       986.7  Rx         0021  5  00 00 00 00 00 
  1290)       986.9  Rx         0022  5  0B 00 E8 1F 03 
  1291)       989.1  Rx         0021  5  00 00 00 00 00 
  1292)       989.2  Rx         0022  5  0B 00 E8 1F 03 
  1293)       989.7  Rx         0020  5  0A 00 EA 17 03 
  1294)       989.9  Rx         0023  5  00 00 00 00 00 
  1295)       990.9  Rx         0020  5  0A 00 EA 17 01 
  1296)       992.0  Rx         0020  5  0A 00 EA 17 01 
  1297)       995.5  Rx         0020  5  0A 00 EA 17 01 
  1298)       995.7  Rx         0022  5  0B 00 E8 1F 03 
  1299)       997.9  Rx         0020  5  0A 00 EA 17 01 
  1300)       998.1  Rx         0022  5  0B 00 E8 1F 03 
  1301)       998.5  Rx         0021  5  00 00 00 00 00 
  1302)       998.7  Rx         0023  5  00 00 00 00 00 
  1303)      1000.9  Rx         0021  5  00 00 00 00 00 
  1304)      1001.1  Rx         0023  5  00 00 00 00 00 
  1305)      1001.5  Rx         0020  5  0A 00 EA 17 01 
  1306)      1003.2  Rx         0021  5  00 00 00 00 00 
  1307)      1003.7  Rx         0026  6  77 0D 82 83 E3 36 
  1308)      1003.8  Rx         0020  5  0A 00 EA 17 01 
  1309)      1004.3  Rx         0022  5  0B 00 E8 1F 03 
  1310)      1004.5  Rx         0021  5  00 00 00 00 00 
  1311)      1004.9  Rx         0023  5  00 00 00 00 00 
  1312)      1005.0  Rx         0020  5  0A 00 EA 17 01 
  1313)      1005.5  Rx         0022  5  0B 00 E8 1F 03 
  1314)      1005.7  Rx         0021  5  00 00 00 00 00 
  1315)      1006.1  Rx         0023  5  00 00 00 00 00 
  1316)      1006.2  Rx         0020  5  0A 00 EA 17 01 
  1317)      1006.7  Rx         0022  5  0B 00 E8 1F 03 
  1318)      1006.9  Rx         0021  5  00 00 00 00 00 
  1319)      1007.3  Rx         0023  5  00 00 00 00 00 
  1320)      1007.4  Rx         0020  5  0A 00 EA 17 01 
  1321)      1007.9  Rx         0022  5  0B 00 E8 1F 03 
  1322)      1008.1  Rx         0021  5  00 00 00 00 00 
  1323)      1008.5  Rx         0023  5  00 00 00 00 00 
  1324)      1008.7  Rx         0020  5  0A 00 EA 17 01 
  1325)      1009.1  Rx         0022  5  0B 00 E8 1F 03 
  1326)      1009.3  Rx         0021  5  00 00 00 00 00 
  1327)      1009.7  Rx         0023  5  00 00 00 00 00 
  1328)      1009.9  Rx         0020  5  0A 00 EA 17 01 
  1329)      1010.3  Rx         0022  5  0B 00 E8 1F 03 
  1330)      1010.5  Rx         0021  5  00 00 00 00 00 
  1331)      1010.9  Rx         0023  5  00 00 00 00 00 
  1332)      1011.1  Rx         0020  5  0A 00 EA 17 01 
  1333)      1011.5  Rx         0022  5  0B 00 E8 1F 03 
  1334)      1011.7  Rx         0021  5  00 00 00 00 00 
  1335)      1012.1  Rx         0023  5  00 00 00 00 00 
  1336)      1012.3  Rx         0020  5  0A 00 EA 17 01 
  1337)      1012.7  Rx         0022  5  0B 00 E8 1F 03 
  1338)      1012.9  Rx         0021  5  00 00 00 00 00 
  1339)      1013.3  Rx         0023  5  00 00 00 00 00 
  1340)      1013.5  Rx         0020  5  0A 00 EA 17 01 
  1341)      1015.2  Rx         0021  5  00 00 00 00 00 
  1342)      1015.5  Rx         0026  6  77 0D 82 83 E3 36 
  1343)      1015.8  Rx         0020  5  0A 00 E9 17 03 
  1344)      1016.0  Rx         0022  5  0B 00 E8 1F 03 
  1345)      1016.3  Rx         0021  5  00 00 00 00 00 
  1346)      1016.5  Rx         0023  5  00 00 00 00 00 
  1347)      1016.8  Rx         0020  5  0A 00 E9 17 03 
  1348)      1016.9  Rx         0022  5  0B 00 E8 1F 03 
  1349)      1017.3  Rx         0021  5  00 00 00 00 00 
  1350)      1017.5  Rx         0023  5  00 00 00 00 00 
  1351)      1017.9  Rx         0020  5  0A 00 E9 17 03 
  1352)      1018.1  Rx         0022  5  0B 00 E8 1F 03 
  1353)      1018.5  Rx         0021  5  00 00 00 00 00 
  1354)      1018.7  Rx         0023  5  00 00 00 00 00 
  1355)      1019.1  Rx         0020  5  0A 00 E9 17 03 
  1356)      1019.3  Rx         0022  5  0B 00 E8 1F 03 
  1357)      1019.7  Rx         0021  5  00 00 00 00 00 
  1358)      1019.9  Rx         0023  5  00 00 00 00 00 
  1359)      1020.3  Rx         0020  5  0A 00 E9 17 03 
  1360)      1020.5  Rx         0022  5  0B 00 E8 1F 03 
  1361)      1020.9  Rx         0021  5  00 00 00 00 00 
  1362)      1021.1  Rx         0023  5  00 00 00 00 00 
  1363)      1021.5  Rx         0020  5  0A 00 E9 17 03 
  1364)      1021.7  Rx         0022  5  0B 00 E8 1F 03 
  1365)      1022.1  Rx         0021  5  00 00 00 00 00 
  1366)      1022.3  Rx         0023  5  00 00 00 00 00 
  1367)      1022.7  Rx         0020  5  0A 00 E9 17 03 
  1368)      1022.9  Rx         0022  5  0B 00 E8 1F 03 
  1369)      1023.3  Rx         0021  5  00 00 00 00 00 
  1370)      1023.5  Rx         0023  5  00 00 00 00 00 
  1371)      1023.9  Rx         0020  5  0A 00 E9 17 03 
  1372)      1036.3  Rx         0021  5  00 00 00 00 00 
  1373)      1036.8  Rx         0020  5  0A 00 E9 17 01 
  1374)      1040.3  Rx         0020  5  0A 00 E9 17 01 
  1375)      1040.5  Rx         0022  5  0B 00 E8 1F 03 
  1376)      1040.9  Rx         0021  5  00 00 00 00 00 
  1377)      1041.1  Rx         0023  5  00 00 00 00 00 
  1378)      1046.2  Rx         0020  5  0A 00 E9 17 01 
  1379)      1046.4  Rx         0022  5  0B 00 E8 1F 03 
  1380)      1046.8  Rx         0021  5  00 00 00 00 00 
  1381)      1047.0  Rx         0023  5  00 00 00 00 00 
  1382)      1048.6  Rx         0020  5  0A 00 E9 17 01 
  1383)      1048.8  Rx         0026  6  77 0D 82 83 E3 36 
  1384)      1049.2  Rx         0021  5  00 00 00 00 00 
  1385)      1049.4  Rx         0022  5  0B 00 E8 1F 03 
  1386)      1049.9  Rx         0020  5  0A 00 E9 17 01 
  1387)      1050.0  Rx         0023  5  00 00 00 00 00 
  1388)      1056.9  Rx         0020  5  0A 00 E8 17 03 
  1389)      1057.1  Rx         0023  5  00 00 00 00 00 
  1390)      1057.5  Rx         0021  5  00 00 00 00 00 
  1391)      1057.7  Rx         0022  5  0B 00 E8 1F 03 
  1392)      1059.3  Rx         0020  5  0A 00 E8 17 03 
  1393)      1060.9  Rx         0026  6  77 0D 82 83 E3 36 
  1394)      1061.1  Rx         0021  5  00 00 00 00 00 
  1395)      1061.5  Rx         0022  5  0B 00 E8 1F 03 
  1396)      1061.8  Rx         0020  5  0A 00 E8 17 03 
  1397)      1066.8  Rx         0023  5  00 00 00 00 00 
  1398)      1067.0  Rx         0021  5  00 00 00 00 00 
  1399)      1067.4  Rx         0022  5  0B 00 E8 1F 03 
  1400)      1067.7  Rx         0020  5  0A 00 E8 17 03 
  1401)      1070.0  Rx         0020  5  0A 00 E8 17 03 
  1402)      1071.1  Rx         0020  5  0A 00 E8 17 03 
  1403)      1076.4  Rx         0021  5  00 00 00 00 00 
  1404)      1076.6  Rx         0023  5  00 00 00 00 00 
  1405)      1076.9  Rx         0023  5  00 00 08 1F 03 
  1406)      1077.0  Rx         0020  5  0A 00 E8 17 01 
  1407)      1077.3  Rx         0022  5  0B 00 E8 1F 03 
  1408)      1081.2  Rx         0021  5  00 00 00 00 00 
  1409)      1082.3  Rx         0021  5  00 00 00 00 00 
  1410)      1085.8  Rx         0021  5  00 00 00 00 00 
  1411)      1086.0  Rx         0022  5  0B 00 E8 1F 03 
  1412)      1089.3  Rx         0021  5  00 00 00 00 00 
  1413)      1089.5  Rx         0022  5  0B 00 E8 1F 03 
  1414)      1090.0  Rx         0020  5  0A 00 E8 17 01 
  1415)      1090.2  Rx         0023  5  00 00 00 00 00 
  1416)      1092.3  Rx         0020  5  0A 00 E8 17 01 
  1417)      1093.6  Rx         0020  5  0A 00 E8 17 01 
  1418)      1093.9  Rx         0026  6  77 0D 82 83 E3 36 
  1419)      1094.1  Rx         0021  5  00 00 00 00 00 
  1420)      1096.2  Rx         0023  5  00 00 00 00 00 
  1421)      1096.5  Rx         0021  5  00 00 00 00 00 
  1422)      1096.9  Rx         0022  5  0B 00 E8 1F 03 
  1423)      1097.1  Rx         0020  5  0A 00 E8 17 01 
  1424)      1099.2  Rx         0022  5  0B 00 E8 1F 03 
  1425)      1099.7  Rx         0020  5  0A 00 E8 17 01 
  1426)      1099.9  Rx         0023  5  00 00 00 00 00 
  1427)      1102.0  Rx         0020  5  0A 00 E7 17 03 
  1428)      1102.2  Rx         0023  5  00 00 00 00 00 
  1429)      1103.2  Rx         0020  5  0A 00 E7 17 03 
  1430)      1105.9  Rx         0023  5  00 00 00 00 00 
  1431)      1106.4  Rx         0021  5  00 00 00 00 00 
  1432)      1106.5  Rx         0022  5  0B 00 E8 1F 03 
  1433)      1108.7  Rx         0021  5  00 00 00 00 00 
  1434)      1108.9  Rx         0022  5  0B 00 E8 1F 03 
  1435)      1109.3  Rx         0020  5  0A 00 E7 17 03 
  1436)      1109.5  Rx         0023  5  00 00 00 00 00 
  1437)      1114.0  Rx         0020  5  0A 00 E7 17 03 
  1438)      1116.8  Rx         0021  5  00 00 00 00 00 
  1439)      1117.0  Rx         0022  5  0B 00 E8 1F 03 
  1440)      1117.4  Rx         0020  5  0A 00 E7 17 03 
  1441)      1117.6  Rx         0023  5  00 00 00 00 00 
  1442)      1119.8  Rx         0020  5  0A 00 E7 17 03 
  1443)      1120.0  Rx         0023  5  00 00 00 00 00 
  1444)      1120.4  Rx         0021  5  00 00 00 00 00 
  1445)      1120.6  Rx         0022  5  0B 00 E8 1F 03 
  1446)      1124.5  Rx         0020  5  0A 00 E7 17 03 
  1447)      1125.5  Rx         0026  6  77 0D 82 83 E3 36 
  1448)      1125.9  Rx         0020  5  0A 00 E7 17 03 
  1449)      1126.1  Rx         0022  5  0B 00 E8 1F 03 
  1450)      1126.5  Rx         0021  5  00 00 00 00 00 
  1451)      1126.7  Rx         0023  5  00 00 00 00 00 
  1452)      1127.1  Rx         0020  5  0A 00 E7 17 01 
  1453)      1127.3  Rx         0022  5  0B 00 E8 1F 03 
  1454)      1127.7  Rx         0021  5  00 00 00 00 00 
  1455)      1127.9  Rx         0023  5  00 00 00 00 00 
  1456)      1128.3  Rx         0020  5  0A 00 E7 17 01 
  1457)      1128.5  Rx         0022  5  0B 00 E8 1F 03 
  1458)      1128.9  Rx         0021  5  00 00 00 00 00 
  1459)      1129.2  Rx         0023  5  00 00 00 00 00 
  1460)      1129.5  Rx         0020  5  0A 00 E7 17 01 
  1461)      1129.8  Rx         0022  5  0B 00 E8 1F 03 
  1462)      1130.1  Rx         0021  5  00 00 00 00 00 
  1463)      1130.4  Rx         0023  5  00 00 00 00 00 
  1464)      1130.7  Rx         0020  5  0A 00 E7 17 01 
  1465)      1130.9  Rx         0022  5  0B 00 E8 1F 03 
  1466)      1131.3  Rx         0021  5  00 00 00 00 00 
  1467)      1131.5  Rx         0023  5  00 00 00 00 00 
  1468)      1131.8  Rx         0020  5  0A 00 E7 17 01 
  1469)      1132.0  Rx         0022  5  0B 00 E8 1F 03 
  1470)      1132.3  Rx         0021  5  00 00 00 00 00 
  1471)      1132.5  Rx         0023  5  00 00 00 00 00 
  1472)      1132.8  Rx         0020  5  0A 00 E7 17 01 
  1473)      1133.0  Rx         0022  5  0B 00 E8 1F 03 
  1474)      1133.3  Rx         0021  5  00 00 00 00 00 
  1475)      1133.5  Rx         0023  5  00 00 00 00 00 
  1476)      1133.8  Rx         0020  5  0A 00 E7 17 01 
  1477)      1134.0  Rx         0022  5  0B 00 E8 1F 03 
  1478)      1134.3  Rx         0021  5  00 00 00 00 00 
  1479)      1134.5  Rx         0023  5  00 00 00 00 00 
  1480)      1134.8  Rx         0020  5  0A 00 E7 17 01 
  1481)      1135.0  Rx         0022  5  0B 00 E8 1F 03 
  1482)      1135.3  Rx         0021  5  00 00 00 00 00 
  1483)      1135.5  Rx         0023  5  00 00 00 00 00 
  1484)      1135.8  Rx         0020  5  0A 00 E7 17 01 
  1485)      1136.3  Rx         0021  5  00 00 00 00 00 
  1486)      1137.0  Rx         0020  5  0A 00 E7 17 01 
  1487)      1139.1  Rx         0022  5  0B 00 E8 1F 03 
  1488)      1139.4  Rx         0020  5  0A 00 E7 17 01 
  1489)      1139.8  Rx         0023  5  00 00 00 00 00 
  1490)      1140.0  Rx         0021  5  00 00 00 00 00 
  1491)      1140.5  Rx         0022  5  0B 00 E8 1F 03 
  1492)      1140.6  Rx         0020  5  0A 00 E6 17 03 
  1493)      1148.7  Rx         0020  5  0A 00 E6 17 03 
  1494)      1149.2  Rx         0021  5  00 00 00 00 00 
  1495)      1156.3  Rx         0021  5  00 00 00 00 00 
  1496)      1156.5  Rx         0022  5  0B 00 E8 1F 03 
  1497)      1159.3  Rx         0020  5  0A 00 E6 17 01 
  1498)      1159.8  Rx         0021  5  00 00 00 00 00 
  1499)      1161.6  Rx         0020  5  0A 00 E6 17 01 
  1500)      1161.7  Rx         0022  5  0B 00 E8 1F 03 
  1501)      1162.2  Rx         0021  5  00 00 00 00 00 
  1502)      1162.4  Rx         0023  5  00 00 00 00 00 
  1503)      1162.8  Rx         0020  5  0A 00 E6 17 01 
  1504)      1163.0  Rx         0022  5  0B 00 E8 1F 03 
  1505)      1168.1  Rx         0021  5  00 00 00 00 00 
  1506)      1168.3  Rx         0023  5  00 00 00 00 00 
  1507)      1168.7  Rx         0020  5  0A 00 E6 17 01 
  1508)      1168.9  Rx         0022  5  0B 00 E8 1F 03 
  1509)      1170.5  Rx         0021  5  00 00 00 00 00 
  1510)      1172.1  Rx         0026  6  77 0D 82 83 E3 36 
  1511)      1172.3  Rx         0020  5  0A 00 E5 17 03 
  1512)      1177.4  Rx         0022  5  0B 00 E8 1F 03 
  1513)      1177.8  Rx         0021  5  00 00 00 00 00 
  1514)      1178.0  Rx         0023  5  00 00 00 00 00 
  1515)      1181.4  Rx         0021  5  00 00 00 00 00 
  1516)      1181.6  Rx         0023  5  00 00 00 00 00 
  1517)      1182.0  Rx         0020  5  0A 00 E5 17 03 
  1518)      1183.6  Rx         0021  5  00 00 00 00 00 
  1519)      1187.1  Rx         0021  5  00 00 00 00 00 
  1520)      1187.3  Rx         0022  5  0B 00 E8 1F 03 
  1521)      1187.8  Rx         0020  5  0A 00 E5 17 03 
  1522)      1187.9  Rx         0023  5  00 00 00 00 00 
  1523)      1190.1  Rx         0020  5  0A 00 E5 17 03 
  1524)      1190.3  Rx         0023  5  00 00 00 00 00 
  1525)      1190.7  Rx         0021  5  00 00 00 00 00 
  1526)      1190.9  Rx         0022  5  0B 00 E8 1F 03 
  1527)      1192.5  Rx         0020  5  0A 00 E5 17 03 
  1528)      1193.1  Rx         0021  5  00 00 00 00 00 
  1529)      1194.0  Rx         0026  6  77 0D 82 83 E3 36 
  1530)      1194.4  Rx         0021  5  00 00 00 00 00 
  1531)      1194.6  Rx         0022  5  0B 00 E8 1F 03 
  1532)      1195.0  Rx         0020  5  0A 00 E5 17 03 
  1533)      1195.2  Rx         0023  5  00 00 00 00 00 
  1534)      1197.9  Rx         0021  5  00 00 00 00 00 
  1535)      1198.1  Rx         0022  5  0B 00 E8 1F 03 
  1536)      1200.3  Rx         0021  5  00 00 00 00 00 
  1537)      1200.5  Rx         0022  5  0B 00 E8 1F 03 
  1538)      1200.9  Rx         0020  5  0A 00 E5 17 01 
  1539)      1201.1  Rx         0023  5  00 00 00 00 00 
  1540)      1203.3  Rx         0020  5  0A 00 E5 17 01 
  1541)      1204.5  Rx         0020  5  0A 00 E5 17 01 
  1542)      1204.7  Rx         0026  6  77 0D 82 83 E3 36 
  1543)      1205.1  Rx         0021  5  00 00 00 00 00 
  1544)      1205.3  Rx         0022  5  0B 00 E8 1F 03 
  1545)      1207.4  Rx         0021  5  00 00 00 00 00 
  1546)      1207.6  Rx         0022  5  0B 00 E8 1F 03 
  1547)      1208.1  Rx         0020  5  0A 00 E5 17 01 
  1548)      1208.2  Rx         0023  5  00 00 00 00 00 
  1549)      1210.4  Rx         0020  5  0A 00 E5 17 01 
  1550)      1210.6  Rx         0023  5  00 00 00 00 00 
  1551)      1211.1  Rx         0021  5  00 00 00 00 00 
  1552)      1211.2  Rx         0022  5  0B 00 E8 1F 03 
  1553)      1215.2  Rx         0020  5  0A 00 E5 17 01 
  1554)      1216.9  Rx         0021  5  00 00 00 00 00 
  1555)      1217.1  Rx         0023  5  00 00 00 00 00 
  1556)      1217.6  Rx         0020  5  0A 00 E5 17 01 
  1557)      1217.7  Rx         0022  5  0B 00 E8 1F 03 
  1558)      1219.9  Rx         0020  5  0A 00 E5 17 01 
  1559)      1220.1  Rx         0022  5  0B 00 E8 1F 03 
  1560)      1220.5  Rx         0021  5  00 00 00 00 00 
  1561)      1220.7  Rx         0023  5  00 00 00 00 00 
  1562)      1221.7  Rx         0021  5  00 00 00 00 00 
  1563)      1221.9  Rx         0023  5  00 00 00 00 00 
  1564)      1222.2  Rx         0020  5  0A 00 E5 17 01 
  1565)      1222.4  Rx         0022  5  0B 00 E8 1F 03 
  1566)      1222.7  Rx         0021  5  00 00 00 00 00 
  1567)      1222.9  Rx         0023  5  00 00 00 00 00 
  1568)      1223.3  Rx         0020  5  0A 00 E5 17 01 
  1569)      1223.5  Rx         0022  5  0B 00 E8 1F 03 
  1570)      1223.9  Rx         0021  5  00 00 00 00 00 
  1571)      1224.1  Rx         0023  5  00 00 00 00 00 
  1572)      1224.6  Rx         0020  5  0A 00 E4 17 03 
  1573)      1224.7  Rx         0022  5  0B 00 E8 1F 03 
  1574)      1225.1  Rx         0021  5  00 00 00 00 00 
  1575)      1225.3  Rx         0023  5  00 00 00 00 00 
  1576)      1225.7  Rx         0020  5  0A 00 E4 17 03 
  1577)      1226.9  Rx         0020  5  0A 00 E4 17 03 
  1578)      1227.1  Rx         0026  6  77 0D 82 83 E3 36 
  1579)      1227.4  Rx         0021  5  00 00 00 00 00 
  1580)      1227.6  Rx         0022  5  0B 00 E8 1F 03 
  1581)      1227.9  Rx         0020  5  0A 00 E4 17 03 
  1582)      1228.1  Rx         0023  5  00 00 00 00 00 
  1583)      1228.4  Rx         0021  5  00 00 00 00 00 
  1584)      1228.6  Rx         0022  5  0B 00 E8 1F 03 
  1585)      1228.9  Rx         0020  5  0A 00 E4 17 03 
  1586)      1229.1  Rx         0023  5  00 00 00 00 00 
  1587)      1229.5  Rx         0021  5  00 00 00 00 00 
  1588)      1229.7  Rx         0022  5  0B 00 E8 1F 03 
  1589)      1230.1  Rx         0020  5  0A 00 E4 17 03 
  1590)      1230.4  Rx         0023  5  00 00 00 00 00 
  1591)      1230.8  Rx         0021  5  00 00 00 00 00 
  1592)      1231.0  Rx         0022  5  0B 00 E8 1F 03 
  1593)      1231.4  Rx         0020  5  0A 00 E4 17 03 
  1594)      1231.6  Rx         0023  5  00 00 00 00 00 
  1595)      1232.0  Rx         0021  5  00 00 00 00 00 
  1596)      1232.2  Rx         0022  5  0B 00 E8 1F 03 
  1597)      1232.6  Rx         0020  5  0A 00 E4 17 03 
  1598)      1232.8  Rx         0023  5  00 00 00 00 00 
  1599)      1233.2  Rx         0021  5  00 00 00 00 00 
  1600)      1233.4  Rx         0022  5  0B 00 E8 1F 03 
  1601)      1233.8  Rx         0020  5  0A 00 E4 17 03 
  1602)      1234.0  Rx         0023  5  00 00 00 00 00 
  1603)      1234.4  Rx         0021  5  00 00 00 00 00 
  1604)      1234.6  Rx         0022  5  0B 00 E8 1F 03 
  1605)      1235.0  Rx         0020  5  0A 00 E4 17 03 
  1606)      1235.2  Rx         0023  5  00 00 00 00 00 
  1607)      1235.6  Rx         0021  5  00 00 00 00 00 
  1608)      1237.3  Rx         0020  5  0A 00 E4 17 03 
  1609)      1237.5  Rx         0022  5  0B 00 E8 1F 03 
  1610)      1238.0  Rx         0021  5  00 00 00 00 00 
  1611)      1238.2  Rx         0023  5  00 00 00 00 00 
  1612)      1238.6  Rx         0020  5  0A 00 E4 17 03 
  1613)      1238.8  Rx         0022  5  0B 00 E8 1F 03 
  1614)      1247.4  Rx         0021  5  00 00 00 00 00 
  1615)      1249.2  Rx         0020  5  0A 00 E4 17 01 
  1616)      1249.4  Rx         0022  5  0B 00 E8 1F 03 
  1617)      1249.9  Rx         0021  5  00 00 00 00 00 
  1618)      1250.0  Rx         0023  5  00 00 00 00 00 
  1619)      1250.5  Rx         0020  5  0A 00 E4 17 01 
  1620)      1250.7  Rx         0022  5  0B 00 E8 1F 03 
  1621)      1257.5  Rx         0020  5  0A 00 E4 17 01 
  1622)      1257.7  Rx         0022  5  0B 00 E8 1F 03 
  1623)      1258.1  Rx         0021  5  00 00 00 00 00 
  1624)      1258.4  Rx         0023  5  00 00 00 00 00 
  1625)      1259.9  Rx         0020  5  0A 00 E4 17 01 
  1626)      1260.9  Rx         0026  6  77 0D 82 83 E3 36 
  1627)      1261.3  Rx         0020  5  0A 00 E4 17 01 
  1628)      1261.5  Rx         0022  5  0B 00 E8 1F 03 
  1629)      1267.7  Rx         0021  5  00 00 00 00 00 
  1630)      1267.9  Rx         0023  5  00 00 00 00 00 
  1631)      1268.3  Rx         0020  5  0A 00 E4 17 01 
  1632)      1268.5  Rx         0022  5  0B 00 E8 1F 03 
  1633)      1270.1  Rx         0021  5  00 00 00 00 00 
  1634)      1271.3  Rx         0021  5  00 00 00 00 00 
  1635)      1271.7  Rx         0026  6  77 0D 82 83 E3 36 
  1636)      1271.9  Rx         0020  5  0A 00 E4 17 01 
  1637)      1272.3  Rx         0022  5  0B 00 E8 1F 03 
  1638)      1272.5  Rx         0021  5  00 00 00 00 00 
  1639)      1277.6  Rx         0023  5  00 00 00 00 00 
  1640)      1277.8  Rx         0020  5  0A 00 E3 17 03 
  1641)      1278.2  Rx         0022  5  0B 00 E8 1F 03 
  1642)      1278.4  Rx         0021  5  00 00 00 00 00 
  1643)      1280.2  Rx         0020  5  0A 00 E3 17 03 
  1644)      1281.4  Rx         0020  5  0A 00 E3 17 03 
  1645)      1281.6  Rx         0026  6  77 0D 82 83 E3 36 
  1646)      1281.9  Rx         0021  5  00 00 00 00 00 
  1647)      1282.1  Rx         0022  5  0B 00 E8 1F 03 
  1648)      1287.2  Rx         0020  5  0A 00 E3 17 03 
  1649)      1287.4  Rx         0023  5  00 00 00 00 00 
  1650)      1287.8  Rx         0021  5  00 00 00 00 00 
  1651)      1288.0  Rx         0022  5  0B 00 E8 1F 03 
  1652)      1290.2  Rx         0021  5  00 00 00 00 00 
  1653)      1290.4  Rx         0022  5  0B 00 E8 1F 03 
  1654)      1290.8  Rx         0020  5  0A 00 E3 17 03 
  1655)      1291.0  Rx         0023  5  00 00 00 00 00 
  1656)      1292.0  Rx         0020  5  0A 00 E3 17 03 
  1657)      1293.1  Rx         0020  5  0A 00 E3 17 03 
  1658)      1296.6  Rx         0020  5  0A 00 E3 17 03 
  1659)      1296.8  Rx         0022  5  0B 00 E8 1F 03 
  1660)      1298.9  Rx         0020  5  0A 00 E3 17 01 
  1661)      1299.2  Rx         0022  5  0B 00 E8 1F 03 
  1662)      1299.6  Rx         0021  5  00 00 00 00 00 
  1663)      1299.8  Rx         0023  5  00 00 00 00 00 
  1664)      1301.9  Rx         0021  5  00 00 00 00 00 
  1665)      1302.1  Rx         0023  5  00 00 00 00 00 
  1666)      1302.6  Rx         0020  5  0A 00 E3 17 01 
  1667)      1303.8  Rx         0020  5  0A 00 E3 17 01 
  1668)      1304.3  Rx         0021  5  00 00 00 00 00 
  1669)      1304.6  Rx         0026  6  77 0D 82 83 E3 36 
  1670)      1304.9  Rx         0020  5  0A 00 E3 17 01 
  1671)      1305.1  Rx         0022  5  0B 00 E8 1F 03 
  1672)      1307.3  Rx         0020  5  0A 00 E3 17 01 
  1673)      1307.4  Rx         0022  5  0B 00 E8 1F 03 
  1674)      1307.9  Rx         0021  5  00 00 00 00 00 
  1675)      1308.1  Rx         0023  5  00 00 00 00 00 
  1676)      1310.3  Rx         0021  5  00 00 00 00 00 
  1677)      1310.4  Rx         0023  5  00 00 00 00 00 
  1678)      1310.9  Rx         0020  5  0A 00 E3 17 01 
  1679)      1311.1  Rx         0022  5  0B 00 E8 1F 03 
  1680)      1313.9  Rx         0021  5  00 00 00 00 00 
  1681)      1314.8  Rx         0026  6  77 0D 82 83 E3 36 
  1682)      1315.3  Rx         0021  5  00 00 00 00 00 
  1683)      1315.4  Rx         0022  5  0B 00 E8 1F 03 
  1684)      1317.6  Rx         0021  5  00 00 00 00 00 
  1685)      1317.8  Rx         0022  5  0B 00 E8 1F 03 
  1686)      1318.2  Rx         0020  5  0A 00 E2 17 03 
  1687)      1318.4  Rx         0023  5  00 00 00 00 00 
  1688)      1318.8  Rx         0021  5  00 00 00 00 00 
  1689)      1319.0  Rx         0022  5  0B 00 E8 1F 03 
  1690)      1319.4  Rx         0020  5  0A 00 E2 17 03 
  1691)      1319.6  Rx         0023  5  00 00 00 00 00 
  1692)      1320.0  Rx         0021  5  00 00 00 00 00 
  1693)      1320.2  Rx         0022  5  0B 00 E8 1F 03 
  1694)      1320.6  Rx         0020  5  0A 00 E2 17 03 
  1695)      1320.8  Rx         0023  5  00 00 00 00 00 
  1696)      1321.2  Rx         0021  5  00 00 00 00 00 
  1697)      1321.4  Rx         0022  5  0B 00 E8 1F 03 
  1698)      1321.8  Rx         0020  5  0A 00 E2 17 03 
  1699)      1322.0  Rx         0023  5  00 00 00 00 00 
  1700)      1322.4  Rx         0021  5  00 00 00 00 00 
  1701)      1322.6  Rx         0022  5  0B 00 E8 1F 03 
  1702)      1323.0  Rx         0020  5  0A 00 E2 17 03 
  1703)      1323.2  Rx         0023  5  00 00 00 00 00 
  1704)      1323.7  Rx         0021  5  00 00 00 00 00 
  1705)      1324.8  Rx         0021  5  00 00 00 00 00 
  1706)      1325.0  Rx         0026  6  77 0D 82 83 E3 36 
  1707)      1325.3  Rx         0020  5  0A 00 E2 17 03 
  1708)      1325.5  Rx         0022  5  0B 00 E8 1F 03 
  1709)      1325.9  Rx         0021  5  00 00 00 00 00 
  1710)      1326.0  Rx         0023  5  00 00 00 00 00 
  1711)      1326.5  Rx         0020  5  0A 00 E2 17 03 
  1712)      1326.6  Rx         0022  5  0B 00 E8 1F 03 
  1713)      1327.1  Rx         0021  5  00 00 00 00 00 
  1714)      1327.2  Rx         0023  5  00 00 00 00 00 
  1715)      1327.7  Rx         0020  5  0A 00 E2 17 03 
  1716)      1327.8  Rx         0022  5  0B 00 E8 1F 03 
  1717)      1328.3  Rx         0021  5  00 00 00 00 00 
  1718)      1328.5  Rx         0023  5  00 00 00 00 00 
  1719)      1328.9  Rx         0020  5  0A 00 E2 17 03 
  1720)      1329.0  Rx         0022  5  0B 00 E8 1F 03 
  1721)      1329.4  Rx         0021  5  00 00 00 00 00 
  1722)      1329.6  Rx         0023  5  00 00 00 00 00 
  1723)      1329.9  Rx         0020  5  0A 00 E2 17 03 
  1724)      1330.1  Rx         0022  5  0B 00 E8 1F 03 
  1725)      1330.4  Rx         0021  5  00 00 00 00 00 
  1726)      1330.6  Rx         0023  5  00 00 00 00 00 
  1727)      1330.9  Rx         0020  5  0A 00 E2 17 03 
  1728)      1331.1  Rx         0022  5  0B 00 E8 1F 03 
  1729)      1331.4  Rx         0021  5  00 00 00 00 00 
  1730)      1331.6  Rx         0023  5  00 00 00 00 00 
  1731)      1331.9  Rx         0020  5  0A 00 E2 17 03 
  1732)      1332.1  Rx         0022  5  0B 00 E8 1F 03 
  1733)      1332.5  Rx         0021  5  00 00 00 00 00 
  1734)      1332.6  Rx         0023  5  00 00 00 00 00 
  1735)      1332.9  Rx         0020  5  0A 00 E2 17 03 
  1736)      1333.1  Rx         0022  5  0B 00 E8 1F 03 
  1737)      1333.7  Rx         0021  5  00 00 00 00 00 
  1738)      1333.9  Rx         0023  5  00 00 00 00 00 
  1739)      1334.3  Rx         0020  5  0A 00 E2 17 03 
  1740)      1334.5  Rx         0022  5  0B 00 E8 1F 03 
  1741)      1335.0  Rx         0021  5  00 00 00 00 00 
  1742)      1335.2  Rx         0023  5  00 00 00 00 00 
  1743)      1335.6  Rx         0020  5  0A 00 E2 17 03 
