;$FILEVERSION=1.1
;$STARTTIME=45826.7439251389
;
;   Start time: 2025/6/18 17:51:15.132.0
;   Generated by PCAN-View v5.3.2.952
;
;   Message Number
;   |         Time Offset (ms)
;   |         |        Type
;   |         |        |        ID (hex)
;   |         |        |        |     Data Length
;   |         |        |        |     |   Data Bytes (hex) ...
;   |         |        |        |     |   |
;---+--   ----+----  --+--  ----+---  +  -+ -- -- -- -- -- -- --
     1)       102.4  Rx         0020  5  0A 00 AB 14 03 
     2)       102.8  Rx         0022  5  0B 00 3D 24 03 
     3)       103.0  Rx         0021  5  00 00 00 00 00 
     4)       106.3  Rx         0022  5  0B 00 3D 24 03 
     5)       106.8  Rx         0021  5  00 00 00 00 00 
     6)       107.0  Rx         0023  5  00 00 00 00 00 
     7)       110.4  Rx         0021  5  00 00 00 00 00 
     8)       110.6  Rx         0023  5  00 00 00 00 00 
     9)       111.0  Rx         0020  5  0A 00 A9 14 03 
    10)       112.2  Rx         0020  5  0A 00 A9 14 01 
    11)       112.4  Rx         0026  6  C6 83 AF 8F E9 03 
    12)       112.7  Rx         0021  5  00 00 00 00 00 
    13)       112.9  Rx         0022  5  0B 00 3D 24 01 
    14)       116.8  Rx         0020  5  0A 00 A8 14 01 
    15)       117.0  Rx         0023  5  00 00 00 00 00 
    16)       117.5  Rx         0021  5  00 00 00 00 00 
    17)       117.7  Rx         0022  5  0B 00 3C 24 03 
    18)       119.9  Rx         0021  5  00 00 00 00 00 
    19)       120.0  Rx         0022  5  0B 00 3C 24 01 
    20)       120.5  Rx         0020  5  0A 00 A7 14 01 
    21)       120.7  Rx         0023  5  00 00 00 00 00 
    22)       122.9  Rx         0020  5  0A 00 A6 14 03 
    23)       126.1  Rx         0022  5  0B 00 3B 24 03 
    24)       126.4  Rx         0020  5  0A 00 A5 14 03 
    25)       126.8  Rx         0023  5  00 00 00 00 00 
    26)       127.0  Rx         0021  5  00 00 00 00 00 
    27)       129.2  Rx         0023  5  00 00 00 00 00 
    28)       129.4  Rx         0021  5  00 00 00 00 00 
    29)       129.9  Rx         0022  5  0B 00 3B 24 01 
    30)       130.0  Rx         0020  5  0A 00 A5 14 01 
    31)       132.1  Rx         0022  5  0B 00 3B 24 01 
    32)       132.6  Rx         0020  5  0A 00 A4 14 01 
    33)       132.8  Rx         0023  5  00 00 00 00 00 
    34)       134.9  Rx         0020  5  0A 00 A3 14 03 
    35)       136.5  Rx         0026  6  C6 83 A4 8F DD 03 
    36)       136.7  Rx         0021  5  00 00 00 00 00 
    37)       137.2  Rx         0022  5  0B 00 3A 24 03 
    38)       137.3  Rx         0020  5  0A 00 A3 14 01 
    39)       139.5  Rx         0022  5  0B 00 39 24 03 
    40)       139.7  Rx         0020  5  0A 00 A2 14 03 
    41)       140.1  Rx         0023  5  00 00 00 00 00 
    42)       140.3  Rx         0021  5  00 00 00 00 00 
    43)       146.0  Rx         0023  5  00 00 00 00 00 
    44)       146.5  Rx         0021  5  00 00 00 00 00 
    45)       147.6  Rx         0021  5  00 00 00 00 00 
    46)       148.5  Rx         0026  6  C6 83 99 8F DD 03 
    47)       148.8  Rx         0021  5  00 00 00 00 00 
    48)       148.9  Rx         0022  5  0B 00 38 24 03 
    49)       149.4  Rx         0020  5  0A 00 A0 14 01 
    50)       149.6  Rx         0023  5  00 00 00 00 00 
    51)       150.0  Rx         0021  5  00 00 00 00 00 
    52)       150.2  Rx         0022  5  0B 00 38 24 03 
    53)       150.6  Rx         0020  5  0A 00 9F 14 03 
    54)       150.8  Rx         0023  5  00 00 00 00 00 
    55)       151.2  Rx         0021  5  00 00 00 00 00 
    56)       151.4  Rx         0022  5  0B 00 38 24 03 
    57)       151.8  Rx         0020  5  0A 00 9F 14 03 
    58)       152.0  Rx         0023  5  00 00 00 00 00 
    59)       152.4  Rx         0021  5  00 00 00 00 00 
    60)       152.6  Rx         0022  5  0B 00 38 24 01 
    61)       153.0  Rx         0020  5  0A 00 9E 14 03 
    62)       153.2  Rx         0023  5  00 00 00 00 00 
    63)       153.6  Rx         0021  5  00 00 00 00 00 
    64)       153.8  Rx         0022  5  0B 00 38 24 01 
    65)       154.2  Rx         0020  5  0A 00 9E 14 03 
    66)       154.4  Rx         0023  5  00 00 00 00 00 
    67)       154.9  Rx         0021  5  00 00 00 00 00 
    68)       155.0  Rx         0022  5  0B 00 37 24 03 
    69)       155.5  Rx         0020  5  0A 00 9E 14 03 
    70)       155.6  Rx         0023  5  00 00 00 00 00 
    71)       156.1  Rx         0021  5  00 00 00 00 00 
    72)       157.8  Rx         0020  5  0A 00 9D 14 01 
    73)       158.1  Rx         0026  6  BB 83 99 8F DD 03 
    74)       158.3  Rx         0021  5  00 00 00 00 00 
    75)       158.6  Rx         0022  5  0B 00 37 24 03 
    76)       158.8  Rx         0020  5  0A 00 9D 14 01 
    77)       159.3  Rx         0023  5  00 00 00 00 00 
    78)       159.4  Rx         0021  5  00 00 00 00 00 
    79)       159.9  Rx         0022  5  0B 00 37 24 01 
    80)       160.0  Rx         0020  5  0A 00 9D 14 01 
    81)       160.5  Rx         0023  5  00 00 00 00 00 
    82)       160.6  Rx         0021  5  00 00 00 00 00 
    83)       161.1  Rx         0022  5  0B 00 37 24 01 
    84)       161.3  Rx         0020  5  0A 00 9C 14 03 
    85)       161.7  Rx         0023  5  00 00 00 00 00 
    86)       161.9  Rx         0021  5  00 00 00 00 00 
    87)       162.2  Rx         0022  5  0B 00 37 24 01 
    88)       162.4  Rx         0020  5  0A 00 9C 14 03 
    89)       162.6  Rx         0023  5  00 00 00 00 00 
    90)       162.9  Rx         0021  5  00 00 00 00 00 
    91)       163.1  Rx         0022  5  0B 00 37 24 01 
    92)       163.4  Rx         0020  5  0A 00 9C 14 03 
    93)       163.6  Rx         0023  5  00 00 00 00 00 
    94)       163.9  Rx         0021  5  00 00 00 00 00 
    95)       164.1  Rx         0022  5  0B 00 36 24 03 
    96)       164.4  Rx         0020  5  0A 00 9C 14 01 
    97)       164.6  Rx         0023  5  00 00 00 00 00 
    98)       164.9  Rx         0021  5  00 00 00 00 00 
    99)       165.1  Rx         0022  5  0B 00 36 24 03 
   100)       165.5  Rx         0020  5  0A 00 9B 14 03 
   101)       165.8  Rx         0023  5  00 00 00 00 00 
   102)       166.2  Rx         0021  5  00 00 00 00 00 
   103)       166.4  Rx         0022  5  0B 00 36 24 03 
   104)       166.9  Rx         0020  5  0A 00 9B 14 01 
   105)       167.0  Rx         0023  5  00 00 00 00 00 
   106)       167.5  Rx         0021  5  00 00 00 00 00 
   107)       169.3  Rx         0020  5  0A 00 9A 14 03 
   108)       170.8  Rx         0023  5  00 00 00 00 00 
   109)       171.1  Rx         0021  5  00 00 00 00 00 
   110)       171.5  Rx         0022  5  0B 00 36 24 03 
   111)       171.7  Rx         0020  5  0A 00 9A 14 01 
   112)       172.2  Rx         0023  5  00 00 00 00 00 
   113)       172.3  Rx         0021  5  00 00 00 00 00 
   114)       172.8  Rx         0022  5  0B 00 36 24 03 
   115)       173.0  Rx         0020  5  0A 00 9A 14 01 
   116)       173.4  Rx         0023  5  00 00 00 00 00 
   117)       173.6  Rx         0021  5  00 00 00 00 00 
   118)       174.0  Rx         0022  5  0B 00 36 24 01 
   119)       174.2  Rx         0020  5  0A 00 99 14 01 
   120)       174.6  Rx         0023  5  00 00 00 00 00 
   121)       174.8  Rx         0021  5  00 00 00 00 00 
   122)       175.2  Rx         0022  5  0B 00 36 24 01 
   123)       175.4  Rx         0020  5  0A 00 99 14 01 
   124)       175.8  Rx         0023  5  00 00 00 00 00 
   125)       176.0  Rx         0021  5  00 00 00 00 00 
   126)       176.4  Rx         0022  5  0B 00 36 24 01 
   127)       176.6  Rx         0020  5  0A 00 99 14 01 
   128)       177.1  Rx         0023  5  00 00 00 00 00 
   129)       177.3  Rx         0021  5  00 00 00 00 00 
   130)       177.7  Rx         0022  5  0B 00 36 24 01 
   131)       177.9  Rx         0020  5  0A 00 98 14 03 
   132)       178.3  Rx         0023  5  00 00 00 00 00 
   133)       178.6  Rx         0021  5  00 00 00 00 00 
   134)       191.0  Rx         0020  5  0A 00 95 14 01 
   135)       191.5  Rx         0026  6  BB 83 6B 8F D2 03 
   136)       191.7  Rx         0021  5  00 00 00 00 00 
   137)       192.1  Rx         0022  5  0B 00 34 24 03 
   138)       192.3  Rx         0020  5  0A 00 94 14 03 
   139)       196.1  Rx         0023  5  00 00 00 00 00 
   140)       196.4  Rx         0021  5  00 00 00 00 00 
   141)       196.8  Rx         0022  5  0B 00 34 24 01 
   142)       197.0  Rx         0020  5  0A 00 93 14 03 
   143)       199.1  Rx         0022  5  0B 00 34 24 01 
   144)       199.3  Rx         0020  5  0A 00 93 14 01 
   145)       199.8  Rx         0023  5  00 00 00 00 00 
   146)       200.0  Rx         0021  5  00 00 00 00 00 
   147)       201.5  Rx         0026  6  BB 83 60 8F D2 03 
   148)       201.7  Rx         0020  5  0A 00 92 14 03 
   149)       202.2  Rx         0022  5  0B 00 34 24 01 
   150)       202.4  Rx         0021  5  00 00 00 00 00 
   151)       206.3  Rx         0023  5  00 00 00 00 00 
   152)       206.7  Rx         0020  5  0A 00 91 14 03 
   153)       206.9  Rx         0022  5  0B 00 33 24 03 
   154)       209.1  Rx         0020  5  0A 00 90 14 03 
   155)       209.3  Rx         0022  5  0B 00 33 24 03 
   156)       209.7  Rx         0021  5  00 00 00 00 00 
   157)       209.9  Rx         0023  5  00 00 00 00 00 
   158)       212.1  Rx         0021  5  00 00 00 00 00 
   159)       215.5  Rx         0021  5  00 00 00 00 00 
   160)       215.7  Rx         0022  5  0B 00 33 24 01 
   161)       217.9  Rx         0021  5  00 00 00 00 00 
   162)       218.0  Rx         0022  5  0B 00 33 24 01 
   163)       218.5  Rx         0020  5  0A 00 8E 14 03 
   164)       218.7  Rx         0023  5  00 00 00 00 00 
   165)       220.8  Rx         0020  5  0A 00 8E 14 01 
   166)       221.0  Rx         0023  5  00 00 00 00 00 
   167)       221.5  Rx         0021  5  00 00 00 00 00 
   168)       221.7  Rx         0022  5  0B 00 32 24 03 
   169)       221.9  Rx         0022  5  0B 00 32 20 00 
   170)       222.1  Rx         0020  5  0A 00 8E 14 01 
   171)       222.3  Rx         0023  5  00 00 00 00 00 
   172)       223.3  Rx         0020  5  0A 00 8D 14 03 
   173)       223.8  Rx         0021  5  00 00 00 00 00 
   174)       224.4  Rx         0020  5  0A 00 8D 14 01 
   175)       224.9  Rx         0026  6  AF 83 54 8F D2 03 
   176)       225.1  Rx         0021  5  00 00 00 00 00 
   177)       225.5  Rx         0022  5  0B 00 32 24 03 
   178)       225.7  Rx         0020  5  0A 00 8D 14 01 
   179)       226.1  Rx         0023  5  00 00 00 00 00 
   180)       226.3  Rx         0021  5  00 00 00 00 00 
   181)       226.7  Rx         0022  5  0B 00 32 24 01 
   182)       226.9  Rx         0020  5  0A 00 8D 14 01 
   183)       227.3  Rx         0023  5  00 00 00 00 00 
   184)       227.5  Rx         0021  5  00 00 00 00 00 
   185)       227.9  Rx         0022  5  0B 00 32 24 01 
   186)       228.1  Rx         0020  5  0A 00 8D 14 01 
   187)       228.5  Rx         0023  5  00 00 00 00 00 
   188)       228.7  Rx         0021  5  00 00 00 00 00 
   189)       229.1  Rx         0022  5  0B 00 32 24 01 
   190)       229.3  Rx         0020  5  0A 00 8C 14 03 
   191)       229.7  Rx         0023  5  00 00 00 00 00 
   192)       229.9  Rx         0021  5  00 00 00 00 00 
   193)       230.3  Rx         0022  5  0B 00 31 24 03 
   194)       230.5  Rx         0020  5  0A 00 8C 14 01 
   195)       230.9  Rx         0023  5  00 00 00 00 00 
   196)       231.1  Rx         0021  5  00 00 00 00 00 
   197)       231.5  Rx         0022  5  0B 00 31 24 03 
   198)       231.7  Rx         0020  5  0A 00 8C 14 01 
   199)       232.1  Rx         0023  5  00 00 00 00 00 
   200)       232.3  Rx         0021  5  00 00 00 00 00 
   201)       232.8  Rx         0022  5  0B 00 31 24 03 
   202)       232.9  Rx         0020  5  0A 00 8C 14 01 
   203)       233.4  Rx         0023  5  00 00 00 00 00 
   204)       233.5  Rx         0021  5  00 00 00 00 00 
   205)       235.3  Rx         0020  5  0A 00 8B 14 03 
   206)       236.5  Rx         0020  5  0A 00 8B 14 01 
   207)       236.7  Rx         0022  5  0B 00 31 24 03 
   208)       237.2  Rx         0021  5  00 00 00 00 00 
   209)       237.4  Rx         0023  5  00 00 00 00 00 
   210)       237.8  Rx         0020  5  0A 00 8B 14 01 
   211)       238.0  Rx         0022  5  0B 00 31 24 01 
   212)       238.5  Rx         0021  5  00 00 00 00 00 
   213)       238.7  Rx         0023  5  00 00 00 00 00 
   214)       245.0  Rx         0020  5  0A 00 8A 14 01 
   215)       246.0  Rx         0026  6  A4 83 3E 8F D2 03 
   216)       246.4  Rx         0020  5  0A 00 8A 14 01 
   217)       246.6  Rx         0022  5  0B 00 30 24 03 
   218)       247.0  Rx         0021  5  00 00 00 00 00 
   219)       247.2  Rx         0023  5  00 00 00 00 00 
   220)       249.9  Rx         0020  5  0A 00 89 14 01 
   221)       250.1  Rx         0022  5  0B 00 30 24 01 
   222)       250.6  Rx         0021  5  00 00 00 00 00 
   223)       250.7  Rx         0023  5  00 00 00 00 00 
   224)       256.5  Rx         0021  5  00 00 00 00 00 
   225)       257.6  Rx         0021  5  00 00 00 00 00 
   226)       257.8  Rx         0022  5  0B 00 2F 24 03 
   227)       258.2  Rx         0020  5  0A 00 88 14 03 
   228)       258.4  Rx         0023  5  00 00 00 00 00 
   229)       261.8  Rx         0020  5  0A 00 88 14 03 
   230)       262.0  Rx         0023  5  00 00 00 00 00 
   231)       266.5  Rx         0020  5  0A 00 88 14 01 
   232)       267.0  Rx         0021  5  00 00 00 00 00 
   233)       268.8  Rx         0020  5  0A 00 87 14 03 
   234)       269.0  Rx         0022  5  0B 00 2E 24 01 
   235)       269.5  Rx         0021  5  00 00 00 00 00 
   236)       269.7  Rx         0023  5  00 00 00 00 00 
   237)       270.1  Rx         0020  5  0A 00 87 14 03 
   238)       270.3  Rx         0022  5  0B 00 2E 24 01 
   239)       277.2  Rx         0020  5  0A 00 87 14 03 
   240)       279.0  Rx         0021  5  00 00 00 00 00 
   241)       280.5  Rx         0023  5  00 00 00 00 00 
   242)       280.9  Rx         0020  5  0A 00 87 14 01 
   243)       281.1  Rx         0022  5  0B 00 2D 24 03 
   244)       286.2  Rx         0021  5  00 00 00 00 00 
   245)       286.4  Rx         0023  5  00 00 00 00 00 
   246)       288.6  Rx         0021  5  00 00 00 00 00 
   247)       289.5  Rx         0026  6  8D 83 1B 8F DD 03 
   248)       289.7  Rx         0021  5  00 00 00 00 00 
   249)       290.2  Rx         0022  5  0B 00 2C 24 03 
   250)       290.3  Rx         0020  5  0A 00 87 14 01 
   251)       292.5  Rx         0022  5  0B 00 2C 24 03 
   252)       292.9  Rx         0020  5  0A 00 87 14 01 
   253)       293.1  Rx         0023  5  00 00 00 00 00 
   254)       297.0  Rx         0021  5  00 00 00 00 00 
   255)       297.2  Rx         0022  5  0B 00 2C 24 01 
   256)       297.7  Rx         0020  5  0A 00 86 14 03 
   257)       297.9  Rx         0023  5  00 00 00 00 00 
   258)       300.0  Rx         0020  5  0A 00 86 14 03 
   259)       307.1  Rx         0020  5  0A 00 86 14 03 
   260)       307.3  Rx         0022  5  0B 00 2B 24 03 
   261)       307.8  Rx         0021  5  00 00 00 00 00 
   262)       307.9  Rx         0023  5  00 00 00 00 00 
   263)       310.1  Rx         0021  5  00 00 00 00 00 
   264)       310.3  Rx         0023  5  00 00 00 00 00 
   265)       310.7  Rx         0020  5  0A 00 86 14 01 
   266)       312.4  Rx         0022  5  0B 00 2B 24 03 
   267)       312.6  Rx         0021  5  00 00 00 00 00 
   268)       312.9  Rx         0023  5  00 00 00 00 00 
   269)       313.1  Rx         0020  5  0A 00 86 14 01 
   270)       313.4  Rx         0022  5  0B 00 2B 24 03 
   271)       313.7  Rx         0021  5  00 00 00 00 00 
   272)       313.9  Rx         0023  5  00 00 00 00 00 
   273)       314.2  Rx         0020  5  0A 00 85 14 03 
   274)       314.5  Rx         0022  5  0B 00 2B 24 03 
   275)       314.7  Rx         0021  5  00 00 00 00 00 
   276)       315.0  Rx         0023  5  00 00 00 00 00 
   277)       315.4  Rx         0020  5  0A 00 85 14 03 
   278)       315.6  Rx         0022  5  0B 00 2B 24 01 
   279)       316.0  Rx         0021  5  00 00 00 00 00 
   280)       316.2  Rx         0023  5  00 00 00 00 00 
   281)       316.6  Rx         0020  5  0A 00 85 14 03 
   282)       316.8  Rx         0022  5  0B 00 2B 24 01 
   283)       317.2  Rx         0021  5  00 00 00 00 00 
   284)       317.4  Rx         0023  5  00 00 00 00 00 
   285)       317.8  Rx         0020  5  0A 00 85 14 03 
   286)       318.0  Rx         0022  5  0B 00 2B 24 01 
   287)       318.4  Rx         0021  5  00 00 00 00 00 
   288)       318.6  Rx         0023  5  00 00 00 00 00 
   289)       319.0  Rx         0020  5  0A 00 85 14 03 
   290)       319.2  Rx         0022  5  0B 00 2B 24 01 
   291)       319.6  Rx         0021  5  00 00 00 00 00 
   292)       319.8  Rx         0023  5  00 00 00 00 00 
   293)       320.3  Rx         0020  5  0A 00 85 14 01 
   294)       320.4  Rx         0022  5  0B 00 2B 24 01 
   295)       320.8  Rx         0021  5  00 00 00 00 00 
   296)       321.0  Rx         0023  5  00 00 00 00 00 
   297)       321.5  Rx         0020  5  0A 00 85 14 01 
   298)       323.2  Rx         0021  5  00 00 00 00 00 
   299)       323.4  Rx         0022  5  0B 00 2B 24 01 
   300)       323.8  Rx         0020  5  0A 00 85 14 01 
   301)       324.0  Rx         0023  5  00 00 00 00 00 
   302)       324.4  Rx         0021  5  00 00 00 00 00 
   303)       324.6  Rx         0022  5  0B 00 2B 24 01 
   304)       325.0  Rx         0020  5  0A 00 84 14 03 
   305)       325.2  Rx         0023  5  00 00 00 00 00 
   306)       325.6  Rx         0021  5  00 00 00 00 00 
   307)       325.8  Rx         0022  5  0B 00 2B 24 01 
   308)       326.2  Rx         0020  5  0A 00 84 14 03 
   309)       326.4  Rx         0023  5  00 00 00 00 00 
   310)       326.7  Rx         0021  5  00 00 00 00 00 
   311)       326.8  Rx         0022  5  0B 00 2B 24 01 
   312)       327.2  Rx         0020  5  0A 00 84 14 03 
   313)       327.4  Rx         0023  5  00 00 00 00 00 
   314)       327.7  Rx         0021  5  00 00 00 00 00 
   315)       327.9  Rx         0022  5  0B 00 2B 24 01 
   316)       328.2  Rx         0020  5  0A 00 84 14 03 
   317)       328.4  Rx         0023  5  00 00 00 00 00 
   318)       328.7  Rx         0021  5  00 00 00 00 00 
   319)       328.9  Rx         0022  5  0B 00 2B 24 01 
   320)       329.2  Rx         0020  5  0A 00 84 14 01 
   321)       329.4  Rx         0023  5  00 00 00 00 00 
   322)       329.7  Rx         0021  5  00 00 00 00 00 
   323)       329.9  Rx         0022  5  0B 00 2B 24 01 
   324)       330.2  Rx         0020  5  0A 00 84 14 01 
   325)       330.4  Rx         0023  5  00 00 00 00 00 
   326)       330.9  Rx         0021  5  00 00 00 00 00 
   327)       331.1  Rx         0022  5  0B 00 2B 24 01 
   328)       331.5  Rx         0020  5  0A 00 84 14 01 
   329)       331.7  Rx         0023  5  00 00 00 00 00 
   330)       332.1  Rx         0021  5  00 00 00 00 00 
   331)       332.3  Rx         0022  5  0B 00 2B 24 01 
   332)       332.8  Rx         0020  5  0A 00 84 14 01 
   333)       333.0  Rx         0023  5  00 00 00 00 00 
   334)       333.5  Rx         0021  5  00 00 00 00 00 
   335)       335.2  Rx         0020  5  0A 00 83 14 03 
   336)       337.0  Rx         0021  5  00 00 00 00 00 
   337)       337.2  Rx         0023  5  00 00 00 00 00 
   338)       337.7  Rx         0020  5  0A 00 83 14 01 
   339)       337.9  Rx         0022  5  0B 00 2B 24 01 
   340)       338.3  Rx         0021  5  00 00 00 00 00 
   341)       338.5  Rx         0023  5  00 00 00 00 00 
   342)       338.9  Rx         0020  5  0A 00 83 14 01 
   343)       339.1  Rx         0022  5  0B 00 2B 24 01 
   344)       339.6  Rx         0021  5  00 00 00 00 00 
   345)       339.8  Rx         0023  5  00 00 00 00 00 
   346)       340.2  Rx         0020  5  0A 00 83 14 01 
   347)       340.4  Rx         0022  5  0B 00 2B 24 01 
   348)       349.8  Rx         0020  5  0A 00 81 14 01 
   349)       349.9  Rx         0022  5  0B 00 2B 24 01 
   350)       350.4  Rx         0021  5  00 00 00 00 00 
   351)       350.6  Rx         0023  5  00 00 00 00 00 
   352)       356.3  Rx         0021  5  00 00 00 00 00 
   353)       357.4  Rx         0021  5  00 00 00 00 00 
   354)       361.0  Rx         0021  5  00 00 00 00 00 
   355)       361.2  Rx         0022  5  0B 00 2B 24 01 
   356)       361.6  Rx         0020  5  0A 00 7F 14 03 
   357)       361.8  Rx         0023  5  00 00 00 00 00 
   358)       366.9  Rx         0021  5  00 00 00 00 00 
   359)       368.8  Rx         0020  5  0A 00 7E 14 01 
   360)       368.9  Rx         0026  6  54 83 F9 8E FF 03 
   361)       369.4  Rx         0021  5  00 00 00 00 00 
   362)       369.6  Rx         0022  5  0B 00 2B 24 01 
   363)       370.0  Rx         0020  5  0A 00 7D 14 03 
   364)       370.2  Rx         0023  5  00 00 00 00 00 
   365)       372.4  Rx         0020  5  0A 00 7D 14 01 
   366)       372.6  Rx         0023  5  00 00 00 00 00 
   367)       376.5  Rx         0021  5  00 00 00 00 00 
   368)       376.7  Rx         0022  5  0B 00 2B 24 01 
   369)       377.2  Rx         0020  5  0A 00 7C 14 01 
   370)       377.3  Rx         0023  5  00 00 00 00 00 
   371)       379.5  Rx         0020  5  0A 00 7B 14 03 
   372)       386.6  Rx         0020  5  0A 00 7A 14 03 
   373)       386.9  Rx         0022  5  0B 00 2B 24 01 
   374)       387.3  Rx         0021  5  00 00 00 00 00 
   375)       387.5  Rx         0023  5  00 00 00 00 00 
   376)       389.7  Rx         0021  5  00 00 00 00 00 
   377)       389.9  Rx         0023  5  00 00 00 00 00 
   378)       390.4  Rx         0020  5  0A 00 79 14 03 
   379)       392.1  Rx         0022  5  0B 00 2B 24 01 
   380)       392.5  Rx         0021  5  00 00 00 00 00 
   381)       392.7  Rx         0023  5  00 00 00 00 00 
   382)       396.6  Rx         0020  5  0A 00 79 14 01 
   383)       396.8  Rx         0022  5  0B 00 2B 24 01 
   384)       397.3  Rx         0021  5  00 00 00 00 00 
   385)       397.5  Rx         0023  5  00 00 00 00 00 
   386)       399.6  Rx         0021  5  00 00 00 00 00 
   387)       399.8  Rx         0023  5  00 00 00 00 00 
   388)       400.3  Rx         0020  5  0A 00 78 14 01 
   389)       400.4  Rx         0022  5  0B 00 2B 24 01 
   390)       402.6  Rx         0020  5  0A 00 78 14 01 
   391)       408.3  Rx         0023  5  00 00 00 00 00 
   392)       408.7  Rx         0020  5  0A 00 77 14 03 
   393)       409.0  Rx         0022  5  0B 00 2B 24 01 
   394)       411.1  Rx         0020  5  0A 00 76 14 03 
   395)       411.6  Rx         0021  5  00 00 00 00 00 
   396)       412.1  Rx         0020  5  0A 00 76 14 03 
   397)       412.6  Rx         0021  5  00 00 00 00 00 
   398)       413.1  Rx         0020  5  0A 00 76 14 03 
   399)       413.3  Rx         0026  6  32 83 CC 8E 0B 04 
   400)       413.7  Rx         0021  5  00 00 00 00 00 
   401)       414.0  Rx         0022  5  0B 00 2B 24 01 
   402)       414.3  Rx         0020  5  0A 00 76 14 03 
   403)       414.6  Rx         0023  5  00 00 00 00 00 
   404)       414.9  Rx         0021  5  00 00 00 00 00 
   405)       415.1  Rx         0022  5  0B 00 2B 24 01 
   406)       415.5  Rx         0020  5  0A 00 76 14 03 
   407)       415.7  Rx         0023  5  00 00 00 00 00 
   408)       416.1  Rx         0021  5  00 00 00 00 00 
   409)       416.3  Rx         0022  5  0B 00 2B 24 01 
   410)       416.7  Rx         0020  5  0A 00 76 14 01 
   411)       416.9  Rx         0023  5  00 00 00 00 00 
   412)       417.3  Rx         0021  5  00 00 00 00 00 
   413)       417.5  Rx         0022  5  0B 00 2B 24 01 
   414)       417.9  Rx         0020  5  0A 00 76 14 01 
   415)       418.1  Rx         0023  5  00 00 00 00 00 
   416)       418.6  Rx         0021  5  00 00 00 00 00 
   417)       418.7  Rx         0022  5  0B 00 2B 24 01 
   418)       419.2  Rx         0020  5  0A 00 76 14 01 
   419)       419.3  Rx         0023  5  00 00 00 00 00 
   420)       419.8  Rx         0021  5  00 00 00 00 00 
   421)       420.0  Rx         0022  5  0B 00 2B 24 01 
   422)       420.4  Rx         0020  5  0A 00 75 14 03 
   423)       420.6  Rx         0023  5  00 00 00 00 00 
   424)       421.0  Rx         0021  5  00 00 00 00 00 
   425)       421.2  Rx         0022  5  0B 00 2B 24 01 
   426)       421.6  Rx         0020  5  0A 00 75 14 03 
   427)       421.8  Rx         0023  5  00 00 00 00 00 
   428)       422.2  Rx         0021  5  00 00 00 00 00 
   429)       423.9  Rx         0020  5  0A 00 75 14 03 
   430)       424.3  Rx         0026  6  32 83 C0 8E 0B 04 
   431)       424.5  Rx         0021  5  00 00 00 00 00 
   432)       424.9  Rx         0022  5  0B 00 2B 24 01 
   433)       425.1  Rx         0020  5  0A 00 75 14 03 
   434)       425.5  Rx         0023  5  00 00 00 00 00 
   435)       425.7  Rx         0021  5  00 00 00 00 00 
   436)       426.1  Rx         0022  5  0B 00 2B 24 01 
   437)       426.3  Rx         0020  5  0A 00 75 14 03 
   438)       426.7  Rx         0023  5  00 00 00 00 00 
   439)       426.9  Rx         0021  5  00 00 00 00 00 
   440)       427.3  Rx         0022  5  0B 00 2B 24 01 
   441)       427.5  Rx         0020  5  0A 00 75 14 03 
   442)       428.0  Rx         0023  5  00 00 00 00 00 
   443)       428.1  Rx         0021  5  00 00 00 00 00 
   444)       428.5  Rx         0022  5  0B 00 2B 24 01 
   445)       428.7  Rx         0020  5  0A 00 75 14 01 
   446)       435.8  Rx         0020  5  0A 00 75 14 01 
   447)       437.0  Rx         0020  5  0A 00 74 14 03 
   448)       437.2  Rx         0022  5  0B 00 2B 24 01 
   449)       440.5  Rx         0020  5  0A 00 74 14 03 
   450)       440.7  Rx         0022  5  0B 00 2B 24 01 
   451)       441.1  Rx         0021  5  00 00 00 00 00 
   452)       441.3  Rx         0023  5  00 00 00 00 00 
   453)       446.4  Rx         0020  5  0A 00 74 14 01 
   454)       448.1  Rx         0021  5  00 00 00 00 00 
   455)       448.3  Rx         0022  5  0B 00 2B 24 01 
   456)       448.8  Rx         0020  5  0A 00 73 14 03 
   457)       449.0  Rx         0023  5  00 00 00 00 00 
   458)       449.4  Rx         0021  5  00 00 00 00 00 
   459)       449.6  Rx         0022  5  0B 00 2B 24 01 
   460)       453.0  Rx         0021  5  00 00 00 00 00 
   461)       453.1  Rx         0022  5  0B 00 2B 24 01 
   462)       456.4  Rx         0021  5  00 00 00 00 00 
   463)       458.0  Rx         0022  5  0B 00 2B 24 01 
   464)       458.5  Rx         0020  5  0A 00 73 14 01 
   465)       458.7  Rx         0023  5  00 00 00 00 00 
   466)       459.1  Rx         0021  5  00 00 00 00 00 
   467)       459.3  Rx         0022  5  0B 00 2B 24 01 
   468)       462.7  Rx         0021  5  00 00 00 00 00 
   469)       462.8  Rx         0022  5  0B 00 2B 24 01 
   470)       466.8  Rx         0020  5  0A 00 71 14 03 
   471)       467.9  Rx         0020  5  0A 00 71 14 03 
   472)       471.5  Rx         0020  5  0A 00 71 14 03 
   473)       471.7  Rx         0022  5  0B 00 2B 24 01 
   474)       472.1  Rx         0021  5  00 00 00 00 00 
   475)       472.3  Rx         0023  5  00 00 00 00 00 
   476)       477.4  Rx         0020  5  0A 00 70 14 03 
   477)       479.0  Rx         0026  6  60 83 9E 8E F4 03 
   478)       479.2  Rx         0021  5  00 00 00 00 00 
   479)       479.6  Rx         0022  5  0B 00 2B 24 01 
   480)       479.9  Rx         0020  5  0A 00 70 14 03 
   481)       480.3  Rx         0023  5  00 00 00 00 00 
   482)       480.5  Rx         0021  5  00 00 00 00 00 
   483)       480.9  Rx         0022  5  0B 00 2B 24 01 
   484)       481.1  Rx         0020  5  0A 00 70 14 01 
   485)       488.0  Rx         0022  5  0B 00 2B 24 01 
   486)       488.2  Rx         0020  5  0A 00 6F 14 01 
   487)       488.6  Rx         0023  5  00 00 00 00 00 
   488)       488.8  Rx         0021  5  00 00 00 00 00 
   489)       490.3  Rx         0026  6  60 83 9E 8E F4 03 
   490)       490.6  Rx         0020  5  0A 00 6E 14 03 
   491)       491.0  Rx         0022  5  0B 00 2B 24 01 
   492)       491.3  Rx         0021  5  00 00 00 00 00 
   493)       491.7  Rx         0023  5  00 00 00 00 00 
   494)       491.9  Rx         0020  5  0A 00 6E 14 03 
   495)       497.5  Rx         0023  5  00 00 00 00 00 
   496)       497.7  Rx         0020  5  0A 00 6D 14 03 
   497)       498.2  Rx         0022  5  0B 00 2B 24 01 
   498)       498.4  Rx         0021  5  00 00 00 00 00 
   499)       499.6  Rx         0021  5  00 00 00 00 00 
   500)       500.5  Rx         0026  6  6B 83 9E 8E E9 03 
   501)       500.7  Rx         0021  5  00 00 00 00 00 
   502)       501.2  Rx         0022  5  0B 00 2B 24 01 
   503)       501.3  Rx         0020  5  0A 00 6D 14 01 
   504)       507.0  Rx         0022  5  0B 00 2B 24 01 
   505)       507.3  Rx         0020  5  0A 00 6C 14 01 
   506)       507.7  Rx         0023  5  00 00 00 00 00 
   507)       507.9  Rx         0021  5  00 00 00 00 00 
   508)       510.0  Rx         0023  5  00 00 00 00 00 
   509)       510.2  Rx         0021  5  00 00 00 00 00 
   510)       511.4  Rx         0021  5  00 00 00 00 00 
   511)       512.5  Rx         0021  5  00 00 00 00 00 
   512)       512.7  Rx         0022  5  0B 00 2B 24 01 
   513)       516.6  Rx         0020  5  0A 00 6A 14 03 
   514)       516.9  Rx         0023  5  00 00 00 00 00 
   515)       519.0  Rx         0020  5  0A 00 6A 14 01 
   516)       519.2  Rx         0023  5  00 00 00 00 00 
   517)       519.6  Rx         0021  5  00 00 00 00 00 
   518)       519.8  Rx         0022  5  0B 00 2B 24 01 
   519)       522.0  Rx         0021  5  00 00 00 00 00 
   520)       523.8  Rx         0020  5  0A 00 69 14 01 
   521)       524.2  Rx         0026  6  82 83 87 8E DD 03 
   522)       524.5  Rx         0021  5  00 00 00 00 00 
   523)       525.4  Rx         0023  5  00 00 00 00 00 
   524)       525.7  Rx         0021  5  00 00 00 00 00 
   525)       525.9  Rx         0022  5  0B 00 2B 24 01 
   526)       526.1  Rx         0020  5  0A 00 68 14 03 
   527)       526.3  Rx         0023  5  00 00 00 00 00 
   528)       526.8  Rx         0021  5  00 00 00 00 00 
   529)       526.9  Rx         0022  5  0B 00 2B 24 01 
   530)       527.4  Rx         0020  5  0A 00 68 14 03 
   531)       527.5  Rx         0023  5  00 00 00 00 00 
   532)       528.0  Rx         0021  5  00 00 00 00 00 
   533)       528.1  Rx         0022  5  0B 00 2B 24 03 
   534)       528.6  Rx         0020  5  0A 00 68 14 01 
   535)       528.8  Rx         0023  5  00 00 00 00 00 
   536)       529.2  Rx         0021  5  00 00 00 00 00 
   537)       529.3  Rx         0022  5  0B 00 2B 24 03 
   538)       529.7  Rx         0020  5  0A 00 68 14 01 
   539)       530.0  Rx         0023  5  00 00 00 00 00 
   540)       530.4  Rx         0021  5  00 00 00 00 00 
   541)       530.6  Rx         0022  5  0B 00 2B 24 03 
   542)       530.9  Rx         0020  5  0A 00 67 14 03 
   543)       531.2  Rx         0023  5  00 00 00 00 00 
   544)       531.6  Rx         0021  5  00 00 00 00 00 
   545)       531.8  Rx         0022  5  0B 00 2B 24 03 
   546)       532.2  Rx         0020  5  0A 00 67 14 03 
   547)       532.4  Rx         0023  5  00 00 00 00 00 
   548)       532.8  Rx         0021  5  00 00 00 00 00 
   549)       534.6  Rx         0020  5  0A 00 67 14 01 
   550)       534.9  Rx         0026  6  8D 83 7C 8E DD 03 
   551)       535.1  Rx         0021  5  00 00 00 00 00 
   552)       535.3  Rx         0022  5  0B 00 2B 24 03 
   553)       535.8  Rx         0020  5  0A 00 67 14 01 
   554)       535.9  Rx         0023  5  00 00 00 00 00 
   555)       536.4  Rx         0021  5  00 00 00 00 00 
   556)       536.6  Rx         0022  5  0B 00 2B 24 03 
   557)       536.9  Rx         0020  5  0A 00 66 14 03 
   558)       537.1  Rx         0023  5  00 00 00 00 00 
   559)       537.4  Rx         0021  5  00 00 00 00 00 
   560)       537.6  Rx         0022  5  0B 00 2C 24 01 
   561)       537.9  Rx         0020  5  0A 00 66 14 03 
   562)       538.1  Rx         0023  5  00 00 00 00 00 
   563)       538.4  Rx         0021  5  00 00 00 00 00 
   564)       538.6  Rx         0022  5  0B 00 2C 24 01 
   565)       538.9  Rx         0020  5  0A 00 66 14 03 
   566)       539.1  Rx         0023  5  00 00 00 00 00 
   567)       539.6  Rx         0021  5  00 00 00 00 00 
   568)       539.8  Rx         0022  5  0B 00 2C 24 01 
   569)       540.2  Rx         0020  5  0A 00 66 14 01 
   570)       540.4  Rx         0023  5  00 00 00 00 00 
   571)       540.9  Rx         0021  5  00 00 00 00 00 
   572)       541.1  Rx         0022  5  0B 00 2C 24 01 
   573)       541.5  Rx         0020  5  0A 00 66 14 01 
   574)       541.7  Rx         0023  5  00 00 00 00 00 
   575)       542.2  Rx         0021  5  00 00 00 00 00 
   576)       542.3  Rx         0022  5  0B 00 2C 24 01 
   577)       542.8  Rx         0020  5  0A 00 66 14 01 
   578)       543.0  Rx         0023  5  00 00 00 00 00 
   579)       543.5  Rx         0021  5  00 00 00 00 00 
   580)       545.2  Rx         0020  5  0A 00 65 14 03 
   581)       547.0  Rx         0021  5  00 00 00 00 00 
   582)       547.2  Rx         0023  5  00 00 00 00 00 
   583)       547.6  Rx         0020  5  0A 00 65 14 01 
   584)       547.8  Rx         0022  5  0B 00 2C 24 03 
   585)       548.3  Rx         0021  5  00 00 00 00 00 
   586)       548.5  Rx         0023  5  00 00 00 00 00 
   587)       548.9  Rx         0020  5  0A 00 65 14 01 
   588)       549.1  Rx         0022  5  0B 00 2C 24 03 
   589)       549.6  Rx         0021  5  00 00 00 00 00 
   590)       549.8  Rx         0023  5  00 00 00 00 00 
   591)       550.2  Rx         0020  5  0A 00 64 14 03 
   592)       550.4  Rx         0022  5  0B 00 2C 24 03 
   593)       550.7  Rx         0021  5  00 00 00 00 00 
   594)       551.0  Rx         0023  5  00 00 00 00 00 
   595)       551.3  Rx         0020  5  0A 00 64 14 03 
   596)       551.6  Rx         0022  5  0B 00 2C 24 03 
   597)       551.9  Rx         0021  5  00 00 00 00 00 
   598)       552.1  Rx         0023  5  00 00 00 00 00 
   599)       552.6  Rx         0020  5  0A 00 64 14 03 
   600)       552.8  Rx         0022  5  0B 00 2C 24 03 
   601)       553.2  Rx         0021  5  00 00 00 00 00 
   602)       553.4  Rx         0023  5  00 00 00 00 00 
   603)       553.9  Rx         0020  5  0A 00 64 14 01 
   604)       566.4  Rx         0021  5  00 00 00 00 00 
   605)       568.0  Rx         0026  6  A4 83 4F 8E C7 03 
   606)       568.2  Rx         0020  5  0A 00 61 14 03 
   607)       568.7  Rx         0022  5  0B 00 2E 24 01 
   608)       568.9  Rx         0021  5  00 00 00 00 00 
   609)       571.0  Rx         0022  5  0B 00 2E 24 03 
   610)       571.5  Rx         0021  5  00 00 00 00 00 
   611)       571.7  Rx         0023  5  00 00 00 00 00 
   612)       577.3  Rx         0021  5  00 00 00 00 00 
   613)       579.5  Rx         0023  5  00 00 00 00 00 
   614)       579.7  Rx         0021  5  00 00 00 00 00 
   615)       580.2  Rx         0022  5  0B 00 2F 24 01 
   616)       580.4  Rx         0020  5  0A 00 5F 14 01 
   617)       582.5  Rx         0022  5  0B 00 2F 24 01 
   618)       582.7  Rx         0020  5  0A 00 5F 14 01 
   619)       583.1  Rx         0023  5  00 00 00 00 00 
   620)       583.4  Rx         0021  5  00 00 00 00 00 
   621)       587.2  Rx         0022  5  0B 00 2F 24 03 
   622)       587.5  Rx         0020  5  0A 00 5E 14 01 
   623)       587.7  Rx         0023  5  00 00 00 00 00 
   624)       588.0  Rx         0021  5  00 00 00 00 00 
   625)       589.7  Rx         0020  5  0A 00 5D 14 03 
   626)       589.8  Rx         0022  5  0B 00 2F 24 03 
   627)       590.3  Rx         0021  5  00 00 00 00 00 
   628)       590.5  Rx         0023  5  00 00 00 00 00 
   629)       591.0  Rx         0020  5  0A 00 5D 14 01 
   630)       591.1  Rx         0022  5  0B 00 30 24 01 
   631)       593.3  Rx         0020  5  0A 00 5C 14 03 
   632)       593.5  Rx         0022  5  0B 00 30 24 01 
   633)       594.5  Rx         0020  5  0A 00 5C 14 03 
   634)       594.7  Rx         0022  5  0B 00 30 24 01 
   635)       595.0  Rx         0021  5  00 00 00 00 00 
   636)       595.2  Rx         0023  5  00 00 00 00 00 
   637)       595.7  Rx         0020  5  0A 00 5C 14 01 
   638)       595.8  Rx         0022  5  0B 00 30 24 01 
   639)       596.2  Rx         0021  5  00 00 00 00 00 
   640)       596.4  Rx         0023  5  00 00 00 00 00 
   641)       596.8  Rx         0020  5  0A 00 5B 14 03 
   642)       597.1  Rx         0022  5  0B 00 30 24 03 
   643)       597.4  Rx         0021  5  00 00 00 00 00 
   644)       597.7  Rx         0023  5  00 00 00 00 00 
   645)       598.0  Rx         0020  5  0A 00 5B 14 01 
   646)       598.3  Rx         0022  5  0B 00 30 24 03 
   647)       598.6  Rx         0021  5  00 00 00 00 00 
   648)       598.9  Rx         0023  5  00 00 00 00 00 
   649)       599.2  Rx         0020  5  0A 00 5B 14 01 
   650)       600.4  Rx         0020  5  0A 00 5A 14 03 
   651)       600.6  Rx         0026  6  BB 83 21 8E B0 03 
   652)       600.9  Rx         0021  5  00 00 00 00 00 
   653)       601.1  Rx         0022  5  0B 00 31 24 01 
   654)       601.4  Rx         0020  5  0A 00 5A 14 03 
   655)       601.6  Rx         0023  5  00 00 00 00 00 
   656)       601.9  Rx         0021  5  00 00 00 00 00 
   657)       602.1  Rx         0022  5  0B 00 31 24 01 
   658)       602.5  Rx         0020  5  0A 00 5A 14 01 
   659)       602.7  Rx         0023  5  00 00 00 00 00 
   660)       603.1  Rx         0021  5  00 00 00 00 00 
   661)       603.3  Rx         0022  5  0B 00 31 24 01 
   662)       603.7  Rx         0020  5  0A 00 59 14 03 
   663)       603.9  Rx         0023  5  00 00 00 00 00 
   664)       604.3  Rx         0021  5  00 00 00 00 00 
   665)       604.5  Rx         0022  5  0B 00 31 24 01 
   666)       604.9  Rx         0020  5  0A 00 59 14 03 
   667)       605.1  Rx         0023  5  00 00 00 00 00 
   668)       605.5  Rx         0021  5  00 00 00 00 00 
   669)       605.7  Rx         0022  5  0B 00 31 24 01 
   670)       606.1  Rx         0020  5  0A 00 59 14 01 
   671)       606.3  Rx         0023  5  00 00 00 00 00 
   672)       606.7  Rx         0021  5  00 00 00 00 00 
   673)       606.9  Rx         0022  5  0B 00 31 24 01 
   674)       607.3  Rx         0020  5  0A 00 58 14 03 
   675)       607.5  Rx         0023  5  00 00 00 00 00 
   676)       607.9  Rx         0021  5  00 00 00 00 00 
   677)       608.1  Rx         0022  5  0B 00 31 24 03 
   678)       608.5  Rx         0020  5  0A 00 58 14 01 
   679)       608.8  Rx         0023  5  00 00 00 00 00 
   680)       609.2  Rx         0021  5  00 00 00 00 00 
   681)       609.4  Rx         0022  5  0B 00 31 24 03 
   682)       609.8  Rx         0020  5  0A 00 58 14 01 
   683)       609.9  Rx         0023  5  00 00 00 00 00 
   684)       610.4  Rx         0021  5  00 00 00 00 00 
   685)       618.4  Rx         0022  5  0B 00 31 24 03 
   686)       618.7  Rx         0021  5  00 00 00 00 00 
   687)       619.1  Rx         0023  5  00 00 00 00 00 
   688)       619.3  Rx         0020  5  0A 00 55 14 03 
   689)       621.9  Rx         0020  5  0A 00 55 14 01 
   690)       622.4  Rx         0021  5  00 00 00 00 00 
   691)       627.7  Rx         0020  5  0A 00 53 14 01 
   692)       627.8  Rx         0023  5  00 00 00 00 00 
   693)       628.3  Rx         0021  5  00 00 00 00 00 
   694)       628.5  Rx         0022  5  0B 00 32 24 01 
   695)       631.8  Rx         0021  5  00 00 00 00 00 
   696)       633.6  Rx         0020  5  0A 00 51 14 01 
   697)       637.1  Rx         0020  5  0A 00 50 14 01 
   698)       637.4  Rx         0022  5  0B 00 32 24 01 
   699)       640.7  Rx         0020  5  0A 00 4F 14 01 
   700)       640.9  Rx         0022  5  0B 00 32 24 01 
   701)       641.3  Rx         0021  5  00 00 00 00 00 
   702)       641.5  Rx         0023  5  00 00 00 00 00 
   703)       643.7  Rx         0021  5  00 00 00 00 00 
   704)       644.8  Rx         0021  5  00 00 00 00 00 
   705)       648.3  Rx         0021  5  00 00 00 00 00 
   706)       648.5  Rx         0022  5  0B 00 32 24 01 
   707)       649.0  Rx         0020  5  0A 00 4C 14 03 
   708)       649.2  Rx         0023  5  00 00 00 00 00 
   709)       652.5  Rx         0020  5  0A 00 4B 14 03 
   710)       652.7  Rx         0023  5  00 00 00 00 00 
   711)       653.1  Rx         0021  5  00 00 00 00 00 
   712)       653.3  Rx         0022  5  0B 00 32 24 01 
   713)       654.9  Rx         0020  5  0A 00 4B 14 01 
   714)       658.1  Rx         0021  5  00 00 00 00 00 
   715)       658.3  Rx         0022  5  0B 00 32 24 03 
   716)       658.8  Rx         0020  5  0A 00 49 14 03 
   717)       658.9  Rx         0023  5  00 00 00 00 00 
   718)       662.3  Rx         0020  5  0A 00 48 14 03 
   719)       662.5  Rx         0023  5  00 00 00 00 00 
   720)       664.7  Rx         0020  5  0A 00 48 14 01 
   721)       669.1  Rx         0022  5  0B 00 32 24 03 
   722)       669.7  Rx         0020  5  0A 00 46 14 03 
   723)       669.8  Rx         0023  5  00 00 00 00 00 
   724)       672.0  Rx         0020  5  0A 00 46 14 01 
   725)       672.2  Rx         0023  5  00 00 00 00 00 
   726)       672.6  Rx         0021  5  00 00 00 00 00 
   727)       672.8  Rx         0022  5  0B 00 32 24 03 
   728)       676.7  Rx         0020  5  0A 00 44 14 03 
   729)       677.9  Rx         0020  5  0A 00 44 14 01 
   730)       678.2  Rx         0026  6  A4 83 E8 8D 8E 03 
   731)       678.5  Rx         0021  5  00 00 00 00 00 
   732)       678.6  Rx         0022  5  0B 00 33 24 01 
   733)       679.1  Rx         0020  5  0A 00 44 14 01 
   734)       679.3  Rx         0023  5  00 00 00 00 00 
   735)       681.4  Rx         0020  5  0A 00 43 14 01 
   736)       681.6  Rx         0023  5  00 00 00 00 00 
   737)       682.1  Rx         0021  5  00 00 00 00 00 
   738)       682.3  Rx         0022  5  0B 00 33 24 01 
   739)       687.4  Rx         0020  5  0A 00 42 14 01 
   740)       687.9  Rx         0021  5  00 00 00 00 00 
   741)       688.4  Rx         0026  6  8D 83 DD 8D 82 03 
   742)       688.6  Rx         0020  5  0A 00 42 14 01 
   743)       690.7  Rx         0023  5  00 00 00 00 00 
   744)       691.2  Rx         0020  5  0A 00 41 14 03 
   745)       691.3  Rx         0022  5  0B 00 33 24 03 
   746)       693.5  Rx         0020  5  0A 00 40 14 03 
   747)       693.7  Rx         0022  5  0B 00 33 24 03 
   748)       697.6  Rx         0021  5  00 00 00 00 00 
   749)       697.8  Rx         0023  5  00 00 00 00 00 
   750)       698.3  Rx         0020  5  0A 00 40 14 01 
   751)       700.0  Rx         0022  5  0B 00 34 24 01 
   752)       700.5  Rx         0021  5  00 00 00 00 00 
   753)       700.6  Rx         0023  5  00 00 00 00 00 
   754)       701.1  Rx         0020  5  0A 00 3F 14 01 
   755)       701.3  Rx         0022  5  0B 00 34 24 01 
   756)       703.5  Rx         0020  5  0A 00 3E 14 03 
   757)       703.6  Rx         0022  5  0B 00 34 24 01 
   758)       707.6  Rx         0021  5  00 00 00 00 00 
   759)       707.7  Rx         0023  5  00 00 00 00 00 
   760)       708.2  Rx         0020  5  0A 00 3E 14 01 
   761)       708.8  Rx         0021  5  00 00 00 00 00 
   762)       709.3  Rx         0020  5  0A 00 3D 14 03 
   763)       709.4  Rx         0026  6  82 83 D1 8D 77 03 
   764)       709.8  Rx         0021  5  00 00 00 00 00 
   765)       710.0  Rx         0022  5  0B 00 34 24 01 
   766)       710.3  Rx         0020  5  0A 00 3D 14 01 
   767)       710.5  Rx         0023  5  00 00 00 00 00 
   768)       710.8  Rx         0021  5  00 00 00 00 00 
   769)       711.0  Rx         0022  5  0B 00 34 24 01 
   770)       711.4  Rx         0020  5  0A 00 3D 14 01 
   771)       711.6  Rx         0023  5  00 00 00 00 00 
   772)       712.0  Rx         0021  5  00 00 00 00 00 
   773)       712.2  Rx         0022  5  0B 00 34 24 01 
   774)       712.6  Rx         0020  5  0A 00 3D 14 01 
   775)       712.8  Rx         0023  5  00 00 00 00 00 
   776)       713.2  Rx         0021  5  00 00 00 00 00 
   777)       713.4  Rx         0022  5  0B 00 34 24 01 
   778)       713.8  Rx         0020  5  0A 00 3D 14 01 
   779)       714.0  Rx         0023  5  00 00 00 00 00 
   780)       714.4  Rx         0021  5  00 00 00 00 00 
   781)       714.6  Rx         0022  5  0B 00 34 24 01 
   782)       715.0  Rx         0020  5  0A 00 3C 14 03 
   783)       715.2  Rx         0023  5  00 00 00 00 00 
   784)       715.6  Rx         0021  5  00 00 00 00 00 
   785)       715.8  Rx         0022  5  0B 00 34 24 01 
   786)       716.2  Rx         0020  5  0A 00 3C 14 01 
   787)       716.4  Rx         0023  5  00 00 00 00 00 
   788)       716.8  Rx         0021  5  00 00 00 00 00 
   789)       717.0  Rx         0022  5  0B 00 34 24 01 
   790)       717.4  Rx         0020  5  0A 00 3C 14 01 
   791)       717.6  Rx         0023  5  00 00 00 00 00 
   792)       718.0  Rx         0021  5  00 00 00 00 00 
   793)       718.2  Rx         0022  5  0B 00 34 24 01 
   794)       718.6  Rx         0020  5  0A 00 3B 14 03 
   795)       718.8  Rx         0023  5  00 00 00 00 00 
   796)       719.3  Rx         0021  5  00 00 00 00 00 
   797)       719.8  Rx         0020  5  0A 00 3B 14 03 
   798)       720.3  Rx         0021  5  00 00 00 00 00 
   799)       720.5  Rx         0026  6  82 83 C6 8D 77 03 
   800)       720.8  Rx         0020  5  0A 00 3B 14 03 
   801)       721.0  Rx         0022  5  0B 00 34 24 01 
   802)       721.3  Rx         0021  5  00 00 00 00 00 
   803)       721.5  Rx         0023  5  00 00 00 00 00 
   804)       721.8  Rx         0020  5  0A 00 3B 14 03 
   805)       722.0  Rx         0022  5  0B 00 34 24 01 
   806)       722.5  Rx         0021  5  00 00 00 00 00 
   807)       722.6  Rx         0023  5  00 00 00 00 00 
   808)       723.1  Rx         0020  5  0A 00 3B 14 01 
   809)       723.3  Rx         0022  5  0B 00 34 24 01 
   810)       723.7  Rx         0021  5  00 00 00 00 00 
   811)       724.0  Rx         0023  5  00 00 00 00 00 
   812)       724.4  Rx         0020  5  0A 00 3A 14 03 
   813)       724.6  Rx         0022  5  0B 00 34 24 01 
   814)       725.0  Rx         0021  5  00 00 00 00 00 
   815)       725.2  Rx         0023  5  00 00 00 00 00 
   816)       725.7  Rx         0020  5  0A 00 3A 14 03 
   817)       725.9  Rx         0022  5  0B 00 34 24 01 
   818)       726.3  Rx         0021  5  00 00 00 00 00 
   819)       726.5  Rx         0023  5  00 00 00 00 00 
   820)       726.9  Rx         0020  5  0A 00 3A 14 01 
   821)       727.2  Rx         0022  5  0B 00 34 24 01 
   822)       727.6  Rx         0021  5  00 00 00 00 00 
   823)       727.8  Rx         0023  5  00 00 00 00 00 
   824)       728.3  Rx         0020  5  0A 00 3A 14 01 
   825)       728.4  Rx         0022  5  0B 00 34 24 01 
   826)       728.9  Rx         0021  5  00 00 00 00 00 
   827)       729.1  Rx         0023  5  00 00 00 00 00 
   828)       729.5  Rx         0020  5  0A 00 39 14 03 
   829)       729.7  Rx         0022  5  0B 00 34 24 01 
   830)       730.2  Rx         0021  5  00 00 00 00 00 
   831)       730.4  Rx         0023  5  00 00 00 00 00 
   832)       730.8  Rx         0020  5  0A 00 39 14 03 
   833)       732.6  Rx         0021  5  00 00 00 00 00 
   834)       734.4  Rx         0020  5  0A 00 39 14 01 
   835)       734.6  Rx         0023  5  00 00 00 00 00 
   836)       735.1  Rx         0021  5  00 00 00 00 00 
   837)       735.2  Rx         0022  5  0B 00 34 24 01 
   838)       735.7  Rx         0020  5  0A 00 38 14 03 
   839)       735.9  Rx         0023  5  00 00 00 00 00 
   840)       736.3  Rx         0021  5  00 00 00 00 00 
   841)       736.5  Rx         0022  5  0B 00 34 24 01 
   842)       737.0  Rx         0020  5  0A 00 38 14 03 
   843)       737.2  Rx         0023  5  00 00 00 00 00 
   844)       737.6  Rx         0021  5  00 00 00 00 00 
   845)       737.8  Rx         0022  5  0B 00 34 24 01 
   846)       738.2  Rx         0020  5  0A 00 38 14 01 
   847)       738.3  Rx         0023  5  00 00 00 00 00 
   848)       744.5  Rx         0026  6  76 83 C6 8D 6C 03 
   849)       745.0  Rx         0021  5  00 00 00 00 00 
   850)       745.1  Rx         0022  5  0B 00 34 24 01 
   851)       747.3  Rx         0021  5  00 00 00 00 00 
   852)       747.5  Rx         0022  5  0B 00 34 24 01 
   853)       749.6  Rx         0021  5  00 00 00 00 00 
   854)       749.8  Rx         0022  5  0B 00 34 24 01 
   855)       750.3  Rx         0020  5  0A 00 36 14 01 
   856)       750.5  Rx         0023  5  00 00 00 00 00 
   857)       752.6  Rx         0020  5  0A 00 36 14 01 
   858)       754.2  Rx         0026  6  76 83 C6 8D 6C 03 
   859)       754.4  Rx         0021  5  00 00 00 00 00 
   860)       754.9  Rx         0022  5  0B 00 34 24 01 
   861)       755.1  Rx         0020  5  0A 00 36 14 01 
   862)       759.0  Rx         0023  5  00 00 00 00 00 
   863)       759.3  Rx         0021  5  00 00 00 00 00 
   864)       759.7  Rx         0022  5  0B 00 34 24 01 
   865)       759.9  Rx         0020  5  0A 00 35 14 01 
   866)       762.0  Rx         0022  5  0B 00 34 24 01 
   867)       762.2  Rx         0020  5  0A 00 35 14 01 
   868)       762.7  Rx         0023  5  00 00 00 00 00 
   869)       762.9  Rx         0021  5  00 00 00 00 00 
   870)       764.7  Rx         0020  5  0A 00 35 14 01 
   871)       765.8  Rx         0020  5  0A 00 35 14 01 
   872)       766.3  Rx         0021  5  00 00 00 00 00 
   873)       766.5  Rx         0026  6  6B 83 C6 8D 60 03 
   874)       767.0  Rx         0020  5  0A 00 35 14 01 
   875)       767.1  Rx         0022  5  0B 00 34 24 01 
   876)       767.6  Rx         0021  5  00 00 00 00 00 
   877)       767.7  Rx         0023  5  00 00 00 00 00 
   878)       768.2  Rx         0020  5  0A 00 35 14 01 
   879)       768.3  Rx         0022  5  0B 00 34 24 01 
   880)       768.8  Rx         0021  5  00 00 00 00 00 
   881)       769.0  Rx         0023  5  00 00 00 00 00 
   882)       769.4  Rx         0020  5  0A 00 35 14 01 
   883)       769.6  Rx         0022  5  0B 00 34 24 01 
   884)       770.0  Rx         0021  5  00 00 00 00 00 
   885)       770.2  Rx         0023  5  00 00 00 00 00 
   886)       770.6  Rx         0020  5  0A 00 34 14 03 
   887)       770.8  Rx         0022  5  0B 00 34 24 01 
   888)       771.2  Rx         0021  5  00 00 00 00 00 
   889)       771.4  Rx         0023  5  00 00 00 00 00 
   890)       771.8  Rx         0020  5  0A 00 34 14 03 
   891)       772.0  Rx         0022  5  0B 00 34 24 01 
   892)       772.4  Rx         0021  5  00 00 00 00 00 
   893)       772.6  Rx         0023  5  00 00 00 00 00 
   894)       773.0  Rx         0020  5  0A 00 34 14 03 
   895)       773.2  Rx         0022  5  0B 00 34 24 01 
   896)       773.6  Rx         0021  5  00 00 00 00 00 
   897)       773.8  Rx         0023  5  00 00 00 00 00 
   898)       774.2  Rx         0020  5  0A 00 34 14 03 
   899)       774.4  Rx         0022  5  0B 00 34 24 01 
   900)       774.8  Rx         0021  5  00 00 00 00 00 
   901)       775.0  Rx         0023  5  00 00 00 00 00 
   902)       775.4  Rx         0020  5  0A 00 34 14 03 
   903)       777.2  Rx         0021  5  00 00 00 00 00 
   904)       777.4  Rx         0026  6  60 83 C6 8D 60 03 
   905)       777.9  Rx         0020  5  0A 00 34 14 03 
   906)       778.1  Rx         0022  5  0B 00 34 24 01 
   907)       778.5  Rx         0021  5  00 00 00 00 00 
   908)       778.7  Rx         0023  5  00 00 00 00 00 
   909)       779.1  Rx         0020  5  0A 00 34 14 03 
   910)       779.3  Rx         0022  5  0B 00 34 24 01 
   911)       779.7  Rx         0021  5  00 00 00 00 00 
   912)       779.9  Rx         0023  5  00 00 00 00 00 
   913)       780.3  Rx         0020  5  0A 00 34 14 03 
   914)       780.5  Rx         0022  5  0B 00 34 24 01 
   915)       780.9  Rx         0021  5  00 00 00 00 00 
   916)       781.1  Rx         0023  5  00 00 00 00 00 
   917)       781.5  Rx         0020  5  0A 00 34 14 03 
   918)       781.7  Rx         0022  5  0B 00 34 24 01 
   919)       782.1  Rx         0021  5  00 00 00 00 00 
   920)       782.3  Rx         0023  5  00 00 00 00 00 
   921)       782.7  Rx         0020  5  0A 00 34 14 03 
   922)       782.9  Rx         0022  5  0B 00 34 24 01 
   923)       783.3  Rx         0021  5  00 00 00 00 00 
   924)       783.5  Rx         0023  5  00 00 00 00 00 
   925)       783.9  Rx         0020  5  0A 00 34 14 03 
   926)       784.1  Rx         0022  5  0B 00 34 24 01 
   927)       784.6  Rx         0021  5  00 00 00 00 00 
   928)       784.7  Rx         0023  5  00 00 00 00 00 
   929)       785.2  Rx         0020  5  0A 00 34 14 03 
   930)       785.3  Rx         0022  5  0B 00 34 24 01 
   931)       785.8  Rx         0021  5  00 00 00 00 00 
   932)       785.9  Rx         0023  5  00 00 00 00 00 
   933)       786.4  Rx         0020  5  0A 00 34 14 03 
   934)       786.6  Rx         0022  5  0B 00 34 24 01 
   935)       787.0  Rx         0021  5  00 00 00 00 00 
   936)       787.2  Rx         0023  5  00 00 00 00 00 
   937)       787.6  Rx         0020  5  0A 00 34 14 03 
   938)       790.0  Rx         0020  5  0A 00 34 14 03 
   939)       790.2  Rx         0022  5  0B 00 34 24 01 
   940)       790.7  Rx         0021  5  00 00 00 00 00 
   941)       790.8  Rx         0023  5  00 00 00 00 00 
   942)       791.3  Rx         0020  5  0A 00 34 14 03 
   943)       791.5  Rx         0022  5  0B 00 34 24 01 
   944)       791.9  Rx         0021  5  00 00 00 00 00 
   945)       792.1  Rx         0023  5  00 00 00 00 00 
   946)       792.6  Rx         0020  5  0A 00 34 14 03 
   947)       792.8  Rx         0022  5  0B 00 34 24 01 
   948)       793.2  Rx         0021  5  00 00 00 00 00 
   949)       793.4  Rx         0023  5  00 00 00 00 00 
   950)       793.8  Rx         0020  5  0A 00 34 14 03 
   951)       794.0  Rx         0022  5  0B 00 34 24 01 
   952)       794.4  Rx         0021  5  00 00 00 00 00 
   953)       794.5  Rx         0023  5  00 00 00 00 00 
   954)       794.9  Rx         0020  5  0A 00 34 14 03 
   955)       795.1  Rx         0022  5  0B 00 34 24 01 
   956)       795.6  Rx         0021  5  00 00 00 00 00 
   957)       795.8  Rx         0023  5  00 00 00 00 00 
   958)       796.3  Rx         0020  5  0A 00 34 14 03 
   959)       796.4  Rx         0022  5  0B 00 34 24 01 
   960)       796.9  Rx         0021  5  00 00 00 00 00 
   961)       797.1  Rx         0023  5  00 00 00 00 00 
   962)       797.5  Rx         0020  5  0A 00 34 14 03 
   963)       800.9  Rx         0022  5  0B 00 34 24 01 
   964)       801.1  Rx         0020  5  0A 00 34 14 03 
   965)       801.6  Rx         0023  5  00 00 00 00 00 
   966)       801.8  Rx         0021  5  00 00 00 00 00 
   967)       802.2  Rx         0022  5  0B 00 34 24 03 
   968)       802.4  Rx         0020  5  0A 00 34 14 03 
   969)       802.9  Rx         0023  5  00 00 00 00 00 
   970)       803.1  Rx         0021  5  00 00 00 00 00 
   971)       803.5  Rx         0022  5  0B 00 34 24 03 
   972)       803.7  Rx         0020  5  0A 00 34 14 03 
   973)       804.1  Rx         0023  5  00 00 00 00 00 
   974)       804.3  Rx         0021  5  00 00 00 00 00 
   975)       804.7  Rx         0022  5  0B 00 34 24 03 
   976)       804.9  Rx         0020  5  0A 00 34 14 03 
   977)       805.3  Rx         0023  5  00 00 00 00 00 
   978)       805.5  Rx         0021  5  00 00 00 00 00 
   979)       805.9  Rx         0022  5  0B 00 34 24 03 
   980)       806.1  Rx         0020  5  0A 00 34 14 03 
   981)       806.5  Rx         0023  5  00 00 00 00 00 
   982)       806.7  Rx         0021  5  00 00 00 00 00 
   983)       807.2  Rx         0022  5  0B 00 34 24 03 
   984)       807.4  Rx         0020  5  0A 00 34 14 03 
   985)       807.8  Rx         0023  5  00 00 00 00 00 
   986)       808.0  Rx         0021  5  00 00 00 00 00 
   987)       821.3  Rx         0021  5  00 00 00 00 00 
   988)       821.6  Rx         0026  6  32 83 C6 8D 60 03 
   989)       821.8  Rx         0020  5  0A 00 34 14 03 
   990)       822.2  Rx         0022  5  0B 00 35 24 03 
   991)       822.4  Rx         0021  5  00 00 00 00 00 
   992)       828.1  Rx         0022  5  0B 00 36 24 01 
   993)       828.3  Rx         0021  5  00 00 00 00 00 
   994)       828.8  Rx         0023  5  00 00 00 00 00 
   995)       829.0  Rx         0020  5  0A 00 34 14 03 
   996)       831.1  Rx         0023  5  00 00 00 00 00 
   997)       831.6  Rx         0020  5  0A 00 34 14 03 
   998)       832.8  Rx         0020  5  0A 00 34 14 03 
   999)       833.3  Rx         0021  5  00 00 00 00 00 
  1000)       833.8  Rx         0026  6  1B 83 BB 8D 60 03 
  1001)       834.0  Rx         0020  5  0A 00 34 14 03 
  1002)       837.9  Rx         0022  5  0B 00 36 24 03 
  1003)       838.4  Rx         0021  5  00 00 00 00 00 
  1004)       838.6  Rx         0023  5  00 00 00 00 00 
  1005)       840.7  Rx         0021  5  00 00 00 00 00 
  1006)       840.9  Rx         0023  5  00 00 00 00 00 
  1007)       841.4  Rx         0020  5  0A 00 34 14 03 
  1008)       841.5  Rx         0022  5  0B 00 36 24 03 
  1009)       842.0  Rx         0021  5  00 00 00 00 00 
  1010)       842.2  Rx         0023  5  00 00 00 00 00 
  1011)       842.6  Rx         0020  5  0A 00 34 14 03 
  1012)       842.8  Rx         0022  5  0B 00 36 24 03 
  1013)       843.2  Rx         0021  5  00 00 00 00 00 
  1014)       843.4  Rx         0023  5  00 00 00 00 00 
  1015)       843.8  Rx         0020  5  0A 00 34 14 03 
  1016)       844.9  Rx         0020  5  0A 00 34 14 03 
  1017)       845.4  Rx         0021  5  00 00 00 00 00 
  1018)       845.9  Rx         0026  6  1B 83 C6 8D 60 03 
  1019)       846.1  Rx         0020  5  0A 00 34 14 03 
  1020)       846.5  Rx         0022  5  0B 00 36 24 03 
  1021)       846.7  Rx         0021  5  00 00 00 00 00 
  1022)       847.1  Rx         0023  5  00 00 00 00 00 
  1023)       847.3  Rx         0020  5  0A 00 34 14 03 
  1024)       847.7  Rx         0022  5  0B 00 37 24 01 
  1025)       847.9  Rx         0021  5  00 00 00 00 00 
  1026)       848.3  Rx         0023  5  00 00 00 00 00 
  1027)       848.5  Rx         0020  5  0A 00 34 14 03 
  1028)       848.9  Rx         0022  5  0B 00 37 24 01 
  1029)       849.1  Rx         0021  5  00 00 00 00 00 
  1030)       849.5  Rx         0023  5  00 00 00 00 00 
  1031)       849.7  Rx         0020  5  0A 00 34 14 03 
  1032)       850.1  Rx         0022  5  0B 00 37 24 01 
  1033)       850.3  Rx         0021  5  00 00 00 00 00 
  1034)       850.7  Rx         0023  5  00 00 00 00 00 
  1035)       850.9  Rx         0020  5  0A 00 34 14 03 
  1036)       851.3  Rx         0022  5  0B 00 37 24 01 
  1037)       851.5  Rx         0021  5  00 00 00 00 00 
  1038)       852.0  Rx         0023  5  00 00 00 00 00 
  1039)       852.1  Rx         0020  5  0A 00 34 14 03 
  1040)       852.6  Rx         0022  5  0B 00 37 24 01 
  1041)       852.7  Rx         0021  5  00 00 00 00 00 
  1042)       853.2  Rx         0023  5  00 00 00 00 00 
  1043)       853.3  Rx         0020  5  0A 00 34 14 03 
  1044)       853.7  Rx         0022  5  0B 00 37 24 01 
  1045)       854.0  Rx         0021  5  00 00 00 00 00 
  1046)       854.3  Rx         0023  5  00 00 00 00 00 
  1047)       854.6  Rx         0020  5  0A 00 34 14 03 
  1048)       855.0  Rx         0022  5  0B 00 37 24 01 
  1049)       855.2  Rx         0021  5  00 00 00 00 00 
  1050)       855.6  Rx         0023  5  00 00 00 00 00 
  1051)       855.8  Rx         0020  5  0A 00 34 14 03 
  1052)       857.5  Rx         0026  6  05 83 C6 8D 60 03 
  1053)       857.7  Rx         0021  5  00 00 00 00 00 
  1054)       858.0  Rx         0022  5  0B 00 37 24 01 
  1055)       858.2  Rx         0020  5  0A 00 34 14 03 
  1056)       858.5  Rx         0023  5  00 00 00 00 00 
  1057)       858.7  Rx         0021  5  00 00 00 00 00 
  1058)       859.2  Rx         0022  5  0B 00 37 24 01 
  1059)       859.4  Rx         0020  5  0A 00 34 14 03 
  1060)       859.9  Rx         0023  5  00 00 00 00 00 
  1061)       860.0  Rx         0021  5  00 00 00 00 00 
  1062)       868.3  Rx         0021  5  00 00 00 00 00 
  1063)       868.6  Rx         0026  6  05 83 C6 8D 60 03 
  1064)       868.9  Rx         0020  5  0A 00 33 14 01 
  1065)       869.3  Rx         0022  5  0B 00 37 24 03 
  1066)       869.5  Rx         0021  5  00 00 00 00 00 
  1067)       872.8  Rx         0022  5  0B 00 37 24 03 
  1068)       873.0  Rx         0021  5  00 00 00 00 00 
  1069)       873.3  Rx         0023  5  00 00 00 00 00 
  1070)       873.6  Rx         0020  5  0A 00 32 14 03 
  1071)       873.8  Rx         0022  5  0B 00 37 24 03 
  1072)       874.1  Rx         0021  5  00 00 00 00 00 
  1073)       874.4  Rx         0023  5  00 00 00 00 00 
  1074)       874.6  Rx         0020  5  0A 00 32 14 03 
  1075)       874.9  Rx         0022  5  0B 00 37 24 03 
  1076)       875.1  Rx         0021  5  00 00 00 00 00 
  1077)       875.4  Rx         0023  5  00 00 00 00 00 
  1078)       879.4  Rx         0020  5  0A 00 32 14 01 
  1079)       879.5  Rx         0026  6  F9 82 C6 8D 55 03 
  1080)       879.9  Rx         0021  5  00 00 00 00 00 
  1081)       880.0  Rx         0022  5  0B 00 38 24 01 
  1082)       880.5  Rx         0020  5  0A 00 31 14 03 
  1083)       880.7  Rx         0023  5  00 00 00 00 00 
  1084)       887.6  Rx         0020  5  0A 00 30 14 03 
  1085)       887.9  Rx         0023  5  00 00 00 00 00 
  1086)       890.0  Rx         0020  5  0A 00 30 14 03 
  1087)       891.2  Rx         0020  5  0A 00 30 14 01 
  1088)       898.3  Rx         0020  5  0A 00 2E 14 03 
  1089)       898.5  Rx         0022  5  0B 00 38 24 03 
  1090)       898.7  Rx         0022  5  0B 00 38 20 00 
  1091)       898.9  Rx         0021  5  00 00 00 00 00 
  1092)       899.1  Rx         0023  5  00 00 00 00 00 
  1093)       901.3  Rx         0021  5  00 00 00 00 00 
  1094)       902.9  Rx         0026  6  F9 82 BB 8D 49 03 
  1095)       903.1  Rx         0020  5  0A 00 2D 14 03 
  1096)       903.5  Rx         0022  5  0B 00 39 24 01 
  1097)       903.7  Rx         0021  5  00 00 00 00 00 
  1098)       904.2  Rx         0023  5  00 00 00 00 00 
  1099)       904.4  Rx         0020  5  0A 00 2D 14 03 
  1100)       910.0  Rx         0023  5  00 00 00 00 00 
  1101)       910.3  Rx         0020  5  0A 00 2C 14 03 
  1102)       910.8  Rx         0022  5  0B 00 39 24 03 
  1103)       910.9  Rx         0021  5  00 00 00 00 00 
  1104)       912.1  Rx         0021  5  00 00 00 00 00 
  1105)       913.2  Rx         0021  5  00 00 00 00 00 
  1106)       918.6  Rx         0020  5  0A 00 2A 14 01 
  1107)       918.8  Rx         0023  5  00 00 00 00 00 
  1108)       919.3  Rx         0021  5  00 00 00 00 00 
  1109)       919.5  Rx         0022  5  0B 00 3A 24 01 
  1110)       921.6  Rx         0021  5  00 00 00 00 00 
  1111)       923.4  Rx         0020  5  0A 00 29 14 01 
  1112)       923.9  Rx         0026  6  05 83 AF 8D 3E 03 
  1113)       924.1  Rx         0021  5  00 00 00 00 00 
  1114)       924.6  Rx         0022  5  0B 00 3A 24 03 
  1115)       924.7  Rx         0020  5  0A 00 28 14 03 
  1116)       928.7  Rx         0023  5  00 00 00 00 00 
  1117)       929.1  Rx         0021  5  00 00 00 00 00 
  1118)       929.3  Rx         0022  5  0B 00 3A 24 03 
  1119)       931.5  Rx         0021  5  00 00 00 00 00 
  1120)       931.7  Rx         0022  5  0B 00 3A 24 03 
  1121)       932.1  Rx         0020  5  0A 00 27 14 01 
  1122)       932.3  Rx         0023  5  00 00 00 00 00 
  1123)       933.3  Rx         0020  5  0A 00 27 14 01 
  1124)       933.8  Rx         0021  5  00 00 00 00 00 
  1125)       934.3  Rx         0020  5  0A 00 26 14 03 
  1126)       935.5  Rx         0020  5  0A 00 26 14 01 
  1127)       935.7  Rx         0022  5  0B 00 3A 24 03 
  1128)       936.0  Rx         0021  5  00 00 00 00 00 
  1129)       936.2  Rx         0023  5  00 00 00 00 00 
  1130)       936.6  Rx         0020  5  0A 00 26 14 01 
  1131)       936.8  Rx         0022  5  0B 00 3A 24 03 
  1132)       937.2  Rx         0021  5  00 00 00 00 00 
  1133)       937.4  Rx         0023  5  00 00 00 00 00 
  1134)       937.8  Rx         0020  5  0A 00 26 14 01 
  1135)       938.0  Rx         0022  5  0B 00 3A 24 03 
  1136)       938.4  Rx         0021  5  00 00 00 00 00 
  1137)       938.6  Rx         0023  5  00 00 00 00 00 
  1138)       939.0  Rx         0020  5  0A 00 25 14 03 
  1139)       939.2  Rx         0022  5  0B 00 3A 24 03 
  1140)       939.6  Rx         0021  5  00 00 00 00 00 
  1141)       939.8  Rx         0023  5  00 00 00 00 00 
  1142)       940.2  Rx         0020  5  0A 00 25 14 01 
  1143)       940.4  Rx         0022  5  0B 00 3A 24 03 
  1144)       940.9  Rx         0021  5  00 00 00 00 00 
  1145)       941.0  Rx         0023  5  00 00 00 00 00 
  1146)       941.5  Rx         0020  5  0A 00 25 14 01 
  1147)       941.6  Rx         0022  5  0B 00 3A 24 03 
  1148)       942.1  Rx         0021  5  00 00 00 00 00 
  1149)       942.3  Rx         0023  5  00 00 00 00 00 
  1150)       942.7  Rx         0020  5  0A 00 24 14 03 
  1151)       942.9  Rx         0022  5  0B 00 3A 24 03 
  1152)       943.3  Rx         0021  5  00 00 00 00 00 
  1153)       943.5  Rx         0023  5  00 00 00 00 00 
  1154)       943.9  Rx         0020  5  0A 00 24 14 03 
  1155)       944.4  Rx         0021  5  00 00 00 00 00 
  1156)       944.9  Rx         0020  5  0A 00 24 14 01 
  1157)       945.4  Rx         0021  5  00 00 00 00 00 
  1158)       945.9  Rx         0020  5  0A 00 24 14 01 
  1159)       946.2  Rx         0026  6  05 83 A4 8D 33 03 
  1160)       946.5  Rx         0021  5  00 00 00 00 00 
  1161)       946.8  Rx         0022  5  0B 00 3B 24 01 
  1162)       947.1  Rx         0020  5  0A 00 24 14 01 
  1163)       947.4  Rx         0023  5  00 00 00 00 00 
  1164)       947.7  Rx         0021  5  00 00 00 00 00 
  1165)       947.9  Rx         0022  5  0B 00 3B 24 01 
  1166)       948.3  Rx         0020  5  0A 00 23 14 03 
  1167)       948.5  Rx         0023  5  00 00 00 00 00 
  1168)       948.9  Rx         0021  5  00 00 00 00 00 
  1169)       949.1  Rx         0022  5  0B 00 3B 24 01 
  1170)       949.5  Rx         0020  5  0A 00 23 14 03 
  1171)       949.7  Rx         0023  5  00 00 00 00 00 
  1172)       950.1  Rx         0021  5  00 00 00 00 00 
  1173)       950.3  Rx         0022  5  0B 00 3B 24 01 
  1174)       950.7  Rx         0020  5  0A 00 23 14 01 
  1175)       950.9  Rx         0023  5  00 00 00 00 00 
  1176)       951.3  Rx         0021  5  00 00 00 00 00 
  1177)       951.5  Rx         0022  5  0B 00 3B 24 01 
  1178)       951.9  Rx         0020  5  0A 00 22 14 03 
  1179)       952.1  Rx         0023  5  00 00 00 00 00 
  1180)       952.5  Rx         0021  5  00 00 00 00 00 
  1181)       952.7  Rx         0022  5  0B 00 3B 24 01 
  1182)       953.1  Rx         0020  5  0A 00 22 14 03 
  1183)       953.3  Rx         0023  5  00 00 00 00 00 
  1184)       953.7  Rx         0021  5  00 00 00 00 00 
  1185)       953.9  Rx         0022  5  0B 00 3B 24 01 
  1186)       954.3  Rx         0020  5  0A 00 22 14 03 
  1187)       954.5  Rx         0023  5  00 00 00 00 00 
  1188)       954.9  Rx         0021  5  00 00 00 00 00 
  1189)       955.1  Rx         0022  5  0B 00 3B 24 01 
  1190)       955.5  Rx         0020  5  0A 00 22 14 01 
  1191)       955.7  Rx         0023  5  00 00 00 00 00 
  1192)       956.1  Rx         0021  5  00 00 00 00 00 
  1193)       958.7  Rx         0023  5  00 00 00 00 00 
  1194)       959.0  Rx         0020  5  0A 00 21 14 03 
  1195)       959.5  Rx         0022  5  0B 00 3B 24 01 
  1196)       959.6  Rx         0021  5  00 00 00 00 00 
  1197)       960.1  Rx         0023  5  00 00 00 00 00 
  1198)       960.3  Rx         0020  5  0A 00 21 14 03 
  1199)       960.8  Rx         0022  5  0B 00 3B 24 01 
  1200)       960.9  Rx         0021  5  00 00 00 00 00 
  1201)       969.6  Rx         0022  5  0B 00 3B 24 01 
  1202)       969.8  Rx         0020  5  0A 00 1F 14 03 
  1203)       970.3  Rx         0023  5  00 00 00 00 00 
  1204)       970.4  Rx         0021  5  00 00 00 00 00 
  1205)       972.6  Rx         0023  5  00 00 00 00 00 
  1206)       972.8  Rx         0021  5  00 00 00 00 00 
  1207)       973.3  Rx         0022  5  0B 00 3B 24 01 
  1208)       973.5  Rx         0020  5  0A 00 1F 14 01 
  1209)       978.2  Rx         0020  5  0A 00 1E 14 01 
  1210)       979.1  Rx         0026  6  10 83 8D 8D 11 03 
  1211)       979.3  Rx         0020  5  0A 00 1E 14 01 
  1212)       979.8  Rx         0022  5  0B 00 3B 24 01 
  1213)       980.0  Rx         0021  5  00 00 00 00 00 
  1214)       982.1  Rx         0022  5  0B 00 3B 24 01 
  1215)       982.6  Rx         0021  5  00 00 00 00 00 
  1216)       982.8  Rx         0023  5  00 00 00 00 00 
  1217)       988.5  Rx         0021  5  00 00 00 00 00 
  1218)       988.7  Rx         0023  5  00 00 00 00 00 
  1219)       989.7  Rx         0021  5  00 00 00 00 00 
  1220)       990.8  Rx         0021  5  00 00 00 00 00 
  1221)       991.1  Rx         0026  6  1B 83 82 8D 11 03 
  1222)       991.5  Rx         0020  5  0A 00 1C 14 01 
  1223)       991.7  Rx         0022  5  0B 00 3B 24 03 
  1224)       993.9  Rx         0020  5  0A 00 1B 14 03 
  1225)       994.1  Rx         0022  5  0B 00 3C 24 01 
  1226)       994.5  Rx         0021  5  00 00 00 00 00 
  1227)       994.7  Rx         0023  5  00 00 00 00 00 
  1228)       995.7  Rx         0021  5  00 00 00 00 00 
  1229)       995.9  Rx         0023  5  00 00 00 00 00 
  1230)       996.2  Rx         0020  5  0A 00 1B 14 03 
  1231)       996.4  Rx         0022  5  0B 00 3C 24 01 
  1232)       996.9  Rx         0021  5  00 00 00 00 00 
  1233)       997.1  Rx         0023  5  00 00 00 00 00 
  1234)       997.5  Rx         0020  5  0A 00 1B 14 01 
  1235)       997.7  Rx         0022  5  0B 00 3C 24 01 
  1236)       998.1  Rx         0021  5  00 00 00 00 00 
  1237)       998.3  Rx         0023  5  00 00 00 00 00 
  1238)       998.7  Rx         0020  5  0A 00 1B 14 01 
  1239)       998.9  Rx         0022  5  0B 00 3C 24 01 
  1240)       999.3  Rx         0021  5  00 00 00 00 00 
  1241)       999.5  Rx         0023  5  00 00 00 00 00 
  1242)       999.9  Rx         0020  5  0A 00 1A 14 03 
  1243)      1001.0  Rx         0020  5  0A 00 1A 14 03 
  1244)      1001.6  Rx         0021  5  00 00 00 00 00 
  1245)      1001.9  Rx         0026  6  1B 83 76 8D 11 03 
  1246)      1002.1  Rx         0020  5  0A 00 1A 14 03 
  1247)      1002.3  Rx         0022  5  0B 00 3C 24 01 
  1248)      1002.6  Rx         0021  5  00 00 00 00 00 
  1249)      1002.8  Rx         0023  5  00 00 00 00 00 
  1250)      1003.1  Rx         0020  5  0A 00 1A 14 03 
  1251)      1003.3  Rx         0022  5  0B 00 3C 24 01 
  1252)      1003.7  Rx         0021  5  00 00 00 00 00 
  1253)      1003.9  Rx         0023  5  00 00 00 00 00 
  1254)      1004.3  Rx         0020  5  0A 00 1A 14 01 
  1255)      1004.5  Rx         0022  5  0B 00 3C 24 03 
  1256)      1004.9  Rx         0021  5  00 00 00 00 00 
  1257)      1005.1  Rx         0023  5  00 00 00 00 00 
  1258)      1005.5  Rx         0020  5  0A 00 1A 14 01 
  1259)      1005.7  Rx         0022  5  0B 00 3C 24 03 
  1260)      1006.2  Rx         0021  5  00 00 00 00 00 
  1261)      1006.3  Rx         0023  5  00 00 00 00 00 
  1262)      1006.7  Rx         0020  5  0A 00 19 14 03 
  1263)      1006.9  Rx         0022  5  0B 00 3C 24 03 
  1264)      1007.4  Rx         0021  5  00 00 00 00 00 
  1265)      1007.5  Rx         0023  5  00 00 00 00 00 
  1266)      1008.0  Rx         0020  5  0A 00 19 14 03 
  1267)      1008.1  Rx         0022  5  0B 00 3C 24 03 
  1268)      1008.6  Rx         0021  5  00 00 00 00 00 
  1269)      1008.8  Rx         0023  5  00 00 00 00 00 
  1270)      1009.2  Rx         0020  5  0A 00 19 14 03 
  1271)      1009.4  Rx         0022  5  0B 00 3C 24 03 
  1272)      1009.8  Rx         0021  5  00 00 00 00 00 
  1273)      1010.0  Rx         0023  5  00 00 00 00 00 
  1274)      1010.3  Rx         0020  5  0A 00 19 14 01 
  1275)      1019.1  Rx         0023  5  00 00 00 00 00 
  1276)      1019.6  Rx         0021  5  00 00 00 00 00 
  1277)      1019.8  Rx         0022  5  0B 00 3D 24 01 
  1278)      1022.6  Rx         0020  5  0A 00 17 14 01 
  1279)      1023.2  Rx         0021  5  00 00 00 00 00 
  1280)      1024.9  Rx         0020  5  0A 00 17 14 01 
  1281)      1025.1  Rx         0022  5  0B 00 3D 24 03 
  1282)      1025.6  Rx         0021  5  00 00 00 00 00 
  1283)      1025.8  Rx         0023  5  00 00 00 00 00 
  1284)      1029.1  Rx         0021  5  00 00 00 00 00 
  1285)      1029.3  Rx         0023  5  00 00 00 00 00 
  1286)      1029.8  Rx         0020  5  0A 00 16 14 01 
  1287)      1030.0  Rx         0022  5  0B 00 3D 24 03 
  1288)      1033.4  Rx         0020  5  0A 00 16 14 01 
  1289)      1035.1  Rx         0021  5  00 00 00 00 00 
  1290)      1038.7  Rx         0021  5  00 00 00 00 00 
  1291)      1038.9  Rx         0022  5  0B 00 3E 24 01 
  1292)      1039.4  Rx         0020  5  0A 00 16 14 01 
  1293)      1039.5  Rx         0023  5  00 00 00 00 00 
  1294)      1042.9  Rx         0020  5  0A 00 15 14 01 
  1295)      1043.1  Rx         0023  5  00 00 00 00 00 
  1296)      1045.3  Rx         0020  5  0A 00 15 14 01 
  1297)      1047.9  Rx         0023  5  00 00 00 00 00 
  1298)      1048.1  Rx         0021  5  00 00 00 00 00 
  1299)      1048.4  Rx         0022  5  0B 00 3F 24 01 
  1300)      1048.6  Rx         0020  5  0A 00 15 14 01 
  1301)      1048.9  Rx         0023  5  00 00 00 00 00 
  1302)      1049.1  Rx         0021  5  00 00 00 00 00 
  1303)      1049.4  Rx         0022  5  0B 00 3F 24 01 
  1304)      1054.6  Rx         0020  5  0A 00 15 14 01 
  1305)      1056.2  Rx         0026  6  32 83 49 8D 11 03 
  1306)      1056.4  Rx         0021  5  00 00 00 00 00 
  1307)      1056.9  Rx         0022  5  0B 00 3F 24 03 
  1308)      1057.0  Rx         0020  5  0A 00 15 14 01 
  1309)      1059.2  Rx         0022  5  0B 00 3F 24 03 
  1310)      1059.4  Rx         0020  5  0A 00 15 14 01 
  1311)      1059.9  Rx         0023  5  00 00 00 00 00 
  1312)      1060.0  Rx         0021  5  00 00 00 00 00 
  1313)      1062.2  Rx         0023  5  00 00 00 00 00 
  1314)      1062.4  Rx         0021  5  00 00 00 00 00 
  1315)      1062.8  Rx         0022  5  0B 00 40 24 01 
  1316)      1063.0  Rx         0020  5  0A 00 15 14 01 
  1317)      1066.6  Rx         0020  5  0A 00 15 14 01 
  1318)      1068.7  Rx         0023  5  00 00 00 00 00 
  1319)      1069.2  Rx         0020  5  0A 00 15 14 01 
  1320)      1069.3  Rx         0022  5  0B 00 40 24 03 
  1321)      1071.5  Rx         0020  5  0A 00 15 14 01 
  1322)      1071.7  Rx         0022  5  0B 00 41 24 01 
  1323)      1072.2  Rx         0021  5  00 00 00 00 00 
  1324)      1072.3  Rx         0023  5  00 00 00 00 00 
  1325)      1074.5  Rx         0021  5  00 00 00 00 00 
  1326)      1074.7  Rx         0023  5  00 00 00 00 00 
  1327)      1078.1  Rx         0021  5  00 00 00 00 00 
  1328)      1078.6  Rx         0020  5  0A 00 15 14 01 
  1329)      1079.0  Rx         0026  6  32 83 32 8D 27 03 
  1330)      1079.2  Rx         0021  5  00 00 00 00 00 
  1331)      1081.3  Rx         0023  5  00 00 00 00 00 
  1332)      1081.5  Rx         0021  5  00 00 00 00 00 
  1333)      1082.0  Rx         0022  5  0B 00 42 24 03 
  1334)      1082.2  Rx         0020  5  0A 00 15 14 01 
  1335)      1084.3  Rx         0022  5  0B 00 42 24 03 
  1336)      1084.5  Rx         0020  5  0A 00 15 14 01 
  1337)      1088.1  Rx         0020  5  0A 00 15 14 01 
  1338)      1088.6  Rx         0021  5  00 00 00 00 00 
  1339)      1089.1  Rx         0026  6  32 83 27 8D 33 03 
  1340)      1089.3  Rx         0020  5  0A 00 15 14 01 
  1341)      1091.4  Rx         0023  5  00 00 00 00 00 
  1342)      1091.6  Rx         0020  5  0A 00 15 14 01 
  1343)      1092.0  Rx         0022  5  0B 00 43 24 03 
  1344)      1092.3  Rx         0021  5  00 00 00 00 00 
  1345)      1094.3  Rx         0022  5  0B 00 44 24 01 
  1346)      1094.6  Rx         0021  5  00 00 00 00 00 
  1347)      1094.9  Rx         0023  5  00 00 00 00 00 
  1348)      1095.1  Rx         0020  5  0A 00 15 14 01 
  1349)      1095.5  Rx         0022  5  0B 00 44 24 01 
  1350)      1095.7  Rx         0021  5  00 00 00 00 00 
  1351)      1096.1  Rx         0023  5  00 00 00 00 00 
  1352)      1096.3  Rx         0020  5  0A 00 15 14 01 
  1353)      1096.7  Rx         0022  5  0B 00 44 24 03 
  1354)      1096.9  Rx         0021  5  00 00 00 00 00 
  1355)      1097.3  Rx         0023  5  00 00 00 00 00 
  1356)      1097.5  Rx         0020  5  0A 00 15 14 01 
  1357)      1097.9  Rx         0022  5  0B 00 44 24 03 
  1358)      1098.1  Rx         0021  5  00 00 00 00 00 
  1359)      1098.5  Rx         0023  5  00 00 00 00 00 
  1360)      1098.7  Rx         0020  5  0A 00 15 14 01 
  1361)      1099.9  Rx         0020  5  0A 00 15 14 01 
  1362)      1100.2  Rx         0026  6  32 83 27 8D 3E 03 
  1363)      1100.4  Rx         0021  5  00 00 00 00 00 
  1364)      1100.7  Rx         0022  5  0B 00 45 24 01 
  1365)      1100.9  Rx         0020  5  0A 00 15 14 01 
  1366)      1101.1  Rx         0023  5  00 00 00 00 00 
  1367)      1101.4  Rx         0021  5  00 00 00 00 00 
  1368)      1101.6  Rx         0022  5  0B 00 45 24 01 
  1369)      1102.0  Rx         0020  5  0A 00 15 14 03 
  1370)      1102.2  Rx         0023  5  00 00 00 00 00 
  1371)      1102.6  Rx         0021  5  00 00 00 00 00 
  1372)      1102.8  Rx         0022  5  0B 00 45 24 03 
  1373)      1103.2  Rx         0020  5  0A 00 15 14 03 
  1374)      1103.4  Rx         0023  5  00 00 00 00 00 
  1375)      1103.8  Rx         0021  5  00 00 00 00 00 
  1376)      1104.0  Rx         0022  5  0B 00 45 24 03 
  1377)      1104.5  Rx         0020  5  0A 00 15 14 03 
  1378)      1104.6  Rx         0023  5  00 00 00 00 00 
  1379)      1105.1  Rx         0021  5  00 00 00 00 00 
  1380)      1105.2  Rx         0022  5  0B 00 45 24 03 
  1381)      1105.7  Rx         0020  5  0A 00 15 14 03 
  1382)      1105.9  Rx         0023  5  00 00 00 00 00 
  1383)      1106.3  Rx         0021  5  00 00 00 00 00 
  1384)      1106.5  Rx         0022  5  0B 00 45 24 03 
  1385)      1106.8  Rx         0020  5  0A 00 16 14 01 
  1386)      1107.0  Rx         0023  5  00 00 00 00 00 
  1387)      1107.3  Rx         0021  5  00 00 00 00 00 
  1388)      1107.5  Rx         0022  5  0B 00 46 24 01 
  1389)      1107.8  Rx         0020  5  0A 00 16 14 01 
  1390)      1108.0  Rx         0023  5  00 00 00 00 00 
  1391)      1108.3  Rx         0021  5  00 00 00 00 00 
  1392)      1108.5  Rx         0022  5  0B 00 46 24 01 
  1393)      1108.9  Rx         0020  5  0A 00 16 14 01 
  1394)      1109.0  Rx         0023  5  00 00 00 00 00 
  1395)      1109.3  Rx         0021  5  00 00 00 00 00 
  1396)      1109.5  Rx         0022  5  0B 00 46 24 03 
  1397)      1110.1  Rx         0020  5  0A 00 16 14 01 
  1398)      1110.3  Rx         0023  5  00 00 00 00 00 
  1399)      1110.8  Rx         0021  5  00 00 00 00 00 
  1400)      1113.3  Rx         0021  5  00 00 00 00 00 
  1401)      1113.4  Rx         0022  5  0B 00 46 24 03 
  1402)      1113.9  Rx         0020  5  0A 00 16 14 03 
  1403)      1114.1  Rx         0023  5  00 00 00 00 00 
  1404)      1114.5  Rx         0021  5  00 00 00 00 00 
  1405)      1114.7  Rx         0022  5  0B 00 47 24 01 
  1406)      1115.2  Rx         0020  5  0A 00 16 14 03 
  1407)      1115.3  Rx         0023  5  00 00 00 00 00 
  1408)      1115.8  Rx         0021  5  00 00 00 00 00 
  1409)      1116.0  Rx         0022  5  0B 00 47 24 01 
  1410)      1116.4  Rx         0020  5  0A 00 17 14 01 
  1411)      1116.6  Rx         0023  5  00 00 00 00 00 
  1412)      1117.0  Rx         0021  5  00 00 00 00 00 
  1413)      1117.2  Rx         0022  5  0B 00 47 24 03 
  1414)      1117.6  Rx         0020  5  0A 00 17 14 01 
  1415)      1117.8  Rx         0023  5  00 00 00 00 00 
  1416)      1118.2  Rx         0021  5  00 00 00 00 00 
  1417)      1118.4  Rx         0022  5  0B 00 47 24 03 
  1418)      1118.8  Rx         0020  5  0A 00 17 14 01 
  1419)      1119.0  Rx         0023  5  00 00 00 00 00 
  1420)      1119.5  Rx         0021  5  00 00 00 00 00 
  1421)      1119.7  Rx         0022  5  0B 00 48 24 01 
  1422)      1120.1  Rx         0020  5  0A 00 17 14 01 
  1423)      1120.3  Rx         0023  5  00 00 00 00 00 
  1424)      1120.8  Rx         0021  5  00 00 00 00 00 
  1425)      1121.0  Rx         0022  5  0B 00 48 24 01 
  1426)      1121.4  Rx         0020  5  0A 00 17 14 01 
  1427)      1121.6  Rx         0023  5  00 00 00 00 00 
  1428)      1122.0  Rx         0021  5  00 00 00 00 00 
  1429)      1123.9  Rx         0020  5  0A 00 17 14 01 
  1430)      1132.7  Rx         0021  5  00 00 00 00 00 
  1431)      1134.3  Rx         0026  6  32 83 1B 8D 55 03 
  1432)      1134.5  Rx         0020  5  0A 00 18 14 03 
  1433)      1135.0  Rx         0022  5  0B 00 49 24 03 
  1434)      1135.2  Rx         0021  5  00 00 00 00 00 
  1435)      1139.0  Rx         0023  5  00 00 00 00 00 
  1436)      1139.5  Rx         0020  5  0A 00 18 14 03 
  1437)      1139.7  Rx         0022  5  0B 00 4A 24 03 
  1438)      1141.9  Rx         0020  5  0A 00 18 14 03 
  1439)      1142.1  Rx         0022  5  0B 00 4A 24 03 
  1440)      1142.5  Rx         0021  5  00 00 00 00 00 
  1441)      1142.7  Rx         0023  5  00 00 00 00 00 
  1442)      1143.7  Rx         0021  5  00 00 00 00 00 
  1443)      1144.9  Rx         0021  5  00 00 00 00 00 
  1444)      1146.7  Rx         0020  5  0A 00 19 14 01 
  1445)      1146.9  Rx         0023  5  00 00 00 00 00 
  1446)      1149.0  Rx         0020  5  0A 00 19 14 01 
  1447)      1149.2  Rx         0023  5  00 00 00 00 00 
  1448)      1149.7  Rx         0021  5  00 00 00 00 00 
  1449)      1149.8  Rx         0022  5  0B 00 4B 24 03 
  1450)      1152.0  Rx         0021  5  00 00 00 00 00 
  1451)      1152.2  Rx         0022  5  0B 00 4B 24 03 
  1452)      1152.7  Rx         0020  5  0A 00 19 14 03 
  1453)      1152.8  Rx         0023  5  00 00 00 00 00 
  1454)      1155.0  Rx         0020  5  0A 00 19 14 03 
  1455)      1156.2  Rx         0020  5  0A 00 19 14 03 
  1456)      1156.4  Rx         0026  6  27 83 1B 8D 60 03 
  1457)      1156.7  Rx         0021  5  00 00 00 00 00 
  1458)      1156.9  Rx         0022  5  0B 00 4C 24 01 
  1459)      1162.6  Rx         0021  5  00 00 00 00 00 
  1460)      1162.8  Rx         0022  5  0B 00 4C 24 01 
  1461)      1163.2  Rx         0020  5  0A 00 1A 14 01 
  1462)      1163.4  Rx         0023  5  00 00 00 00 00 
  1463)      1170.6  Rx         0022  5  0B 00 4D 24 01 
  1464)      1171.1  Rx         0021  5  00 00 00 00 00 
  1465)      1171.3  Rx         0023  5  00 00 00 00 00 
  1466)      1173.5  Rx         0021  5  00 00 00 00 00 
  1467)      1173.7  Rx         0023  5  00 00 00 00 00 
  1468)      1174.1  Rx         0020  5  0A 00 1A 14 03 
  1469)      1174.3  Rx         0022  5  0B 00 4D 24 01 
  1470)      1174.7  Rx         0021  5  00 00 00 00 00 
  1471)      1174.9  Rx         0023  5  00 00 00 00 00 
  1472)      1175.3  Rx         0020  5  0A 00 1A 14 03 
  1473)      1175.5  Rx         0022  5  0B 00 4D 24 01 
  1474)      1176.0  Rx         0021  5  00 00 00 00 00 
  1475)      1176.1  Rx         0023  5  00 00 00 00 00 
  1476)      1176.6  Rx         0020  5  0A 00 1A 14 03 
  1477)      1177.7  Rx         0020  5  0A 00 1A 14 03 
  1478)      1177.9  Rx         0026  6  27 83 1B 8D 6C 03 
  1479)      1178.2  Rx         0021  5  00 00 00 00 00 
  1480)      1178.3  Rx         0022  5  0B 00 4D 24 01 
  1481)      1178.7  Rx         0020  5  0A 00 1A 14 03 
  1482)      1178.9  Rx         0023  5  00 00 00 00 00 
  1483)      1179.2  Rx         0021  5  00 00 00 00 00 
  1484)      1179.4  Rx         0022  5  0B 00 4D 24 01 
  1485)      1179.7  Rx         0020  5  0A 00 1A 14 03 
  1486)      1179.9  Rx         0023  5  00 00 00 00 00 
  1487)      1180.3  Rx         0021  5  00 00 00 00 00 
  1488)      1180.5  Rx         0022  5  0B 00 4D 24 01 
  1489)      1180.9  Rx         0020  5  0A 00 1A 14 03 
  1490)      1181.1  Rx         0023  5  00 00 00 00 00 
  1491)      1181.5  Rx         0021  5  00 00 00 00 00 
  1492)      1181.7  Rx         0022  5  0B 00 4D 24 01 
  1493)      1182.1  Rx         0020  5  0A 00 1A 14 03 
  1494)      1182.3  Rx         0023  5  00 00 00 00 00 
  1495)      1182.7  Rx         0021  5  00 00 00 00 00 
  1496)      1182.9  Rx         0022  5  0B 00 4D 24 01 
  1497)      1183.3  Rx         0020  5  0A 00 1A 14 03 
  1498)      1183.5  Rx         0023  5  00 00 00 00 00 
  1499)      1183.9  Rx         0021  5  00 00 00 00 00 
  1500)      1184.1  Rx         0022  5  0B 00 4D 24 01 
  1501)      1184.5  Rx         0020  5  0A 00 1A 14 03 
  1502)      1184.7  Rx         0023  5  00 00 00 00 00 
  1503)      1185.1  Rx         0021  5  00 00 00 00 00 
  1504)      1185.3  Rx         0022  5  0B 00 4D 24 01 
  1505)      1185.7  Rx         0020  5  0A 00 1A 14 03 
  1506)      1185.9  Rx         0023  5  00 00 00 00 00 
  1507)      1186.3  Rx         0021  5  00 00 00 00 00 
  1508)      1186.5  Rx         0022  5  0B 00 4D 24 03 
  1509)      1187.0  Rx         0020  5  0A 00 1A 14 03 
  1510)      1187.1  Rx         0023  5  00 00 00 00 00 
  1511)      1187.6  Rx         0021  5  00 00 00 00 00 
  1512)      1187.7  Rx         0022  5  0B 00 4D 24 03 
  1513)      1188.2  Rx         0020  5  0A 00 1A 14 03 
  1514)      1188.4  Rx         0023  5  00 00 00 00 00 
  1515)      1188.8  Rx         0021  5  00 00 00 00 00 
  1516)      1190.5  Rx         0020  5  0A 00 1A 14 03 
  1517)      1190.9  Rx         0026  6  1B 83 1B 8D 6C 03 
  1518)      1191.3  Rx         0021  5  00 00 00 00 00 
  1519)      1191.4  Rx         0022  5  0B 00 4D 24 03 
  1520)      1191.9  Rx         0020  5  0A 00 1A 14 03 
  1521)      1192.0  Rx         0023  5  00 00 00 00 00 
  1522)      1201.3  Rx         0020  5  0A 00 1A 14 03 
  1523)      1202.5  Rx         0020  5  0A 00 1B 14 01 
  1524)      1204.2  Rx         0021  5  00 00 00 00 00 
  1525)      1204.4  Rx         0023  5  00 00 00 00 00 
  1526)      1204.9  Rx         0020  5  0A 00 1B 14 01 
  1527)      1205.1  Rx         0022  5  0B 00 4D 24 03 
  1528)      1210.1  Rx         0021  5  00 00 00 00 00 
  1529)      1210.4  Rx         0023  5  00 00 00 00 00 
  1530)      1210.8  Rx         0020  5  0A 00 1B 14 01 
  1531)      1211.0  Rx         0022  5  0B 00 4E 24 01 
  1532)      1212.6  Rx         0021  5  00 00 00 00 00 
  1533)      1213.8  Rx         0021  5  00 00 00 00 00 
  1534)      1214.2  Rx         0026  6  1B 83 27 8D 6C 03 
  1535)      1214.4  Rx         0020  5  0A 00 1B 14 01 
  1536)      1214.8  Rx         0022  5  0B 00 4E 24 01 
  1537)      1215.1  Rx         0021  5  00 00 00 00 00 
  1538)      1220.1  Rx         0023  5  00 00 00 00 00 
  1539)      1220.3  Rx         0020  5  0A 00 1B 14 01 
  1540)      1220.8  Rx         0022  5  0B 00 4E 24 01 
  1541)      1220.9  Rx         0021  5  00 00 00 00 00 
  1542)      1223.9  Rx         0026  6  1B 83 27 8D 6C 03 
  1543)      1224.1  Rx         0020  5  0A 00 1B 14 01 
  1544)      1224.6  Rx         0022  5  0B 00 4E 24 01 
  1545)      1224.7  Rx         0021  5  00 00 00 00 00 
  1546)      1229.9  Rx         0020  5  0A 00 1B 14 01 
  1547)      1230.0  Rx         0023  5  00 00 00 00 00 
  1548)      1230.5  Rx         0021  5  00 00 00 00 00 
  1549)      1230.7  Rx         0022  5  0B 00 4E 24 01 
  1550)      1233.5  Rx         0020  5  0A 00 1B 14 01 
  1551)      1234.0  Rx         0021  5  00 00 00 00 00 
  1552)      1235.8  Rx         0020  5  0A 00 1B 14 01 
  1553)      1236.0  Rx         0022  5  0B 00 4E 24 01 
  1554)      1236.4  Rx         0021  5  00 00 00 00 00 
  1555)      1236.6  Rx         0023  5  00 00 00 00 00 
  1556)      1240.0  Rx         0021  5  00 00 00 00 00 
  1557)      1240.2  Rx         0023  5  00 00 00 00 00 
  1558)      1240.6  Rx         0020  5  0A 00 1B 14 01 
  1559)      1240.8  Rx         0022  5  0B 00 4E 24 03 
  1560)      1244.1  Rx         0020  5  0A 00 1B 14 03 
  1561)      1246.0  Rx         0021  5  00 00 00 00 00 
  1562)      1249.4  Rx         0021  5  00 00 00 00 00 
  1563)      1249.5  Rx         0022  5  0B 00 4E 24 03 
  1564)      1250.0  Rx         0020  5  0A 00 1B 14 03 
  1565)      1250.2  Rx         0023  5  00 00 00 00 00 
  1566)      1252.4  Rx         0020  5  0A 00 1B 14 03 
  1567)      1252.5  Rx         0023  5  00 00 00 00 00 
  1568)      1253.0  Rx         0021  5  00 00 00 00 00 
  1569)      1253.2  Rx         0022  5  0B 00 4F 24 01 
  1570)      1255.3  Rx         0021  5  00 00 00 00 00 
  1571)      1257.0  Rx         0020  5  0A 00 1B 14 03 
  1572)      1257.2  Rx         0022  5  0B 00 4F 24 03 
  1573)      1259.4  Rx         0020  5  0A 00 1C 14 01 
  1574)      1259.6  Rx         0022  5  0B 00 4F 24 03 
  1575)      1260.0  Rx         0021  5  00 00 00 00 00 
  1576)      1260.2  Rx         0023  5  00 00 00 00 00 
  1577)      1262.4  Rx         0021  5  00 00 00 00 00 
  1578)      1262.6  Rx         0023  5  00 00 00 00 00 
  1579)      1263.0  Rx         0020  5  0A 00 1C 14 01 
  1580)      1263.2  Rx         0022  5  0B 00 50 24 01 
  1581)      1265.3  Rx         0020  5  0A 00 1C 14 01 
  1582)      1267.1  Rx         0021  5  00 00 00 00 00 
  1583)      1267.3  Rx         0022  5  0B 00 50 24 01 
  1584)      1267.8  Rx         0020  5  0A 00 1C 14 01 
  1585)      1267.9  Rx         0023  5  00 00 00 00 00 
  1586)      1270.1  Rx         0020  5  0A 00 1C 14 01 
  1587)      1270.3  Rx         0023  5  00 00 00 00 00 
  1588)      1270.8  Rx         0021  5  00 00 00 00 00 
  1589)      1270.9  Rx         0022  5  0B 00 50 24 03 
  1590)      1273.1  Rx         0021  5  00 00 00 00 00 
  1591)      1273.3  Rx         0022  5  0B 00 51 24 01 
  1592)      1273.7  Rx         0020  5  0A 00 1C 14 03 
  1593)      1273.9  Rx         0023  5  00 00 00 00 00 
  1594)      1277.3  Rx         0020  5  0A 00 1C 14 03 
  1595)      1277.8  Rx         0021  5  00 00 00 00 00 
  1596)      1278.1  Rx         0026  6  1B 83 32 8D 6C 03 
  1597)      1278.3  Rx         0020  5  0A 00 1C 14 03 
  1598)      1278.6  Rx         0022  5  0B 00 51 24 01 
  1599)      1279.6  Rx         0020  5  0A 00 1C 14 03 
  1600)      1279.8  Rx         0022  5  0B 00 51 24 03 
  1601)      1280.1  Rx         0021  5  00 00 00 00 00 
  1602)      1280.3  Rx         0023  5  00 00 00 00 00 
  1603)      1280.6  Rx         0020  5  0A 00 1C 14 03 
  1604)      1280.8  Rx         0022  5  0B 00 51 24 03 
  1605)      1281.1  Rx         0021  5  00 00 00 00 00 
  1606)      1281.3  Rx         0023  5  00 00 00 00 00 
  1607)      1281.7  Rx         0020  5  0A 00 1C 14 03 
  1608)      1281.9  Rx         0022  5  0B 00 51 24 03 
  1609)      1282.4  Rx         0021  5  00 00 00 00 00 
  1610)      1282.5  Rx         0023  5  00 00 00 00 00 
  1611)      1283.0  Rx         0020  5  0A 00 1C 14 03 
  1612)      1283.1  Rx         0022  5  0B 00 51 24 03 
  1613)      1283.6  Rx         0021  5  00 00 00 00 00 
  1614)      1283.7  Rx         0023  5  00 00 00 00 00 
  1615)      1284.2  Rx         0020  5  0A 00 1C 14 03 
  1616)      1284.4  Rx         0022  5  0B 00 51 24 03 
  1617)      1284.8  Rx         0021  5  00 00 00 00 00 
  1618)      1285.0  Rx         0023  5  00 00 00 00 00 
  1619)      1285.4  Rx         0020  5  0A 00 1D 14 01 
  1620)      1285.6  Rx         0022  5  0B 00 51 24 03 
  1621)      1286.0  Rx         0021  5  00 00 00 00 00 
  1622)      1286.2  Rx         0023  5  00 00 00 00 00 
  1623)      1286.6  Rx         0020  5  0A 00 1D 14 01 
  1624)      1286.8  Rx         0022  5  0B 00 51 24 03 
  1625)      1287.2  Rx         0021  5  00 00 00 00 00 
  1626)      1287.4  Rx         0023  5  00 00 00 00 00 
  1627)      1287.8  Rx         0020  5  0A 00 1D 14 01 
  1628)      1288.3  Rx         0021  5  00 00 00 00 00 
  1629)      1288.8  Rx         0020  5  0A 00 1D 14 01 
  1630)      1289.0  Rx         0026  6  1B 83 32 8D 6C 03 
  1631)      1289.3  Rx         0021  5  00 00 00 00 00 
  1632)      1289.5  Rx         0022  5  0B 00 52 24 01 
  1633)      1289.8  Rx         0020  5  0A 00 1D 14 01 
  1634)      1290.0  Rx         0023  5  00 00 00 00 00 
  1635)      1290.3  Rx         0021  5  00 00 00 00 00 
  1636)      1290.5  Rx         0022  5  0B 00 52 24 03 
  1637)      1290.8  Rx         0020  5  0A 00 1D 14 01 
  1638)      1291.0  Rx         0023  5  00 00 00 00 00 
  1639)      1291.5  Rx         0021  5  00 00 00 00 00 
  1640)      1291.7  Rx         0022  5  0B 00 52 24 03 
  1641)      1292.1  Rx         0020  5  0A 00 1D 14 03 
  1642)      1292.3  Rx         0023  5  00 00 00 00 00 
  1643)      1292.8  Rx         0021  5  00 00 00 00 00 
  1644)      1292.9  Rx         0022  5  0B 00 52 24 03 
  1645)      1293.4  Rx         0020  5  0A 00 1D 14 03 
  1646)      1293.6  Rx         0023  5  00 00 00 00 00 
  1647)      1294.1  Rx         0021  5  00 00 00 00 00 
  1648)      1294.2  Rx         0022  5  0B 00 52 24 03 
  1649)      1294.7  Rx         0020  5  0A 00 1D 14 03 
  1650)      1294.9  Rx         0023  5  00 00 00 00 00 
  1651)      1295.3  Rx         0021  5  00 00 00 00 00 
  1652)      1295.6  Rx         0022  5  0B 00 52 24 03 
  1653)      1296.0  Rx         0020  5  0A 00 1D 14 03 
  1654)      1296.1  Rx         0023  5  00 00 00 00 00 
  1655)      1296.6  Rx         0021  5  00 00 00 00 00 
  1656)      1296.8  Rx         0022  5  0B 00 52 24 03 
  1657)      1297.3  Rx         0020  5  0A 00 1D 14 03 
  1658)      1297.5  Rx         0023  5  00 00 00 00 00 
  1659)      1297.9  Rx         0021  5  00 00 00 00 00 
  1660)      1298.1  Rx         0022  5  0B 00 53 24 01 
  1661)      1298.5  Rx         0020  5  0A 00 1D 14 03 
  1662)      1298.8  Rx         0023  5  00 00 00 00 00 
  1663)      1299.2  Rx         0021  5  00 00 00 00 00 
  1664)      1301.0  Rx         0020  5  0A 00 1D 14 03 
  1665)      1302.8  Rx         0021  5  00 00 00 00 00 
  1666)      1303.0  Rx         0023  5  00 00 00 00 00 
  1667)      1303.4  Rx         0020  5  0A 00 1D 14 03 
  1668)      1303.6  Rx         0022  5  0B 00 53 24 03 
  1669)      1310.5  Rx         0020  5  0A 00 1E 14 01 
  1670)      1311.0  Rx         0021  5  00 00 00 00 00 
  1671)      1311.5  Rx         0026  6  10 83 32 8D 6C 03 
  1672)      1311.7  Rx         0020  5  0A 00 1E 14 01 
  1673)      1312.1  Rx         0022  5  0B 00 54 24 01 
  1674)      1312.3  Rx         0021  5  00 00 00 00 00 
  1675)      1314.4  Rx         0022  5  0B 00 54 24 01 
  1676)      1314.7  Rx         0021  5  00 00 00 00 00 
  1677)      1315.1  Rx         0023  5  00 00 00 00 00 
  1678)      1315.3  Rx         0020  5  0A 00 1E 14 01 
  1679)      1319.2  Rx         0022  5  0B 00 54 24 01 
  1680)      1319.5  Rx         0021  5  00 00 00 00 00 
  1681)      1319.9  Rx         0023  5  00 00 00 00 00 
  1682)      1320.1  Rx         0020  5  0A 00 1E 14 01 
  1683)      1321.9  Rx         0021  5  00 00 00 00 00 
  1684)      1322.4  Rx         0020  5  0A 00 1E 14 01 
  1685)      1323.5  Rx         0020  5  0A 00 1E 14 01 
  1686)      1323.8  Rx         0026  6  10 83 3E 8D 6C 03 
  1687)      1324.2  Rx         0021  5  00 00 00 00 00 
  1688)      1324.4  Rx         0022  5  0B 00 54 24 03 
  1689)      1324.7  Rx         0020  5  0A 00 1E 14 01 
  1690)      1325.0  Rx         0023  5  00 00 00 00 00 
  1691)      1325.4  Rx         0021  5  00 00 00 00 00 
  1692)      1325.6  Rx         0022  5  0B 00 54 24 03 
  1693)      1330.0  Rx         0021  5  00 00 00 00 00 
  1694)      1330.3  Rx         0022  5  0B 00 55 24 01 
  1695)      1330.7  Rx         0020  5  0A 00 1E 14 03 
  1696)      1330.9  Rx         0023  5  00 00 00 00 00 
  1697)      1333.1  Rx         0020  5  0A 00 1E 14 03 
  1698)      1333.2  Rx         0023  5  00 00 00 00 00 
  1699)      1333.7  Rx         0021  5  00 00 00 00 00 
  1700)      1334.9  Rx         0021  5  00 00 00 00 00 
  1701)      1335.5  Rx         0026  6  10 83 3E 8D 6C 03 
  1702)      1335.6  Rx         0020  5  0A 00 1E 14 03 
  1703)      1339.6  Rx         0022  5  0B 00 55 24 03 
  1704)      1340.0  Rx         0021  5  00 00 00 00 00 
  1705)      1340.2  Rx         0023  5  00 00 00 00 00 
  1706)      1342.4  Rx         0021  5  00 00 00 00 00 
  1707)      1342.6  Rx         0023  5  00 00 00 00 00 
  1708)      1343.0  Rx         0020  5  0A 00 1E 14 03 
  1709)      1343.2  Rx         0022  5  0B 00 55 24 03 
  1710)      1343.6  Rx         0021  5  00 00 00 00 00 
  1711)      1343.8  Rx         0023  5  00 00 00 00 00 
  1712)      1344.2  Rx         0020  5  0A 00 1E 14 03 
  1713)      1345.4  Rx         0020  5  0A 00 1E 14 03 
  1714)      1345.7  Rx         0026  6  05 83 49 8D 6C 03 
  1715)      1346.0  Rx         0021  5  00 00 00 00 00 
  1716)      1346.4  Rx         0022  5  0B 00 55 24 03 
  1717)      1346.6  Rx         0020  5  0A 00 1E 14 03 
  1718)      1347.0  Rx         0023  5  00 00 00 00 00 
  1719)      1347.2  Rx         0021  5  00 00 00 00 00 
  1720)      1347.6  Rx         0022  5  0B 00 55 24 03 
  1721)      1347.8  Rx         0020  5  0A 00 1E 14 03 
  1722)      1348.2  Rx         0023  5  00 00 00 00 00 
  1723)      1348.4  Rx         0021  5  00 00 00 00 00 
  1724)      1348.8  Rx         0022  5  0B 00 55 24 03 
  1725)      1349.0  Rx         0020  5  0A 00 1E 14 03 
  1726)      1349.4  Rx         0023  5  00 00 00 00 00 
  1727)      1349.6  Rx         0021  5  00 00 00 00 00 
  1728)      1350.0  Rx         0022  5  0B 00 55 24 03 
  1729)      1350.2  Rx         0020  5  0A 00 1E 14 03 
  1730)      1350.7  Rx         0023  5  00 00 00 00 00 
  1731)      1350.8  Rx         0021  5  00 00 00 00 00 
  1732)      1351.3  Rx         0022  5  0B 00 55 24 03 
  1733)      1351.4  Rx         0020  5  0A 00 1E 14 03 
  1734)      1351.8  Rx         0023  5  00 00 00 00 00 
  1735)      1352.0  Rx         0021  5  00 00 00 00 00 
  1736)      1352.4  Rx         0022  5  0B 00 55 24 03 
  1737)      1352.6  Rx         0020  5  0A 00 1E 14 03 
  1738)      1353.0  Rx         0023  5  00 00 00 00 00 
  1739)      1353.2  Rx         0021  5  00 00 00 00 00 
  1740)      1353.6  Rx         0022  5  0B 00 55 24 03 
  1741)      1353.8  Rx         0020  5  0A 00 1E 14 03 
  1742)      1354.2  Rx         0023  5  00 00 00 00 00 
  1743)      1354.4  Rx         0021  5  00 00 00 00 00 
