;$FILEVERSION=1.1
;$STARTTIME=45831.5796903241
;
;   Start time: 2025/6/23 13:54:45.244.0
;   Generated by PCAN-View v5.3.2.952
;
;   Message Number
;   |         Time Offset (ms)
;   |         |        Type
;   |         |        |        ID (hex)
;   |         |        |        |     Data Length
;   |         |        |        |     |   Data Bytes (hex) ...
;   |         |        |        |     |   |
;---+--   ----+----  --+--  ----+---  +  -+ -- -- -- -- -- -- --
     1)         0.0  Rx         0020  5  0A 00 93 1A 01 
     2)         0.2  Rx         0023  5  00 00 00 00 00 
     3)         0.4  Rx         0031  6  FE 7F FE 7F 01 80 
     4)         0.6  Rx         0021  5  00 00 00 00 00 
     5)         0.8  Rx         0022  5  0B 00 E7 05 02 
     6)         1.0  Rx         0025  8  DA 03 83 03 A1 02 FC 03 
     7)         1.2  Rx         0020  5  0A 00 93 1A 01 
     8)         1.4  Rx         0023  5  00 00 00 00 00 
     9)         1.6  Rx         0024  5  00 00 A7 15 00 
    10)         1.8  Rx         0021  5  00 00 00 00 00 
    11)         2.0  Rx         0022  5  0B 00 E7 05 02 
    12)         2.2  Rx         0030  6  66 08 AA 72 5A 82 
    13)         2.3  Rx         0020  5  0A 00 94 1A 01 
    14)         2.5  Rx         0023  5  00 00 00 00 00 
    15)         2.8  Rx         0025  8  DC 03 83 03 A2 02 FC 03 
    16)         3.0  Rx         0021  5  00 00 00 00 00 
    17)         3.2  Rx         0022  5  0B 00 E7 05 02 
    18)         3.4  Rx         0024  5  00 00 A7 15 00 
    19)         3.5  Rx         0020  5  0A 00 94 1A 01 
    20)         3.7  Rx         0023  5  00 00 00 00 00 
    21)         4.0  Rx         0031  6  FF 7F FD 7F 00 80 
    22)         4.1  Rx         0021  5  00 00 00 00 00 
    23)         4.3  Rx         0022  5  0B 00 E7 05 02 
    24)         4.6  Rx         0025  8  DD 03 82 03 A3 02 FB 03 
    25)         4.8  Rx         0020  5  0A 00 94 1A 01 
    26)         4.9  Rx         0023  5  00 00 00 00 00 
    27)         5.1  Rx         0024  5  00 00 83 15 00 
    28)         5.3  Rx         0021  5  00 00 00 00 00 
    29)         5.5  Rx         0022  5  0B 00 E7 05 02 
    30)         5.8  Rx         0020  5  0A 00 95 1A 01 
    31)         6.0  Rx         0023  5  00 00 00 00 00 
    32)         6.3  Rx         0025  8  DF 03 85 03 A3 02 FB 03 
    33)         6.5  Rx         0021  5  00 00 00 00 00 
    34)         6.6  Rx         0022  5  0B 00 E7 05 02 
    35)         6.9  Rx         0024  5  00 00 83 15 00 
    36)         7.0  Rx         0020  5  0A 00 95 1A 01 
    37)         7.2  Rx         0023  5  00 00 00 00 00 
    38)         7.4  Rx         0030  6  66 08 AA 72 5A 82 
    39)         7.6  Rx         0021  5  00 00 00 00 00 
    40)         7.8  Rx         0022  5  0B 00 E7 05 02 
    41)         8.0  Rx         0025  8  DE 03 84 03 A4 02 FC 03 
    42)         8.2  Rx         0020  5  0A 00 95 1A 01 
    43)         8.4  Rx         0023  5  00 00 00 00 00 
    44)         8.6  Rx         0024  5  00 00 83 15 00 
    45)         8.8  Rx         0021  5  00 00 00 00 00 
    46)         9.3  Rx         0020  5  0A 00 95 1A 03 
    47)         9.5  Rx         0025  8  DF 03 84 03 A2 02 F8 03 
    48)         9.8  Rx         0021  5  00 00 00 00 00 
    49)        10.1  Rx         0031  6  FF 7F FD 7F 00 80 
    50)        10.2  Rx         0024  5  00 00 83 15 00 
    51)        10.4  Rx         0020  5  0A 00 96 1A 01 
    52)        10.9  Rx         0021  5  00 00 00 00 00 
    53)        11.1  Rx         0026  6  D7 FE E3 7C 93 40 
    54)        11.4  Rx         0025  8  DE 03 83 03 A3 02 F8 03 
    55)        11.5  Rx         0020  5  0A 00 96 1A 03 
    56)        11.8  Rx         0022  5  0B 00 E7 05 02 
    57)        11.9  Rx         0024  5  00 00 83 15 00 
    58)        12.1  Rx         0021  5  00 00 00 00 00 
    59)        12.3  Rx         0023  5  00 00 00 00 00 
    60)        12.5  Rx         0030  6  66 08 AA 72 5A 82 
    61)        12.7  Rx         0020  5  0A 00 96 1A 03 
    62)        12.9  Rx         0022  5  0B 00 E7 05 02 
    63)        13.1  Rx         0025  8  DF 03 85 03 A6 02 FC 03 
    64)        13.3  Rx         0021  5  00 00 00 00 00 
    65)        13.5  Rx         0023  5  00 00 00 00 00 
    66)        13.7  Rx         0024  5  00 00 A7 15 00 
    67)        13.9  Rx         0020  5  0A 00 97 1A 01 
    68)        14.1  Rx         0022  5  0B 00 E7 05 02 
    69)        14.3  Rx         0031  6  FE 7F FF 7F 01 80 
    70)        14.4  Rx         0021  5  00 00 00 00 00 
    71)        14.7  Rx         0023  5  00 00 00 00 00 
    72)        14.9  Rx         0025  8  E0 03 84 03 A6 02 FB 03 
    73)        15.1  Rx         0020  5  0A 00 97 1A 03 
    74)        15.3  Rx         0022  5  0B 00 E7 05 02 
    75)        15.5  Rx         0024  5  00 00 A7 15 00 
    76)        15.6  Rx         0021  5  00 00 00 00 00 
    77)        15.9  Rx         0023  5  00 00 00 00 00 
    78)        16.2  Rx         0020  5  0A 00 98 1A 01 
    79)        16.4  Rx         0022  5  0B 00 E7 05 02 
    80)        16.6  Rx         0025  8  E0 03 85 03 A8 02 FC 03 
    81)        16.8  Rx         0021  5  00 00 00 00 00 
    82)        17.0  Rx         0023  5  00 00 00 00 00 
    83)        17.2  Rx         0024  5  00 00 A7 15 00 
    84)        17.4  Rx         0020  5  0A 00 98 1A 01 
    85)        17.6  Rx         0022  5  0B 00 E7 05 02 
    86)        17.7  Rx         0030  6  66 08 AA 72 5A 82 
    87)        17.9  Rx         0021  5  00 00 00 00 00 
    88)        18.1  Rx         0023  5  00 00 00 00 00 
    89)        18.4  Rx         0025  8  E0 03 84 03 A8 02 FA 03 
    90)        18.5  Rx         0020  5  0A 00 98 1A 03 
    91)        18.8  Rx         0024  5  00 00 83 15 00 
    92)        19.1  Rx         0021  5  00 00 00 00 00 
    93)        19.6  Rx         0020  5  0A 00 99 1A 01 
    94)        19.8  Rx         0025  8  DB 03 83 03 A8 02 F8 03 
    95)        20.0  Rx         0026  6  D7 FE E3 7C 93 40 
    96)        20.2  Rx         0021  5  00 00 00 00 00 
    97)        20.4  Rx         0024  5  00 00 83 15 00 
    98)        20.6  Rx         0022  5  0B 00 E7 05 02 
    99)        20.8  Rx         0020  5  0A 00 99 1A 01 
   100)        21.0  Rx         0031  6  FE 7F FF 7F 01 80 
   101)        21.2  Rx         0023  5  00 00 00 00 00 
   102)        21.4  Rx         0021  5  00 00 00 00 00 
   103)        21.6  Rx         0025  8  E0 03 85 03 A9 02 FC 03 
   104)        21.8  Rx         0022  5  0B 00 E7 05 02 
   105)        22.0  Rx         0020  5  0A 00 99 1A 03 
   106)        22.2  Rx         0024  5  00 00 A7 15 00 
   107)        22.4  Rx         0023  5  00 00 00 00 00 
   108)        22.6  Rx         0021  5  00 00 00 00 00 
   109)        22.8  Rx         0030  6  66 08 AA 72 5A 82 
   110)        22.9  Rx         0022  5  0B 00 E7 05 02 
   111)        23.1  Rx         0020  5  0A 00 9A 1A 01 
   112)        23.4  Rx         0025  8  DF 03 85 03 AA 02 FD 03 
   113)        23.5  Rx         0023  5  00 00 00 00 00 
   114)        23.8  Rx         0021  5  00 00 00 00 00 
   115)        23.9  Rx         0024  5  00 00 83 15 00 
   116)        24.1  Rx         0022  5  0B 00 E7 05 02 
   117)        24.3  Rx         0020  5  0A 00 9A 1A 03 
   118)        24.6  Rx         0031  6  02 80 FB 7F 03 80 
   119)        24.8  Rx         0023  5  00 00 00 00 00 
   120)        25.0  Rx         0021  5  00 00 00 00 00 
   121)        25.2  Rx         0025  8  DE 03 83 03 A9 02 FA 03 
   122)        25.4  Rx         0022  5  0B 00 E7 05 02 
   123)        25.6  Rx         0020  5  0A 00 9A 1A 03 
   124)        25.8  Rx         0024  5  00 00 83 15 00 
   125)        26.0  Rx         0023  5  00 00 00 00 00 
   126)        26.2  Rx         0021  5  00 00 00 00 00 
   127)        26.5  Rx         0022  5  0B 00 E7 05 02 
   128)        26.7  Rx         0020  5  0A 00 9B 1A 01 
   129)        26.9  Rx         0025  8  DF 03 87 03 AB 02 FC 03 
   130)        27.1  Rx         0023  5  00 00 00 00 00 
   131)        27.3  Rx         0021  5  00 00 00 00 00 
   132)        27.5  Rx         0024  5  00 00 83 15 00 
   133)        27.7  Rx         0022  5  0B 00 E7 05 02 
   134)        27.8  Rx         0020  5  0A 00 9B 1A 01 
   135)        28.1  Rx         0030  6  66 08 AA 72 5A 82 
   136)        28.3  Rx         0023  5  00 00 00 00 00 
   137)        28.4  Rx         0021  5  00 00 00 00 00 
   138)        28.7  Rx         0025  8  DC 03 86 03 AA 02 FB 03 
   139)        28.9  Rx         0022  5  0B 00 E7 05 02 
   140)        29.1  Rx         0020  5  0A 00 9B 1A 03 
   141)        29.3  Rx         0024  5  00 00 83 15 00 
   142)        29.4  Rx         0023  5  00 00 00 00 00 
   143)        29.6  Rx         0021  5  00 00 00 00 00 
   144)        30.2  Rx         0020  5  0A 00 9C 1A 01 
   145)        30.4  Rx         0025  8  D8 03 86 03 AC 02 FB 03 
   146)        30.6  Rx         0031  6  02 80 FB 7F 03 80 
   147)        30.7  Rx         0021  5  00 00 00 00 00 
   148)        31.0  Rx         0024  5  00 00 A7 15 00 
   149)        31.3  Rx         0020  5  0A 00 9C 1A 03 
   150)        31.8  Rx         0021  5  00 00 00 00 00 
   151)        32.0  Rx         0025  8  D4 03 84 03 AB 02 F9 03 
   152)        32.2  Rx         0026  6  CB FE EE 7C 7C 40 
   153)        32.4  Rx         0020  5  0A 00 9C 1A 03 
   154)        32.6  Rx         0024  5  00 00 A7 15 00 
   155)        32.8  Rx         0022  5  0B 00 E7 05 02 
   156)        33.0  Rx         0021  5  00 00 00 00 00 
   157)        33.2  Rx         0030  6  66 08 AA 72 5A 82 
   158)        33.4  Rx         0023  5  00 00 00 00 00 
   159)        33.6  Rx         0020  5  0A 00 9D 1A 03 
   160)        33.8  Rx         0025  8  D7 03 87 03 AD 02 FD 03 
   161)        34.0  Rx         0022  5  0B 00 E7 05 02 
   162)        34.2  Rx         0021  5  00 00 00 00 00 
   163)        34.3  Rx         0024  5  00 00 83 15 00 
   164)        34.5  Rx         0023  5  00 00 00 00 00 
   165)        34.7  Rx         0020  5  0A 00 9D 1A 03 
   166)        35.0  Rx         0022  5  0B 00 E7 05 02 
   167)        35.2  Rx         0021  5  00 00 00 00 00 
   168)        35.4  Rx         0025  8  D3 03 87 03 AD 02 F9 03 
   169)        35.7  Rx         0023  5  00 00 00 00 00 
   170)        35.8  Rx         0020  5  0A 00 9E 1A 01 
   171)        36.0  Rx         0024  5  00 00 83 15 00 
   172)        36.2  Rx         0022  5  0B 00 E7 05 02 
   173)        36.4  Rx         0021  5  00 00 00 00 00 
   174)        36.6  Rx         0031  6  01 80 FC 7F 03 80 
   175)        36.8  Rx         0023  5  00 00 00 00 00 
   176)        37.0  Rx         0020  5  0A 00 9E 1A 03 
   177)        37.2  Rx         0025  8  D1 03 88 03 AE 02 FD 03 
   178)        37.4  Rx         0022  5  0B 00 E7 05 02 
   179)        37.6  Rx         0021  5  00 00 00 00 00 
   180)        37.8  Rx         0024  5  00 00 83 15 00 
   181)        38.0  Rx         0023  5  00 00 00 00 00 
   182)        38.2  Rx         0020  5  0A 00 9F 1A 01 
   183)        38.5  Rx         0022  5  0B 00 E7 05 02 
   184)        38.7  Rx         0025  8  D1 03 89 03 AE 02 FD 03 
   185)        38.9  Rx         0021  5  00 00 00 00 00 
   186)        39.1  Rx         0023  5  00 00 00 00 00 
   187)        39.3  Rx         0024  5  00 00 83 15 00 
   188)        39.5  Rx         0020  5  0A 00 9F 1A 03 
   189)        39.7  Rx         0022  5  0B 00 E7 05 02 
   190)        39.9  Rx         0030  6  66 08 AA 72 5A 82 
   191)        40.0  Rx         0021  5  00 00 00 00 00 
   192)        40.3  Rx         0023  5  00 00 00 00 00 
   193)        40.5  Rx         0025  8  CD 03 87 03 AE 02 FB 03 
   194)        40.7  Rx         0020  5  0A 00 9F 1A 03 
   195)        40.9  Rx         0022  5  0B 00 E7 05 02 
   196)        41.1  Rx         0024  5  00 00 83 15 00 
   197)        41.2  Rx         0021  5  00 00 00 00 00 
   198)        41.5  Rx         0023  5  00 00 00 00 00 
   199)        41.8  Rx         0020  5  0A 00 A0 1A 01 
   200)        41.9  Rx         0031  6  FE 7F FB 7F 02 80 
   201)        42.2  Rx         0025  8  CE 03 8A 03 AF 02 FB 03 
   202)        42.4  Rx         0021  5  00 00 00 00 00 
   203)        42.7  Rx         0024  5  00 00 83 15 00 
   204)        42.9  Rx         0020  5  0A 00 A1 1A 01 
   205)        43.4  Rx         0021  5  00 00 00 00 00 
   206)        43.6  Rx         0025  8  CD 03 89 03 AD 02 F9 03 
   207)        43.8  Rx         0030  6  66 08 AA 72 5A 82 
   208)        44.0  Rx         0020  5  0A 00 A1 1A 01 
   209)        44.2  Rx         0024  5  00 00 A7 15 00 
   210)        44.4  Rx         0026  6  CB FE EE 7C 88 40 
   211)        44.6  Rx         0021  5  00 00 00 00 00 
   212)        44.9  Rx         0022  5  0B 00 E7 05 02 
   213)        45.1  Rx         0020  5  0A 00 A1 1A 03 
   214)        45.3  Rx         0025  8  CA 03 88 03 AF 02 FC 03 
   215)        45.5  Rx         0023  5  00 00 00 00 00 
   216)        45.7  Rx         0021  5  00 00 00 00 00 
   217)        45.9  Rx         0024  5  00 00 83 15 00 
   218)        46.1  Rx         0022  5  0B 00 E7 05 02 
   219)        46.3  Rx         0020  5  0A 00 A1 1A 03 
   220)        46.5  Rx         0031  6  FE 7F FB 7F 02 80 
   221)        46.7  Rx         0023  5  00 00 00 00 00 
   222)        46.9  Rx         0021  5  00 00 00 00 00 
   223)        47.1  Rx         0025  8  CC 03 8A 03 B0 02 FC 03 
   224)        47.3  Rx         0022  5  0B 00 E7 05 02 
   225)        47.5  Rx         0020  5  0A 00 A2 1A 01 
   226)        47.7  Rx         0024  5  00 00 83 15 00 
   227)        47.9  Rx         0023  5  00 00 00 00 00 
   228)        48.0  Rx         0021  5  00 00 00 00 00 
   229)        48.3  Rx         0022  5  0B 00 E7 05 02 
   230)        48.6  Rx         0025  8  CC 03 8A 03 B1 02 FD 03 
   231)        48.8  Rx         0020  5  0A 00 A2 1A 03 
   232)        49.0  Rx         0023  5  00 00 00 00 00 
   233)        49.1  Rx         0024  5  00 00 83 15 00 
   234)        49.4  Rx         0021  5  00 00 00 00 00 
   235)        49.5  Rx         0022  5  0B 00 E7 05 02 
   236)        49.7  Rx         0030  6  66 08 AA 72 5A 82 
   237)        49.9  Rx         0020  5  0A 00 A3 1A 03 
   238)        50.1  Rx         0023  5  00 00 00 00 00 
   239)        50.3  Rx         0025  8  CB 03 89 03 AF 02 FA 03 
   240)        50.5  Rx         0021  5  00 00 00 00 00 
   241)        50.7  Rx         0022  5  0B 00 E7 05 02 
   242)        50.9  Rx         0024  5  00 00 83 15 00 
   243)        51.1  Rx         0020  5  0A 00 A4 1A 01 
   244)        51.3  Rx         0023  5  00 00 00 00 00 
   245)        51.6  Rx         0021  5  00 00 00 00 00 
   246)        51.8  Rx         0022  5  0B 00 E7 05 02 
   247)        52.0  Rx         0025  8  C9 03 89 03 B0 02 F9 03 
   248)        52.3  Rx         0020  5  0A 00 A4 1A 01 
   249)        52.4  Rx         0023  5  00 00 00 00 00 
   250)        52.6  Rx         0024  5  00 00 5F 15 00 
   251)        52.8  Rx         0021  5  00 00 00 00 00 
   252)        53.0  Rx         0031  6  FE 7F FB 7F 02 80 
   253)        53.4  Rx         0020  5  0A 00 A4 1A 03 
   254)        53.6  Rx         0025  8  CA 03 89 03 B0 02 FA 03 
   255)        53.9  Rx         0021  5  00 00 00 00 00 
   256)        54.0  Rx         0024  5  00 00 83 15 00 
   257)        54.3  Rx         0020  5  0A 00 A4 1A 03 
   258)        54.7  Rx         0030  6  66 08 AA 72 5A 82 
   259)        54.9  Rx         0021  5  00 00 00 00 00 
   260)        55.1  Rx         0025  8  C7 03 89 03 B0 02 FB 03 
   261)        55.3  Rx         0026  6  CB FE EE 7C 88 40 
   262)        55.5  Rx         0020  5  0A 00 A5 1A 03 
   263)        55.7  Rx         0024  5  00 00 83 15 00 
   264)        55.9  Rx         0022  5  0B 00 E7 05 02 
   265)        56.0  Rx         0021  5  00 00 00 00 00 
   266)        56.3  Rx         0022  5  00 00 00 00 00 
   267)        56.6  Rx         0020  5  0A 00 A6 1A 01 
   268)        56.8  Rx         0022  5  0B 00 E7 05 02 
   269)        57.0  Rx         0025  8  C8 03 8A 03 B1 02 FD 03 
   270)        57.2  Rx         0021  5  00 00 00 00 00 
   271)        57.4  Rx         0023  5  00 00 00 00 00 
   272)        57.6  Rx         0024  5  00 00 83 15 00 
   273)        57.8  Rx         0020  5  0A 00 A6 1A 03 
   274)        57.9  Rx         0022  5  0B 00 E7 05 02 
   275)        58.1  Rx         0031  6  FC 7F FC 7F 03 80 
   276)        58.4  Rx         0021  5  00 00 00 00 00 
   277)        58.5  Rx         0023  5  00 00 00 00 00 
   278)        58.8  Rx         0025  8  C8 03 89 03 B1 02 FA 03 
   279)        59.0  Rx         0020  5  0A 00 A6 1A 03 
   280)        59.1  Rx         0022  5  0B 00 E7 05 02 
   281)        59.3  Rx         0024  5  00 00 83 15 00 
   282)        59.5  Rx         0021  5  00 00 00 00 00 
   283)        59.7  Rx         0023  5  00 00 00 00 00 
   284)        60.0  Rx         0020  5  0A 00 A7 1A 01 
   285)        60.2  Rx         0022  5  0B 00 E7 05 02 
   286)        60.4  Rx         0025  8  C9 03 8B 03 B2 02 FD 03 
   287)        60.7  Rx         0021  5  00 00 00 00 00 
   288)        60.8  Rx         0023  5  00 00 00 00 00 
   289)        61.0  Rx         0024  5  00 00 83 15 00 
   290)        61.2  Rx         0020  5  0A 00 A8 1A 01 
   291)        61.4  Rx         0022  5  0B 00 E7 05 02 
   292)        61.6  Rx         0030  6  66 08 AA 72 5A 82 
   293)        61.8  Rx         0021  5  00 00 00 00 00 
   294)        62.0  Rx         0023  5  00 00 00 00 00 
   295)        62.2  Rx         0025  8  C5 03 88 03 B2 02 FB 03 
   296)        62.4  Rx         0020  5  0A 00 A8 1A 03 
   297)        62.7  Rx         0024  5  00 00 5F 15 00 
   298)        62.9  Rx         0021  5  00 00 00 00 00 
   299)        63.3  Rx         0031  6  FB 7F FF 7F 05 80 
   300)        63.4  Rx         0020  5  0A 00 A9 1A 01 
   301)        63.7  Rx         0025  8  C6 03 89 03 B0 02 FB 03 
   302)        63.9  Rx         0021  5  00 00 00 00 00 
   303)        64.2  Rx         0024  5  00 00 83 15 00 
   304)        64.5  Rx         0020  5  0A 00 A9 1A 01 
   305)        64.7  Rx         0026  6  CB FE EE 7C 93 40 
   306)        65.0  Rx         0021  5  00 00 00 00 00 
   307)        65.2  Rx         0022  5  0B 00 E7 05 02 
   308)        65.4  Rx         0025  8  C3 03 89 03 B1 02 FA 03 
   309)        65.6  Rx         0020  5  0A 00 A9 1A 03 
   310)        65.8  Rx         0023  5  00 00 00 00 00 
   311)        65.9  Rx         0024  5  00 00 83 15 00 
   312)        66.2  Rx         0021  5  00 00 00 00 00 
   313)        66.3  Rx         0022  5  0B 00 E7 05 02 
   314)        66.5  Rx         0030  6  66 08 AA 72 5A 82 
   315)        66.7  Rx         0020  5  0A 00 AA 1A 01 
   316)        66.9  Rx         0023  5  00 00 00 00 00 
   317)        67.1  Rx         0025  8  C6 03 8A 03 B3 02 FD 03 
   318)        67.4  Rx         0021  5  00 00 00 00 00 
   319)        67.5  Rx         0022  5  0B 00 E7 05 02 
   320)        67.7  Rx         0024  5  00 00 83 15 00 
   321)        67.9  Rx         0020  5  0A 00 AA 1A 03 
   322)        68.1  Rx         0023  5  00 00 00 00 00 
   323)        68.4  Rx         0021  5  00 00 00 00 00 
   324)        68.6  Rx         0022  5  0B 00 E7 05 02 
   325)        68.8  Rx         0025  8  C5 03 8A 03 B3 02 FC 03 
   326)        69.0  Rx         0020  5  0A 00 AB 1A 01 
   327)        69.2  Rx         0023  5  00 00 00 00 00 
   328)        69.4  Rx         0024  5  00 00 5F 15 00 
   329)        69.6  Rx         0021  5  00 00 00 00 00 
   330)        69.8  Rx         0022  5  0B 00 E7 05 02 
   331)        70.0  Rx         0031  6  FB 7F FF 7F 05 80 
   332)        70.2  Rx         0020  5  0A 00 AB 1A 03 
   333)        70.4  Rx         0023  5  00 00 00 00 00 
   334)        70.6  Rx         0025  8  C5 03 8A 03 B3 02 FC 03 
   335)        70.8  Rx         0021  5  00 00 00 00 00 
   336)        71.0  Rx         0022  5  0B 00 E7 05 02 
   337)        71.2  Rx         0024  5  00 00 83 15 00 
   338)        71.4  Rx         0020  5  0A 00 AB 1A 03 
   339)        71.5  Rx         0023  5  00 00 00 00 00 
   340)        71.9  Rx         0021  5  00 00 00 00 00 
   341)        72.0  Rx         0022  5  0B 00 E7 05 02 
   342)        72.3  Rx         0025  8  C5 03 8A 03 B3 02 FB 03 
   343)        72.5  Rx         0020  5  0A 00 AC 1A 01 
   344)        72.6  Rx         0023  5  00 00 00 00 00 
   345)        72.9  Rx         0024  5  00 00 83 15 00 
   346)        73.0  Rx         0021  5  00 00 00 00 00 
   347)        73.2  Rx         0022  5  0B 00 E7 05 02 
   348)        73.5  Rx         0030  6  66 08 AA 72 5A 82 
   349)        73.6  Rx         0020  5  0A 00 AD 1A 01 
   350)        73.8  Rx         0023  5  00 00 00 00 00 
   351)        74.1  Rx         0025  8  C4 03 89 03 B3 02 FC 03 
   352)        74.2  Rx         0021  5  00 00 00 00 00 
   353)        74.5  Rx         0024  5  00 00 83 15 00 
   354)        74.7  Rx         0020  5  0A 00 AD 1A 03 
   355)        75.3  Rx         0021  5  00 00 00 00 00 
   356)        75.5  Rx         0025  8  C4 03 89 03 B2 02 F8 03 
   357)        75.7  Rx         0031  6  FA 7F 03 80 05 80 
   358)        75.9  Rx         0020  5  0A 00 AD 1A 03 
   359)        76.1  Rx         0024  5  00 00 83 15 00 
   360)        76.3  Rx         0026  6  CB FE EE 7C 93 40 
   361)        76.5  Rx         0021  5  00 00 00 00 00 
   362)        76.8  Rx         0022  5  0B 00 E7 05 02 
   363)        77.0  Rx         0025  8  C4 03 88 03 B4 02 FC 03 
   364)        77.2  Rx         0020  5  0A 00 AE 1A 03 
   365)        77.4  Rx         0023  5  00 00 00 00 00 
   366)        77.6  Rx         0024  5  00 00 83 15 00 
   367)        77.8  Rx         0021  5  00 00 00 00 00 
   368)        78.0  Rx         0022  5  0B 00 E7 05 02 
   369)        78.2  Rx         0030  6  66 08 AA 72 5A 82 
   370)        78.4  Rx         0020  5  0A 00 AF 1A 01 
   371)        78.6  Rx         0023  5  00 00 00 00 00 
   372)        78.8  Rx         0025  8  C4 03 8A 03 B4 02 FC 03 
   373)        79.0  Rx         0021  5  00 00 00 00 00 
   374)        79.2  Rx         0022  5  0B 00 E7 05 02 
   375)        79.4  Rx         0024  5  00 00 83 15 00 
   376)        79.6  Rx         0020  5  0A 00 AF 1A 03 
   377)        79.8  Rx         0023  5  00 00 00 00 00 
   378)        80.1  Rx         0021  5  00 00 00 00 00 
   379)        80.3  Rx         0022  5  0B 00 E7 05 02 
   380)        80.5  Rx         0025  8  C5 03 8B 03 B5 02 FC 03 
   381)        80.7  Rx         0020  5  0A 00 B0 1A 01 
   382)        80.9  Rx         0023  5  00 00 00 00 00 
   383)        81.1  Rx         0024  5  00 00 83 15 00 
   384)        81.3  Rx         0021  5  00 00 00 00 00 
   385)        81.5  Rx         0022  5  0B 00 E7 05 02 
   386)        81.7  Rx         0031  6  FA 7F 03 80 05 80 
   387)        81.9  Rx         0020  5  0A 00 B0 1A 01 
   388)        82.0  Rx         0023  5  00 00 00 00 00 
   389)        82.3  Rx         0025  8  C5 03 8B 03 B4 02 FB 03 
   390)        82.5  Rx         0021  5  00 00 00 00 00 
   391)        82.7  Rx         0022  5  0B 00 E7 05 02 
   392)        82.9  Rx         0024  5  00 00 83 15 00 
   393)        83.1  Rx         0020  5  0A 00 B0 1A 03 
   394)        83.2  Rx         0023  5  00 00 00 00 00 
   395)        83.4  Rx         0030  6  66 08 AA 72 5A 82 
   396)        83.7  Rx         0021  5  00 00 00 00 00 
   397)        83.8  Rx         0022  5  0B 00 E7 05 02 
   398)        84.1  Rx         0025  8  C2 03 88 03 B4 02 FB 03 
   399)        84.3  Rx         0020  5  0A 00 B1 1A 01 
   400)        84.4  Rx         0023  5  00 00 00 00 00 
   401)        84.6  Rx         0024  5  00 00 5F 15 00 
   402)        84.8  Rx         0021  5  00 00 00 00 00 
   403)        85.0  Rx         0022  5  0B 00 E7 05 02 
   404)        85.3  Rx         0020  5  0A 00 B1 1A 03 
   405)        85.5  Rx         0023  5  00 00 00 00 00 
   406)        85.7  Rx         0025  8  C4 03 8B 03 B4 02 FA 03 
   407)        85.9  Rx         0021  5  00 00 00 00 00 
   408)        86.1  Rx         0031  6  FA 7F 00 80 02 80 
   409)        86.3  Rx         0024  5  00 00 5F 15 00 
   410)        86.5  Rx         0020  5  0A 00 B2 1A 01 
   411)        87.0  Rx         0021  5  00 00 00 00 00 
   412)        87.2  Rx         0026  6  CB FE EE 7C 93 40 
   413)        87.5  Rx         0025  8  C0 03 88 03 B3 02 F9 03 
   414)        87.6  Rx         0020  5  0A 00 B2 1A 03 
   415)        87.8  Rx         0022  5  0B 00 E7 05 02 
   416)        88.0  Rx         0024  5  00 00 5F 15 00 
   417)        88.2  Rx         0021  5  00 00 00 00 00 
   418)        88.4  Rx         0023  5  00 00 00 00 00 
   419)        88.6  Rx         0030  6  66 08 AA 72 5A 82 
   420)        88.8  Rx         0020  5  0A 00 B3 1A 01 
   421)        89.0  Rx         0022  5  0B 00 E7 05 02 
   422)        89.2  Rx         0025  8  C3 03 8B 03 B4 02 FB 03 
   423)        89.4  Rx         0021  5  00 00 00 00 00 
   424)        89.6  Rx         0023  5  00 00 00 00 00 
   425)        89.8  Rx         0024  5  00 00 83 15 00 
   426)        90.0  Rx         0020  5  0A 00 B3 1A 03 
   427)        90.2  Rx         0022  5  0B 00 E7 05 02 
   428)        90.5  Rx         0021  5  00 00 00 00 00 
   429)        90.7  Rx         0023  5  00 00 00 00 00 
   430)        90.9  Rx         0025  8  C2 03 8A 03 B4 02 FA 03 
   431)        91.1  Rx         0020  5  0A 00 B4 1A 01 
   432)        91.3  Rx         0022  5  0B 00 E7 05 02 
   433)        91.5  Rx         0024  5  00 00 83 15 00 
   434)        91.7  Rx         0021  5  00 00 00 00 00 
   435)        91.8  Rx         0023  5  00 00 00 00 00 
   436)        92.1  Rx         0031  6  FA 7F 00 80 02 80 
   437)        92.2  Rx         0020  5  0A 00 B4 1A 01 
   438)        92.4  Rx         0022  5  0B 00 E7 05 02 
   439)        92.7  Rx         0025  8  C0 03 8A 03 B4 02 FB 03 
   440)        92.9  Rx         0021  5  00 00 00 00 00 
   441)        93.1  Rx         0023  5  00 00 00 00 00 
   442)        93.3  Rx         0024  5  00 00 83 15 00 
   443)        93.4  Rx         0020  5  0A 00 B4 1A 03 
   444)        93.6  Rx         0022  5  0B 00 E7 05 02 
   445)        93.8  Rx         0030  6  66 08 AA 72 5A 82 
   446)        94.0  Rx         0021  5  00 00 00 00 00 
   447)        94.2  Rx         0023  5  00 00 00 00 00 
   448)        94.4  Rx         0025  8  BB 03 87 03 B4 02 FC 03 
   449)        94.6  Rx         0020  5  0A 00 B5 1A 01 
   450)        94.8  Rx         0022  5  0B 00 E7 05 02 
   451)        95.0  Rx         0024  5  00 00 83 15 00 
   452)        95.2  Rx         0021  5  00 00 00 00 00 
   453)        95.4  Rx         0023  5  00 00 00 00 00 
   454)        95.7  Rx         0020  5  0A 00 B5 1A 03 
   455)        95.9  Rx         0022  5  0B 00 E7 05 02 
   456)        96.1  Rx         0025  8  BD 03 8B 03 B5 02 FC 03 
   457)        96.3  Rx         0021  5  00 00 00 00 00 
   458)        96.5  Rx         0023  5  00 00 00 00 00 
   459)        96.7  Rx         0024  5  00 00 5F 15 00 
   460)        96.9  Rx         0020  5  0A 00 B6 1A 01 
   461)        97.1  Rx         0022  5  0B 00 E7 05 02 
   462)        97.3  Rx         0031  6  F9 7F FF 7F 04 80 
   463)        97.5  Rx         0021  5  00 00 00 00 00 
   464)        97.7  Rx         0023  5  00 00 00 00 00 
   465)        97.9  Rx         0025  8  BB 03 88 03 B5 02 FA 03 
   466)        98.1  Rx         0020  5  0A 00 B6 1A 03 
   467)        98.4  Rx         0024  5  00 00 5F 15 00 
   468)        98.6  Rx         0021  5  00 00 00 00 00 
   469)        99.1  Rx         0020  5  0A 00 B6 1A 03 
   470)        99.3  Rx         0026  6  CB FE EE 7C 9F 40 
   471)        99.6  Rx         0025  8  BB 03 89 03 B3 02 F9 03 
   472)        99.7  Rx         0021  5  00 00 00 00 00 
   473)       100.0  Rx         0022  5  0B 00 E7 05 02 
   474)       100.1  Rx         0024  5  00 00 5F 15 00 
   475)       100.3  Rx         0020  5  0A 00 B7 1A 01 
   476)       100.5  Rx         0023  5  00 00 00 00 00 
   477)       100.7  Rx         0030  6  66 08 AA 72 5A 82 
   478)       100.9  Rx         0021  5  00 00 00 00 00 
   479)       101.1  Rx         0022  5  0B 00 E7 05 02 
   480)       101.3  Rx         0025  8  BA 03 89 03 B4 02 FB 03 
   481)       101.5  Rx         0020  5  0A 00 B7 1A 03 
   482)       101.7  Rx         0023  5  00 00 00 00 00 
   483)       101.9  Rx         0024  5  00 00 5F 15 00 
   484)       102.1  Rx         0021  5  00 00 00 00 00 
   485)       102.3  Rx         0022  5  0B 00 E7 05 02 
   486)       102.5  Rx         0031  6  FC 7F FD 7F 05 80 
   487)       102.7  Rx         0020  5  0A 00 B8 1A 01 
   488)       102.9  Rx         0023  5  00 00 00 00 00 
   489)       103.1  Rx         0025  8  B9 03 8A 03 B5 02 FC 03 
   490)       103.3  Rx         0021  5  00 00 00 00 00 
   491)       103.5  Rx         0022  5  0B 00 E7 05 02 
   492)       103.7  Rx         0024  5  00 00 5F 15 00 
   493)       103.8  Rx         0020  5  0A 00 B8 1A 03 
   494)       104.0  Rx         0023  5  00 00 00 00 00 
   495)       104.2  Rx         0030  6  66 08 AA 72 5A 82 
   496)       104.4  Rx         0021  5  00 00 00 00 00 
   497)       104.6  Rx         0022  5  0B 00 E7 05 02 
   498)       104.9  Rx         0025  8  B8 03 88 03 B4 02 FB 03 
   499)       105.0  Rx         0020  5  0A 00 B9 1A 01 
   500)       105.2  Rx         0023  5  00 00 00 00 00 
   501)       105.4  Rx         0024  5  00 00 83 15 00 
   502)       105.6  Rx         0021  5  00 00 00 00 00 
   503)       105.8  Rx         0022  5  0B 00 E7 05 02 
   504)       106.1  Rx         0020  5  0A 00 B9 1A 03 
   505)       106.3  Rx         0023  5  00 00 00 00 00 
   506)       106.6  Rx         0025  8  B8 03 8B 03 B5 02 FA 03 
   507)       106.7  Rx         0021  5  00 00 00 00 00 
   508)       106.9  Rx         0022  5  0B 00 E7 05 02 
   509)       107.1  Rx         0024  5  00 00 5F 15 00 
   510)       107.3  Rx         0020  5  0A 00 BA 1A 01 
   511)       107.5  Rx         0023  5  00 00 00 00 00 
   512)       107.7  Rx         0031  6  FC 7F FD 7F 05 80 
   513)       107.9  Rx         0021  5  00 00 00 00 00 
   514)       108.1  Rx         0025  8  B7 03 89 03 B5 02 FB 03 
   515)       108.4  Rx         0020  5  0A 00 BA 1A 01 
   516)       108.6  Rx         0024  5  00 00 5F 15 00 
   517)       108.9  Rx         0021  5  00 00 00 00 00 
   518)       109.2  Rx         0026  6  CB FE EE 7C AA 40 
   519)       109.4  Rx         0020  5  0A 00 BA 1A 03 
   520)       109.6  Rx         0025  8  B3 03 89 03 B5 02 FC 03 
   521)       109.9  Rx         0022  5  0B 00 E7 05 02 
   522)       110.0  Rx         0021  5  00 00 00 00 00 
   523)       110.2  Rx         0024  5  00 00 5F 15 00 
   524)       110.4  Rx         0023  5  00 00 00 00 00 
   525)       110.6  Rx         0020  5  0A 00 BB 1A 01 
   526)       110.8  Rx         0030  6  66 08 AA 72 5A 82 
   527)       111.0  Rx         0022  5  0B 00 E7 05 02 
   528)       111.2  Rx         0021  5  00 00 00 00 00 
   529)       111.4  Rx         0025  8  B6 03 8A 03 B5 02 FD 03 
   530)       111.6  Rx         0023  5  00 00 00 00 00 
   531)       111.8  Rx         0020  5  0A 00 BB 1A 03 
   532)       112.0  Rx         0024  5  00 00 5F 15 00 
   533)       112.2  Rx         0022  5  0B 00 E7 05 02 
   534)       112.4  Rx         0021  5  00 00 00 00 00 
   535)       112.6  Rx         0031  6  FE 7F FA 7F 06 80 
   536)       112.8  Rx         0023  5  00 00 00 00 00 
   537)       113.0  Rx         0020  5  0A 00 BC 1A 01 
   538)       113.2  Rx         0025  8  B6 03 89 03 B5 02 FA 03 
   539)       113.3  Rx         0022  5  0B 00 E7 05 02 
   540)       113.6  Rx         0021  5  00 00 00 00 00 
   541)       113.7  Rx         0024  5  00 00 5F 15 00 
   542)       113.9  Rx         0023  5  00 00 00 00 00 
   543)       114.1  Rx         0020  5  0A 00 BC 1A 03 
   544)       114.3  Rx         0030  6  66 08 AA 72 5A 82 
   545)       114.5  Rx         0022  5  0B 00 E7 05 02 
   546)       114.7  Rx         0021  5  00 00 00 00 00 
   547)       114.9  Rx         0025  8  B6 03 8A 03 B5 02 FB 03 
   548)       115.1  Rx         0023  5  00 00 00 00 00 
   549)       115.3  Rx         0020  5  0A 00 BC 1A 03 
   550)       115.5  Rx         0024  5  00 00 5F 15 00 
   551)       115.7  Rx         0022  5  0B 00 E7 05 02 
   552)       115.9  Rx         0021  5  00 00 00 00 00 
   553)       116.2  Rx         0023  5  00 00 00 00 00 
   554)       116.4  Rx         0020  5  0A 00 BD 1A 01 
   555)       116.6  Rx         0025  8  B6 03 8A 03 B6 02 FB 03 
   556)       116.8  Rx         0022  5  0B 00 E7 05 02 
   557)       117.0  Rx         0021  5  00 00 00 00 00 
   558)       117.2  Rx         0024  5  00 00 5F 15 00 
   559)       117.4  Rx         0023  5  00 00 00 00 00 
   560)       117.6  Rx         0020  5  0A 00 BD 1A 01 
   561)       117.8  Rx         0031  6  FE 7F FA 7F 06 80 
   562)       118.0  Rx         0022  5  0B 00 E7 05 02 
   563)       118.2  Rx         0021  5  00 00 00 00 00 
   564)       118.4  Rx         0025  8  B5 03 88 03 B6 02 FB 03 
   565)       118.6  Rx         0023  5  00 00 00 00 00 
   566)       118.8  Rx         0020  5  0A 00 BD 1A 03 
   567)       119.0  Rx         0024  5  00 00 5F 15 00 
   568)       119.3  Rx         0021  5  00 00 00 00 00 
   569)       119.8  Rx         0020  5  0A 00 BE 1A 01 
   570)       120.0  Rx         0025  8  B3 03 88 03 B6 02 FA 03 
   571)       120.2  Rx         0026  6  CB FE EE 7C B5 40 
   572)       120.4  Rx         0021  5  00 00 00 00 00 
   573)       120.6  Rx         0024  5  00 00 83 15 00 
   574)       120.8  Rx         0022  5  0B 00 E7 05 02 
   575)       121.0  Rx         0020  5  0A 00 BE 1A 03 
   576)       121.2  Rx         0030  6  66 08 AA 72 5A 82 
   577)       121.4  Rx         0023  5  00 00 00 00 00 
   578)       121.6  Rx         0021  5  00 00 00 00 00 
   579)       121.8  Rx         0025  8  B6 03 8B 03 B6 02 FB 03 
   580)       122.0  Rx         0022  5  0B 00 E7 05 02 
   581)       122.2  Rx         0020  5  0A 00 BF 1A 01 
   582)       122.4  Rx         0024  5  00 00 5F 15 00 
   583)       122.6  Rx         0023  5  00 00 00 00 00 
   584)       122.8  Rx         0021  5  00 00 00 00 00 
   585)       122.9  Rx         0031  6  FD 7F 00 80 07 80 
   586)       123.2  Rx         0022  5  0B 00 E7 05 02 
   587)       123.3  Rx         0020  5  0A 00 BF 1A 03 
   588)       123.6  Rx         0025  8  B4 03 88 03 B6 02 FB 03 
   589)       123.8  Rx         0023  5  00 00 00 00 00 
   590)       124.0  Rx         0021  5  00 00 00 00 00 
   591)       124.1  Rx         0024  5  00 00 5F 15 00 
   592)       124.4  Rx         0022  5  0B 00 E7 05 02 
   593)       124.5  Rx         0020  5  0A 00 BF 1A 03 
   594)       124.7  Rx         0030  6  66 08 AA 72 5A 82 
   595)       124.9  Rx         0023  5  00 00 00 00 00 
   596)       125.1  Rx         0021  5  00 00 00 00 00 
   597)       125.4  Rx         0025  8  B5 03 8A 03 B6 02 FB 03 
   598)       125.6  Rx         0022  5  0B 00 E7 05 02 
   599)       125.7  Rx         0020  5  0A 00 BF 1A 03 
   600)       125.9  Rx         0024  5  00 00 5F 15 00 
   601)       126.1  Rx         0023  5  00 00 00 00 00 
   602)       126.3  Rx         0021  5  00 00 00 00 00 
   603)       126.6  Rx         0022  5  0B 00 E7 05 02 
   604)       126.9  Rx         0025  8  B5 03 8B 03 B8 02 FC 03 
   605)       127.0  Rx         0020  5  0A 00 C0 1A 01 
   606)       127.3  Rx         0023  5  00 00 00 00 00 
   607)       127.4  Rx         0024  5  00 00 5F 15 00 
   608)       127.6  Rx         0021  5  00 00 00 00 00 
   609)       127.8  Rx         0022  5  0B 00 E7 05 02 
   610)       128.0  Rx         0031  6  FD 7F 00 80 07 80 
   611)       128.2  Rx         0020  5  0A 00 C0 1A 03 
   612)       128.4  Rx         0023  5  00 00 00 00 00 
   613)       128.6  Rx         0025  8  B5 03 8A 03 B6 02 FB 03 
   614)       128.8  Rx         0021  5  00 00 00 00 00 
   615)       129.0  Rx         0022  5  0B 00 E7 05 02 
   616)       129.2  Rx         0024  5  00 00 5F 15 00 
   617)       129.4  Rx         0020  5  0A 00 C1 1A 01 
   618)       129.6  Rx         0023  5  00 00 00 00 00 
   619)       129.9  Rx         0021  5  00 00 00 00 00 
   620)       130.2  Rx         0025  8  B6 03 8B 03 B7 02 FB 03 
   621)       130.4  Rx         0020  5  0A 00 C1 1A 01 
   622)       130.6  Rx         0030  6  66 08 AA 72 5A 82 
   623)       130.8  Rx         0024  5  00 00 83 15 00 
   624)       131.0  Rx         0021  5  00 00 00 00 00 
   625)       131.5  Rx         0020  5  0A 00 C1 1A 03 
   626)       131.7  Rx         0025  8  B3 03 88 03 B4 02 F7 03 
   627)       132.0  Rx         0021  5  00 00 00 00 00 
   628)       132.2  Rx         0026  6  C0 FE EE 7C C1 40 
   629)       132.4  Rx         0024  5  00 00 5F 15 00 
   630)       132.6  Rx         0020  5  0A 00 C1 1A 03 
   631)       132.8  Rx         0022  5  0B 00 E7 05 02 
   632)       133.0  Rx         0031  6  FD 7F 01 80 0C 80 
   633)       133.1  Rx         0021  5  00 00 00 00 00 
   634)       133.4  Rx         0023  5  00 00 00 00 00 
   635)       133.6  Rx         0025  8  B5 03 8A 03 B6 02 FB 03 
   636)       133.8  Rx         0020  5  0A 00 C2 1A 01 
   637)       134.0  Rx         0022  5  0B 00 E7 05 02 
   638)       134.2  Rx         0024  5  00 00 5F 15 00 
   639)       134.3  Rx         0021  5  00 00 00 00 00 
   640)       134.6  Rx         0023  5  00 00 00 00 00 
   641)       134.7  Rx         0030  6  5A 08 AA 72 5A 82 
   642)       134.9  Rx         0020  5  0A 00 C2 1A 01 
   643)       135.1  Rx         0022  5  0B 00 E7 05 02 
   644)       135.4  Rx         0025  8  B5 03 8A 03 B6 02 FB 03 
   645)       135.5  Rx         0021  5  00 00 00 00 00 
   646)       135.7  Rx         0023  5  00 00 00 00 00 
   647)       135.9  Rx         0024  5  00 00 5F 15 00 
   648)       136.1  Rx         0020  5  0A 00 C2 1A 01 
   649)       136.3  Rx         0022  5  0B 00 E7 05 02 
   650)       136.6  Rx         0021  5  00 00 00 00 00 
   651)       136.8  Rx         0023  5  00 00 00 00 00 
   652)       137.1  Rx         0025  8  B6 03 8B 03 B7 02 FA 03 
   653)       137.2  Rx         0020  5  0A 00 C2 1A 03 
   654)       137.5  Rx         0022  5  0B 00 E7 05 02 
   655)       137.6  Rx         0024  5  00 00 5F 15 00 
   656)       137.8  Rx         0021  5  00 00 00 00 00 
   657)       138.0  Rx         0023  5  00 00 00 00 00 
   658)       138.2  Rx         0031  6  FD 7F 01 80 0C 80 
   659)       138.4  Rx         0020  5  0A 00 C3 1A 03 
   660)       138.6  Rx         0022  5  0B 00 E7 05 02 
   661)       138.8  Rx         0025  8  B5 03 8A 03 B6 02 FB 03 
   662)       139.0  Rx         0021  5  00 00 00 00 00 
   663)       139.2  Rx         0023  5  00 00 00 00 00 
   664)       139.4  Rx         0024  5  00 00 5F 15 00 
   665)       139.6  Rx         0020  5  0A 00 C3 1A 03 
   666)       139.8  Rx         0022  5  0B 00 E7 05 02 
   667)       140.1  Rx         0021  5  00 00 00 00 00 
   668)       140.3  Rx         0023  5  00 00 00 00 00 
   669)       140.5  Rx         0025  8  B5 03 8A 03 B6 02 FB 03 
   670)       140.7  Rx         0020  5  0A 00 C3 1A 03 
   671)       140.9  Rx         0022  5  0B 00 E7 05 02 
   672)       141.1  Rx         0024  5  00 00 5F 15 00 
   673)       141.3  Rx         0021  5  00 00 00 00 00 
   674)       141.5  Rx         0023  5  00 00 00 00 00 
   675)       141.7  Rx         0030  6  5A 08 AA 72 5A 82 
   676)       141.8  Rx         0020  5  0A 00 C4 1A 01 
   677)       142.1  Rx         0025  8  B4 03 8A 03 B6 02 FB 03 
   678)       142.4  Rx         0021  5  00 00 00 00 00 
   679)       142.5  Rx         0024  5  00 00 5F 15 00 
   680)       142.9  Rx         0020  5  0A 00 C4 1A 01 
   681)       143.3  Rx         0031  6  FB 7F FF 7F 09 80 
   682)       143.5  Rx         0021  5  00 00 00 00 00 
   683)       143.7  Rx         0025  8  B1 03 88 03 B6 02 F9 03 
   684)       144.0  Rx         0026  6  C0 FE EE 7C CC 40 
   685)       144.2  Rx         0020  5  0A 00 C4 1A 03 
   686)       144.4  Rx         0024  5  00 00 5F 15 00 
   687)       144.5  Rx         0022  5  0B 00 E7 05 02 
   688)       144.7  Rx         0021  5  00 00 00 00 00 
   689)       145.0  Rx         0023  5  00 00 00 00 00 
   690)       145.2  Rx         0030  6  5A 08 AA 72 5A 82 
   691)       145.4  Rx         0020  5  0A 00 C4 1A 03 
   692)       145.6  Rx         0022  5  0B 00 E7 05 02 
   693)       145.8  Rx         0025  8  B5 03 89 03 B7 02 FC 03 
   694)       146.0  Rx         0021  5  00 00 00 00 00 
   695)       146.2  Rx         0023  5  00 00 00 00 00 
   696)       146.4  Rx         0024  5  00 00 5F 15 00 
   697)       146.6  Rx         0020  5  0A 00 C5 1A 01 
   698)       146.8  Rx         0022  5  0B 00 E7 05 02 
   699)       147.1  Rx         0021  5  00 00 00 00 00 
   700)       147.3  Rx         0023  5  00 00 00 00 00 
   701)       147.5  Rx         0025  8  B5 03 89 03 B7 02 FA 03 
   702)       147.7  Rx         0020  5  0A 00 C5 1A 01 
   703)       147.9  Rx         0022  5  0B 00 E7 05 02 
   704)       148.1  Rx         0024  5  00 00 5F 15 00 
   705)       148.3  Rx         0021  5  00 00 00 00 00 
   706)       148.5  Rx         0023  5  00 00 00 00 00 
   707)       148.7  Rx         0031  6  FB 7F FF 7F 09 80 
   708)       148.8  Rx         0020  5  0A 00 C5 1A 03 
   709)       149.1  Rx         0022  5  0B 00 E7 05 02 
   710)       149.3  Rx         0025  8  B4 03 88 03 B6 02 FB 03 
   711)       149.5  Rx         0021  5  00 00 00 00 00 
   712)       149.7  Rx         0023  5  00 00 00 00 00 
   713)       149.9  Rx         0024  5  00 00 5F 15 00 
   714)       150.0  Rx         0020  5  0A 00 C5 1A 03 
   715)       150.2  Rx         0022  5  0B 00 E7 05 02 
   716)       150.6  Rx         0021  5  00 00 00 00 00 
   717)       150.7  Rx         0023  5  00 00 00 00 00 
   718)       151.0  Rx         0025  8  B4 03 88 03 B6 02 FB 03 
   719)       151.2  Rx         0020  5  0A 00 C5 1A 03 
   720)       151.3  Rx         0022  5  0B 00 E7 05 02 
   721)       151.5  Rx         0024  5  00 00 5F 15 00 
   722)       151.7  Rx         0021  5  00 00 00 00 00 
   723)       151.9  Rx         0023  5  00 00 00 00 00 
   724)       152.1  Rx         0030  6  5A 08 AA 72 5A 82 
   725)       152.3  Rx         0020  5  0A 00 C6 1A 01 
   726)       152.5  Rx         0025  8  B4 03 8A 03 B7 02 FD 03 
   727)       152.8  Rx         0021  5  00 00 00 00 00 
   728)       153.0  Rx         0024  5  00 00 5F 15 00 
   729)       153.3  Rx         0020  5  0A 00 C6 1A 01 
   730)       153.8  Rx         0031  6  FD 7F FD 7F 0A 80 
   731)       154.0  Rx         0021  5  00 00 00 00 00 
   732)       154.2  Rx         0025  8  B2 03 88 03 B5 02 F9 03 
   733)       154.4  Rx         0026  6  C0 FE EE 7C D7 40 
   734)       154.6  Rx         0020  5  0A 00 C6 1A 01 
   735)       154.8  Rx         0024  5  00 00 5F 15 00 
   736)       155.0  Rx         0022  5  0B 00 E7 05 02 
   737)       155.2  Rx         0021  5  00 00 00 00 00 
   738)       155.5  Rx         0030  6  5A 08 AA 72 5A 82 
   739)       155.7  Rx         0023  5  00 00 00 00 00 
   740)       155.8  Rx         0020  5  0A 00 C6 1A 03 
   741)       156.1  Rx         0025  8  B4 03 89 03 B6 02 FD 03 
   742)       156.3  Rx         0022  5  0B 00 E7 05 02 
   743)       156.5  Rx         0021  5  00 00 00 00 00 
   744)       156.7  Rx         0024  5  00 00 5F 15 00 
   745)       156.8  Rx         0023  5  00 00 00 00 00 
   746)       157.0  Rx         0020  5  0A 00 C6 1A 03 
   747)       157.3  Rx         0022  5  0B 00 E7 05 02 
   748)       157.6  Rx         0021  5  00 00 00 00 00 
   749)       157.8  Rx         0025  8  B5 03 8A 03 B6 02 FA 03 
   750)       158.0  Rx         0023  5  00 00 00 00 00 
   751)       158.1  Rx         0020  5  0A 00 C7 1A 01 
   752)       158.3  Rx         0024  5  00 00 5F 15 00 
   753)       158.5  Rx         0022  5  0B 00 E7 05 02 
   754)       158.7  Rx         0021  5  00 00 00 00 00 
   755)       158.9  Rx         0031  6  FD 7F FD 7F 0A 80 
   756)       159.1  Rx         0023  5  00 00 00 00 00 
   757)       159.3  Rx         0020  5  0A 00 C7 1A 01 
   758)       159.5  Rx         0025  8  B4 03 89 03 B6 02 FC 03 
   759)       159.7  Rx         0022  5  0B 00 E7 05 02 
   760)       159.9  Rx         0021  5  00 00 00 00 00 
   761)       160.1  Rx         0024  5  00 00 5F 15 00 
   762)       160.3  Rx         0023  5  00 00 00 00 00 
   763)       160.5  Rx         0020  5  0A 00 C7 1A 01 
   764)       160.8  Rx         0022  5  0B 00 E7 05 02 
   765)       161.0  Rx         0021  5  00 00 00 00 00 
   766)       161.2  Rx         0025  8  B3 03 88 03 B5 02 FA 03 
   767)       161.4  Rx         0023  5  00 00 00 00 00 
   768)       161.6  Rx         0020  5  0A 00 C7 1A 01 
   769)       161.8  Rx         0024  5  00 00 5F 15 00 
   770)       161.9  Rx         0022  5  0B 00 E7 05 02 
   771)       162.2  Rx         0021  5  00 00 00 00 00 
   772)       162.3  Rx         0030  6  5A 08 AA 72 5A 82 
   773)       162.5  Rx         0023  5  00 00 00 00 00 
   774)       162.7  Rx         0020  5  0A 00 C7 1A 01 
   775)       163.0  Rx         0025  8  B4 03 89 03 B6 02 FA 03 
   776)       163.1  Rx         0022  5  0B 00 E7 05 02 
   777)       163.4  Rx         0021  5  00 00 00 00 00 
   778)       163.5  Rx         0024  5  00 00 5F 15 00 
   779)       163.7  Rx         0023  5  00 00 00 00 00 
   780)       163.9  Rx         0020  5  0A 00 C7 1A 03 
   781)       164.1  Rx         0031  6  FF 7F F8 7F 09 80 
   782)       164.4  Rx         0021  5  00 00 00 00 00 
   783)       164.7  Rx         0025  8  B4 03 89 03 B6 02 FB 03 
   784)       164.9  Rx         0020  5  0A 00 C7 1A 03 
   785)       165.1  Rx         0024  5  00 00 5F 15 00 
   786)       165.4  Rx         0021  5  00 00 00 00 00 
   787)       166.0  Rx         0020  5  0A 00 C8 1A 01 
   788)       166.2  Rx         0025  8  B1 03 86 03 B5 02 F8 03 
   789)       166.4  Rx         0026  6  C0 FE EE 7C E3 40 
   790)       166.6  Rx         0021  5  00 00 00 00 00 
   791)       166.8  Rx         0024  5  00 00 5F 15 00 
   792)       166.9  Rx         0022  5  0B 00 E7 05 02 
   793)       167.1  Rx         0020  5  0A 00 C8 1A 01 
   794)       167.3  Rx         0030  6  5A 08 AA 72 5A 82 
   795)       167.5  Rx         0023  5  00 00 00 00 00 
   796)       167.7  Rx         0021  5  00 00 00 00 00 
   797)       167.9  Rx         0025  8  B2 03 89 03 B6 02 FD 03 
   798)       168.1  Rx         0022  5  0B 00 E7 05 02 
   799)       168.3  Rx         0020  5  0A 00 C8 1A 01 
   800)       168.5  Rx         0024  5  00 00 5F 15 00 
   801)       168.7  Rx         0023  5  00 00 00 00 00 
   802)       168.9  Rx         0021  5  00 00 00 00 00 
   803)       169.2  Rx         0022  5  0B 00 E7 05 02 
   804)       169.4  Rx         0020  5  0A 00 C8 1A 01 
   805)       169.7  Rx         0025  8  B4 03 88 03 B7 02 FC 03 
   806)       169.8  Rx         0023  5  00 00 00 00 00 
   807)       170.1  Rx         0021  5  00 00 00 00 00 
   808)       170.2  Rx         0024  5  00 00 5F 15 00 
   809)       170.4  Rx         0022  5  0B 00 E7 05 02 
   810)       170.6  Rx         0020  5  0A 00 C8 1A 01 
   811)       170.8  Rx         0031  6  FF 7F F8 7F 09 80 
   812)       171.0  Rx         0023  5  00 00 00 00 00 
   813)       171.2  Rx         0021  5  00 00 00 00 00 
   814)       171.4  Rx         0025  8  B2 03 87 03 B4 02 FB 03 
   815)       171.6  Rx         0022  5  0B 00 E7 05 02 
   816)       171.8  Rx         0020  5  0A 00 C8 1A 01 
   817)       172.0  Rx         0024  5  00 00 5F 15 00 
   818)       172.2  Rx         0023  5  00 00 00 00 00 
   819)       172.4  Rx         0021  5  00 00 00 00 00 
   820)       172.6  Rx         0030  6  5A 08 AA 72 5A 82 
   821)       172.8  Rx         0022  5  0B 00 E7 05 02 
   822)       173.0  Rx         0020  5  0A 00 C8 1A 03 
   823)       173.2  Rx         0025  8  B4 03 89 03 B6 02 FD 03 
   824)       173.4  Rx         0023  5  00 00 00 00 00 
   825)       173.6  Rx         0021  5  00 00 00 00 00 
   826)       173.8  Rx         0024  5  00 00 5F 15 00 
   827)       173.9  Rx         0022  5  0B 00 E7 05 02 
   828)       174.1  Rx         0020  5  0A 00 C8 1A 03 
   829)       174.3  Rx         0031  6  01 80 F6 7F 09 80 
   830)       174.5  Rx         0023  5  00 00 00 00 00 
   831)       174.7  Rx         0021  5  00 00 00 00 00 
   832)       175.0  Rx         0025  8  B4 03 89 03 B5 02 FC 03 
   833)       175.2  Rx         0020  5  0A 00 C8 1A 03 
   834)       175.4  Rx         0024  5  00 00 5F 15 00 
   835)       175.7  Rx         0021  5  00 00 00 00 00 
   836)       176.2  Rx         0020  5  0A 00 C8 1A 03 
   837)       176.5  Rx         0025  8  B2 03 89 03 B5 02 FA 03 
   838)       176.7  Rx         0026  6  C0 FE EE 7C EE 40 
   839)       176.9  Rx         0021  5  00 00 00 00 00 
   840)       177.0  Rx         0024  5  00 00 5F 15 00 
   841)       177.3  Rx         0022  5  0B 00 E7 05 02 
   842)       177.4  Rx         0020  5  0A 00 C8 1A 03 
   843)       177.6  Rx         0030  6  5A 08 AA 72 5A 82 
   844)       177.8  Rx         0023  5  00 00 00 00 00 
   845)       178.0  Rx         0021  5  00 00 00 00 00 
   846)       178.2  Rx         0025  8  B3 03 87 03 B6 02 FA 03 
   847)       178.5  Rx         0022  5  0B 00 E7 05 02 
   848)       178.6  Rx         0020  5  0A 00 C8 1A 03 
   849)       178.8  Rx         0024  5  00 00 5F 15 00 
   850)       179.0  Rx         0023  5  00 00 00 00 00 
   851)       179.2  Rx         0021  5  00 00 00 00 00 
   852)       179.5  Rx         0022  5  0B 00 E7 05 02 
   853)       179.7  Rx         0025  8  B5 03 8A 03 B6 02 FD 03 
   854)       179.9  Rx         0020  5  0A 00 C8 1A 03 
   855)       180.1  Rx         0023  5  00 00 00 00 00 
   856)       180.3  Rx         0024  5  00 00 5F 15 00 
   857)       180.5  Rx         0021  5  00 00 00 00 00 
   858)       180.7  Rx         0022  5  0B 00 E7 05 02 
   859)       180.9  Rx         0031  6  01 80 F6 7F 09 80 
   860)       181.1  Rx         0020  5  0A 00 C8 1A 03 
   861)       181.3  Rx         0023  5  00 00 00 00 00 
   862)       181.5  Rx         0025  8  B4 03 89 03 B4 02 FC 03 
   863)       181.7  Rx         0021  5  00 00 00 00 00 
   864)       181.9  Rx         0022  5  0B 00 E7 05 02 
   865)       182.0  Rx         0024  5  00 00 5F 15 00 
   866)       182.3  Rx         0020  5  0A 00 C9 1A 01 
   867)       182.4  Rx         0023  5  00 00 00 00 00 
   868)       182.6  Rx         0030  6  5A 08 AA 72 5A 82 
   869)       182.9  Rx         0021  5  00 00 00 00 00 
   870)       183.0  Rx         0022  5  0B 00 E7 05 02 
   871)       183.2  Rx         0025  8  B4 03 89 03 B5 02 FD 03 
   872)       183.4  Rx         0020  5  0A 00 C9 1A 01 
   873)       183.6  Rx         0023  5  00 00 00 00 00 
   874)       183.8  Rx         0024  5  00 00 5F 15 00 
   875)       184.0  Rx         0021  5  00 00 00 00 00 
   876)       184.2  Rx         0022  5  0B 00 E7 05 02 
   877)       184.4  Rx         0031  6  FE 7F FC 7F 06 80 
   878)       184.6  Rx         0020  5  0A 00 C9 1A 01 
   879)       184.8  Rx         0023  5  00 00 00 00 00 
   880)       185.0  Rx         0025  8  B4 03 89 03 B4 02 FC 03 
   881)       185.2  Rx         0021  5  00 00 00 00 00 
   882)       185.5  Rx         0024  5  00 00 5F 15 00 
   883)       185.7  Rx         0020  5  0A 00 C9 1A 01 
   884)       186.3  Rx         0021  5  00 00 00 00 00 
   885)       186.5  Rx         0025  8  B2 03 88 03 B2 02 F7 03 
   886)       186.7  Rx         0026  6  C0 FE EE 7C FA 40 
   887)       186.9  Rx         0020  5  0A 00 C9 1A 01 
   888)       187.0  Rx         0024  5  00 00 5F 15 00 
   889)       187.2  Rx         0022  5  0B 00 E7 05 02 
   890)       187.4  Rx         0021  5  00 00 00 00 00 
   891)       187.6  Rx         0030  6  5A 08 AA 72 5A 82 
   892)       187.8  Rx         0023  5  00 00 00 00 00 
   893)       188.0  Rx         0020  5  0A 00 C9 1A 01 
   894)       188.2  Rx         0025  8  B4 03 89 03 B5 02 FA 03 
   895)       188.4  Rx         0022  5  0B 00 E7 05 02 
   896)       188.6  Rx         0021  5  00 00 00 00 00 
   897)       188.8  Rx         0024  5  00 00 5F 15 00 
   898)       189.0  Rx         0023  5  00 00 00 00 00 
   899)       189.2  Rx         0020  5  0A 00 C9 1A 01 
   900)       189.5  Rx         0022  5  0B 00 E7 05 02 
   901)       189.7  Rx         0021  5  00 00 00 00 00 
   902)       189.9  Rx         0025  8  B3 03 89 03 B5 02 FC 03 
   903)       190.1  Rx         0023  5  00 00 00 00 00 
   904)       190.3  Rx         0020  5  0A 00 C9 1A 01 
   905)       190.5  Rx         0024  5  00 00 5F 15 00 
   906)       190.7  Rx         0022  5  0B 00 E7 05 02 
   907)       190.9  Rx         0021  5  00 00 00 00 00 
   908)       191.1  Rx         0031  6  FE 7F FC 7F 06 80 
   909)       191.3  Rx         0023  5  00 00 00 00 00 
   910)       191.4  Rx         0020  5  0A 00 C9 1A 01 
   911)       191.7  Rx         0025  8  B2 03 87 03 B4 02 FB 03 
   912)       191.9  Rx         0022  5  0B 00 E7 05 02 
   913)       192.1  Rx         0021  5  00 00 00 00 00 
   914)       192.2  Rx         0024  5  00 00 5F 15 00 
   915)       192.5  Rx         0023  5  00 00 00 00 00 
   916)       192.6  Rx         0020  5  0A 00 C9 1A 01 
   917)       192.8  Rx         0030  6  5A 08 AA 72 5A 82 
   918)       193.0  Rx         0022  5  0B 00 E7 05 02 
   919)       193.2  Rx         0021  5  00 00 00 00 00 
   920)       193.4  Rx         0025  8  B4 03 88 03 B4 02 FA 03 
   921)       193.6  Rx         0023  5  00 00 00 00 00 
   922)       193.8  Rx         0020  5  0A 00 C9 1A 01 
   923)       194.0  Rx         0024  5  00 00 5F 15 00 
   924)       194.2  Rx         0022  5  0B 00 E7 05 02 
   925)       194.4  Rx         0021  5  00 00 00 00 00 
   926)       194.6  Rx         0031  6  F9 7F 06 80 09 80 
   927)       194.8  Rx         0023  5  00 00 00 00 00 
   928)       195.0  Rx         0020  5  0A 00 C9 1A 01 
   929)       195.2  Rx         0025  8  B2 03 86 03 B4 02 FA 03 
   930)       195.4  Rx         0022  5  0B 00 E7 05 02 
   931)       195.6  Rx         0021  5  00 00 00 00 00 
   932)       195.8  Rx         0024  5  00 00 5F 15 00 
   933)       196.0  Rx         0023  5  00 00 00 00 00 
   934)       196.2  Rx         0020  5  0A 00 C9 1A 01 
   935)       196.7  Rx         0021  5  00 00 00 00 00 
   936)       196.9  Rx         0025  8  B4 03 89 03 B5 02 FB 03 
   937)       197.1  Rx         0030  6  5A 08 AA 72 5A 82 
   938)       197.3  Rx         0020  5  0A 00 C9 1A 01 
   939)       197.5  Rx         0024  5  00 00 5F 15 00 
   940)       197.7  Rx         0026  6  C0 FE F9 7C FA 40 
   941)       197.9  Rx         0021  5  00 00 00 00 00 
   942)       198.2  Rx         0022  5  0B 00 E7 05 02 
   943)       198.4  Rx         0025  8  B3 03 88 03 B4 02 FD 03 
   944)       198.6  Rx         0020  5  0A 00 C9 1A 01 
   945)       198.8  Rx         0023  5  00 00 00 00 00 
   946)       199.0  Rx         0024  5  00 00 5F 15 00 
   947)       199.2  Rx         0021  5  00 00 00 00 00 
   948)       199.4  Rx         0022  5  0B 00 E7 05 02 
   949)       199.6  Rx         0031  6  F9 7F 06 80 09 80 
   950)       199.8  Rx         0020  5  0A 00 C9 1A 01 
   951)       200.0  Rx         0023  5  00 00 00 00 00 
   952)       200.2  Rx         0025  8  B6 03 89 03 B4 02 FB 03 
   953)       200.4  Rx         0021  5  00 00 00 00 00 
   954)       200.6  Rx         0022  5  0B 00 E7 05 02 
   955)       200.8  Rx         0024  5  00 00 5F 15 00 
   956)       201.0  Rx         0020  5  0A 00 C9 1A 01 
   957)       201.2  Rx         0023  5  00 00 00 00 00 
   958)       201.5  Rx         0021  5  00 00 00 00 00 
   959)       201.7  Rx         0022  5  0B 00 E7 05 02 
   960)       201.9  Rx         0025  8  B1 03 87 03 B4 02 FB 03 
   961)       202.1  Rx         0020  5  0A 00 C9 1A 01 
   962)       202.3  Rx         0023  5  00 00 00 00 00 
   963)       202.5  Rx         0024  5  00 00 5F 15 00 
   964)       202.7  Rx         0021  5  00 00 00 00 00 
   965)       202.9  Rx         0022  5  0B 00 E7 05 02 
   966)       203.1  Rx         0030  6  5A 08 AA 72 5A 82 
   967)       203.2  Rx         0020  5  0A 00 C9 1A 01 
   968)       203.4  Rx         0023  5  00 00 00 00 00 
   969)       203.7  Rx         0025  8  B4 03 89 03 B3 02 FB 03 
   970)       203.8  Rx         0021  5  00 00 00 00 00 
   971)       204.1  Rx         0022  5  0B 00 E7 05 02 
   972)       204.2  Rx         0024  5  00 00 5F 15 00 
   973)       204.4  Rx         0020  5  0A 00 C9 1A 01 
   974)       204.6  Rx         0023  5  00 00 00 00 00 
   975)       204.8  Rx         0031  6  F6 7F 0B 80 06 80 
   976)       205.0  Rx         0021  5  00 00 00 00 00 
   977)       205.2  Rx         0022  5  0B 00 E7 05 02 
   978)       205.4  Rx         0025  8  B4 03 89 03 B3 02 FC 03 
   979)       205.6  Rx         0020  5  0A 00 C9 1A 01 
   980)       205.8  Rx         0023  5  00 00 00 00 00 
   981)       206.0  Rx         0024  5  00 00 5F 15 00 
   982)       206.2  Rx         0021  5  00 00 00 00 00 
   983)       206.4  Rx         0022  5  0B 00 E7 05 02 
   984)       206.7  Rx         0020  5  0A 00 C9 1A 01 
   985)       206.9  Rx         0023  5  00 00 00 00 00 
   986)       207.1  Rx         0025  8  B5 03 89 03 B4 02 FC 03 
   987)       207.3  Rx         0021  5  00 00 00 00 00 
   988)       207.5  Rx         0022  5  0B 00 E7 05 02 
   989)       207.7  Rx         0024  5  00 00 5F 15 00 
   990)       207.9  Rx         0020  5  0A 00 C9 1A 01 
   991)       208.1  Rx         0023  5  00 00 00 00 00 
   992)       208.3  Rx         0030  6  5A 08 AA 72 5A 82 
   993)       208.5  Rx         0021  5  00 00 00 00 00 
   994)       208.7  Rx         0025  8  B4 03 88 03 B3 02 FC 03 
   995)       209.0  Rx         0020  5  0A 00 C9 1A 01 
   996)       209.2  Rx         0024  5  00 00 5F 15 00 
   997)       209.5  Rx         0021  5  00 00 00 00 00 
   998)       209.7  Rx         0026  6  C0 FE F9 7C FA 40 
   999)       210.0  Rx         0020  5  0A 00 C9 1A 01 
  1000)       210.2  Rx         0025  8  B1 03 87 03 B3 02 FB 03 
  1001)       210.4  Rx         0022  5  0B 00 E7 05 02 
  1002)       210.6  Rx         0021  5  00 00 00 00 00 
  1003)       210.8  Rx         0024  5  00 00 5F 15 00 
  1004)       211.0  Rx         0023  5  00 00 00 00 00 
  1005)       211.2  Rx         0020  5  0A 00 C9 1A 01 
  1006)       211.4  Rx         0031  6  F6 7F 0B 80 06 80 
  1007)       211.6  Rx         0022  5  0B 00 E7 05 02 
  1008)       211.7  Rx         0021  5  00 00 00 00 00 
  1009)       212.0  Rx         0025  8  B2 03 86 03 B4 02 FC 03 
  1010)       212.2  Rx         0023  5  00 00 00 00 00 
  1011)       212.3  Rx         0020  5  0A 00 C9 1A 01 
  1012)       212.5  Rx         0024  5  00 00 5F 15 00 
  1013)       212.7  Rx         0022  5  0B 00 E7 05 02 
  1014)       212.9  Rx         0021  5  00 00 00 00 00 
  1015)       213.1  Rx         0030  6  5A 08 AA 72 5A 82 
  1016)       213.3  Rx         0023  5  00 00 00 00 00 
  1017)       213.5  Rx         0020  5  0A 00 C9 1A 01 
  1018)       213.7  Rx         0025  8  B4 03 88 03 B3 02 FC 03 
  1019)       213.9  Rx         0022  5  0B 00 E7 05 02 
  1020)       214.1  Rx         0021  5  00 00 00 00 00 
  1021)       214.3  Rx         0024  5  00 00 5F 15 00 
  1022)       214.5  Rx         0023  5  00 00 00 00 00 
  1023)       214.7  Rx         0020  5  0A 00 C9 1A 01 
  1024)       214.9  Rx         0031  6  F9 7F 04 80 09 80 
  1025)       215.1  Rx         0022  5  0B 00 E7 05 02 
  1026)       215.3  Rx         0021  5  00 00 00 00 00 
  1027)       215.5  Rx         0025  8  B3 03 88 03 B2 02 FA 03 
  1028)       215.7  Rx         0023  5  00 00 00 00 00 
  1029)       215.9  Rx         0020  5  0A 00 C9 1A 01 
  1030)       216.0  Rx         0024  5  00 00 5F 15 00 
  1031)       216.3  Rx         0022  5  0B 00 E7 05 02 
  1032)       216.4  Rx         0021  5  00 00 00 00 00 
  1033)       216.7  Rx         0023  5  00 00 00 00 00 
  1034)       216.9  Rx         0020  5  0A 00 C9 1A 01 
  1035)       217.2  Rx         0025  8  B4 03 88 03 B3 02 FC 03 
  1036)       217.4  Rx         0022  5  0B 00 E7 05 02 
  1037)       217.6  Rx         0021  5  00 00 00 00 00 
  1038)       217.8  Rx         0024  5  00 00 5F 15 00 
  1039)       218.0  Rx         0023  5  00 00 00 00 00 
  1040)       218.1  Rx         0020  5  0A 00 C9 1A 01 
  1041)       218.4  Rx         0030  6  5A 08 AA 72 5A 82 
  1042)       218.5  Rx         0022  5  0B 00 E7 05 02 
  1043)       218.7  Rx         0021  5  00 00 00 00 00 
  1044)       218.9  Rx         0025  8  B4 03 88 03 B3 02 FC 03 
  1045)       219.2  Rx         0023  5  00 00 00 00 00 
  1046)       219.3  Rx         0020  5  0A 00 C9 1A 01 
  1047)       219.5  Rx         0024  5  00 00 5F 15 00 
  1048)       219.7  Rx         0022  5  0B 00 E7 05 02 
  1049)       219.9  Rx         0021  5  00 00 00 00 00 
  1050)       220.2  Rx         0023  5  00 00 00 00 00 
  1051)       220.4  Rx         0020  5  0A 00 C9 1A 01 
  1052)       220.7  Rx         0025  8  B4 03 87 03 B2 02 FB 03 
  1053)       220.9  Rx         0031  6  F9 7F 04 80 09 80 
  1054)       221.0  Rx         0021  5  00 00 00 00 00 
  1055)       221.2  Rx         0024  5  00 00 5F 15 00 
  1056)       221.6  Rx         0020  5  0A 00 C9 1A 01 
  1057)       222.1  Rx         0021  5  00 00 00 00 00 
  1058)       222.3  Rx         0025  8  B3 03 86 03 B1 02 F9 03 
  1059)       222.6  Rx         0030  6  5A 08 AA 72 5A 82 
  1060)       222.7  Rx         0020  5  0A 00 C9 1A 01 
  1061)       222.9  Rx         0024  5  00 00 5F 15 00 
  1062)       223.1  Rx         0026  6  C0 FE F9 7C FA 40 
  1063)       223.3  Rx         0021  5  00 00 00 00 00 
  1064)       223.6  Rx         0022  5  0B 00 E7 05 02 
  1065)       223.8  Rx         0020  5  0A 00 C9 1A 01 
  1066)       224.1  Rx         0025  8  B4 03 88 03 B2 02 FB 03 
  1067)       224.2  Rx         0023  5  00 00 00 00 00 
  1068)       224.5  Rx         0021  5  00 00 00 00 00 
  1069)       224.6  Rx         0024  5  00 00 5F 15 00 
  1070)       224.8  Rx         0022  5  0B 00 E7 05 02 
  1071)       225.0  Rx         0020  5  0A 00 C9 1A 01 
  1072)       225.2  Rx         0031  6  00 80 FB 7F 0B 80 
  1073)       225.4  Rx         0023  5  00 00 00 00 00 
  1074)       225.6  Rx         0021  5  00 00 00 00 00 
  1075)       225.8  Rx         0025  8  B5 03 88 03 B2 02 FC 03 
  1076)       226.0  Rx         0022  5  0B 00 E7 05 02 
  1077)       226.2  Rx         0020  5  0A 00 C9 1A 01 
  1078)       226.4  Rx         0024  5  00 00 5F 15 00 
  1079)       226.6  Rx         0023  5  00 00 00 00 00 
  1080)       226.8  Rx         0021  5  00 00 00 00 00 
  1081)       227.1  Rx         0022  5  0B 00 E7 05 02 
  1082)       227.3  Rx         0020  5  0A 00 C9 1A 01 
  1083)       227.5  Rx         0025  8  B5 03 88 03 B2 02 FA 03 
  1084)       227.7  Rx         0023  5  00 00 00 00 00 
  1085)       227.9  Rx         0021  5  00 00 00 00 00 
  1086)       228.1  Rx         0024  5  00 00 5F 15 00 
  1087)       228.2  Rx         0022  5  0B 00 E7 05 02 
  1088)       228.5  Rx         0020  5  0A 00 C9 1A 01 
  1089)       228.6  Rx         0030  6  5A 08 AA 72 5A 82 
  1090)       228.8  Rx         0023  5  00 00 00 00 00 
  1091)       229.0  Rx         0021  5  00 00 00 00 00 
  1092)       229.3  Rx         0025  8  B2 03 86 03 B1 02 FC 03 
  1093)       229.4  Rx         0022  5  0B 00 E7 05 02 
  1094)       229.6  Rx         0020  5  0A 00 C9 1A 01 
  1095)       229.8  Rx         0024  5  00 00 5F 15 00 
  1096)       230.0  Rx         0023  5  00 00 00 00 00 
  1097)       230.2  Rx         0021  5  00 00 00 00 00 
  1098)       230.7  Rx         0025  8  B3 03 86 03 B1 02 FB 03 
  1099)       230.9  Rx         0020  5  0A 00 C9 1A 01 
  1100)       231.2  Rx         0031  6  00 80 FB 7F 0B 80 
  1101)       231.4  Rx         0024  5  00 00 3B 15 00 
  1102)       231.6  Rx         0021  5  00 00 00 00 00 
  1103)       232.1  Rx         0020  5  0A 00 C9 1A 01 
  1104)       232.3  Rx         0025  8  B3 03 85 03 B0 02 F9 03 
  1105)       232.5  Rx         0026  6  C0 FE F9 7C 05 41 
  1106)       232.7  Rx         0021  5  00 00 00 00 00 
  1107)       232.9  Rx         0024  5  00 00 5F 15 00 
  1108)       233.1  Rx         0022  5  0B 00 E7 05 02 
  1109)       233.3  Rx         0020  5  0A 00 C9 1A 01 
  1110)       233.5  Rx         0030  6  5A 08 AA 72 5A 82 
  1111)       233.7  Rx         0023  5  00 00 00 00 00 
  1112)       233.9  Rx         0021  5  00 00 00 00 00 
  1113)       234.1  Rx         0025  8  B3 03 84 03 B1 02 FB 03 
  1114)       234.3  Rx         0022  5  0B 00 E7 05 02 
  1115)       234.5  Rx         0020  5  0A 00 C9 1A 01 
  1116)       234.7  Rx         0024  5  00 00 5F 15 00 
  1117)       234.9  Rx         0023  5  00 00 00 00 00 
  1118)       235.0  Rx         0021  5  00 00 00 00 00 
  1119)       235.2  Rx         0031  6  FF 7F FC 7F 0A 80 
  1120)       235.5  Rx         0022  5  0B 00 E7 05 02 
  1121)       235.6  Rx         0020  5  0A 00 C9 1A 01 
  1122)       235.9  Rx         0025  8  B3 03 85 03 B1 02 FB 03 
  1123)       236.1  Rx         0023  5  00 00 00 00 00 
  1124)       236.2  Rx         0021  5  00 00 00 00 00 
  1125)       236.4  Rx         0024  5  00 00 5F 15 00 
  1126)       236.6  Rx         0022  5  0B 00 E7 05 02 
  1127)       236.8  Rx         0020  5  0A 00 C9 1A 01 
  1128)       237.1  Rx         0023  5  00 00 00 00 00 
  1129)       237.3  Rx         0021  5  00 00 00 00 00 
  1130)       237.6  Rx         0025  8  B3 03 86 03 B1 02 FC 03 
  1131)       237.8  Rx         0022  5  0B 00 E7 05 02 
  1132)       237.9  Rx         0020  5  0A 00 C9 1A 01 
  1133)       238.1  Rx         0024  5  00 00 5F 15 00 
  1134)       238.3  Rx         0023  5  00 00 00 00 00 
  1135)       238.5  Rx         0021  5  00 00 00 00 00 
  1136)       238.7  Rx         0030  6  5A 08 AA 72 5A 82 
  1137)       238.9  Rx         0022  5  0B 00 E7 05 02 
  1138)       239.1  Rx         0020  5  0A 00 C9 1A 01 
  1139)       239.3  Rx         0025  8  B4 03 85 03 B0 02 FC 03 
  1140)       239.5  Rx         0023  5  00 00 00 00 00 
  1141)       239.7  Rx         0021  5  00 00 00 00 00 
  1142)       239.9  Rx         0024  5  00 00 5F 15 00 
  1143)       240.1  Rx         0022  5  0B 00 E7 05 02 
  1144)       240.2  Rx         0020  5  0A 00 C9 1A 01 
  1145)       240.6  Rx         0023  5  00 00 00 00 00 
  1146)       240.8  Rx         0021  5  00 00 00 00 00 
  1147)       241.0  Rx         0025  8  B4 03 85 03 B0 02 FA 03 
  1148)       241.2  Rx         0022  5  0B 00 E7 05 02 
  1149)       241.3  Rx         0020  5  0A 00 C9 1A 01 
  1150)       241.6  Rx         0024  5  00 00 5F 15 00 
  1151)       241.8  Rx         0023  5  00 00 00 00 00 
  1152)       241.9  Rx         0021  5  00 00 00 00 00 
  1153)       242.2  Rx         0031  6  FF 7F FC 7F 0A 80 
  1154)       242.5  Rx         0020  5  0A 00 C9 1A 01 
  1155)       242.7  Rx         0025  8  B5 03 86 03 B0 02 FB 03 
  1156)       243.0  Rx         0021  5  00 00 00 00 00 
  1157)       243.2  Rx         0024  5  00 00 5F 15 00 
  1158)       243.5  Rx         0020  5  0A 00 C9 1A 01 
  1159)       243.8  Rx         0030  6  5A 08 AA 72 5A 82 
  1160)       244.0  Rx         0021  5  00 00 00 00 00 
  1161)       244.2  Rx         0025  8  B3 03 84 03 B0 02 FA 03 
  1162)       244.5  Rx         0026  6  C0 FE F9 7C 05 41 
  1163)       244.6  Rx         0020  5  0A 00 C9 1A 01 
  1164)       244.8  Rx         0024  5  00 00 5F 15 00 
  1165)       245.0  Rx         0022  5  0B 00 E7 05 02 
  1166)       245.2  Rx         0021  5  00 00 00 00 00 
  1167)       245.5  Rx         0023  5  00 00 00 00 00 
  1168)       245.7  Rx         0020  5  0A 00 C9 1A 01 
  1169)       245.9  Rx         0025  8  B5 03 86 03 B1 02 FD 03 
  1170)       246.1  Rx         0022  5  0B 00 E7 05 02 
  1171)       246.3  Rx         0021  5  00 00 00 00 00 
  1172)       246.5  Rx         0024  5  00 00 5F 15 00 
  1173)       246.7  Rx         0023  5  00 00 00 00 00 
  1174)       246.9  Rx         0020  5  0A 00 C9 1A 01 
  1175)       247.1  Rx         0031  6  FB 7F 01 80 06 80 
  1176)       247.3  Rx         0022  5  0B 00 E7 05 02 
  1177)       247.4  Rx         0021  5  00 00 00 00 00 
  1178)       247.7  Rx         0025  8  B5 03 85 03 B0 02 FB 03 
  1179)       247.9  Rx         0023  5  00 00 00 00 00 
  1180)       248.0  Rx         0020  5  0A 00 C9 1A 01 
  1181)       248.3  Rx         0024  5  00 00 5F 15 00 
  1182)       248.4  Rx         0022  5  0B 00 E7 05 02 
  1183)       248.6  Rx         0021  5  00 00 00 00 00 
  1184)       248.9  Rx         0023  5  00 00 00 00 00 
  1185)       249.2  Rx         0025  8  B2 03 84 03 B0 02 FB 03 
  1186)       249.4  Rx         0020  5  0A 00 C9 1A 01 
  1187)       249.6  Rx         0022  5  0B 00 E7 05 02 
  1188)       249.8  Rx         0024  5  00 00 5F 15 00 
  1189)       249.9  Rx         0021  5  00 00 00 00 00 
  1190)       250.1  Rx         0023  5  00 00 00 00 00 
  1191)       250.4  Rx         0030  6  5A 08 AA 72 5A 82 
  1192)       250.5  Rx         0020  5  0A 00 C9 1A 01 
  1193)       250.7  Rx         0022  5  0B 00 E7 05 02 
  1194)       250.9  Rx         0025  8  B4 03 85 03 AF 02 FC 03 
  1195)       251.1  Rx         0021  5  00 00 00 00 00 
  1196)       251.3  Rx         0023  5  00 00 00 00 00 
  1197)       251.5  Rx         0024  5  00 00 5F 15 00 
  1198)       251.7  Rx         0020  5  0A 00 C9 1A 01 
  1199)       251.9  Rx         0022  5  0B 00 E7 05 02 
  1200)       252.2  Rx         0021  5  00 00 00 00 00 
  1201)       252.4  Rx         0023  5  00 00 00 00 00 
  1202)       252.7  Rx         0025  8  B4 03 84 03 AF 02 FB 03 
  1203)       252.8  Rx         0020  5  0A 00 C9 1A 01 
  1204)       253.0  Rx         0022  5  0B 00 E7 05 02 
  1205)       253.2  Rx         0024  5  00 00 5F 15 00 
  1206)       253.4  Rx         0021  5  00 00 00 00 00 
  1207)       253.6  Rx         0023  5  00 00 00 00 00 
  1208)       253.8  Rx         0031  6  FB 7F 01 80 06 80 
  1209)       254.0  Rx         0020  5  0A 00 C9 1A 01 
  1210)       254.2  Rx         0025  8  B5 03 85 03 B0 02 FC 03 
  1211)       254.5  Rx         0021  5  00 00 00 00 00 
  1212)       254.7  Rx         0024  5  00 00 5F 15 00 
  1213)       255.0  Rx         0020  5  0A 00 C9 1A 01 
  1214)       255.4  Rx         0030  6  5A 08 AA 72 5A 82 
  1215)       255.6  Rx         0021  5  00 00 00 00 00 
  1216)       255.9  Rx         0025  8  B3 03 84 03 AF 02 FB 03 
  1217)       256.1  Rx         0026  6  C0 FE F9 7C 05 41 
  1218)       256.3  Rx         0020  5  0A 00 C9 1A 01 
  1219)       256.5  Rx         0024  5  00 00 5F 15 00 
  1220)       256.6  Rx         0022  5  0B 00 E7 05 02 
  1221)       256.8  Rx         0021  5  00 00 00 00 00 
  1222)       257.1  Rx         0023  5  00 00 00 00 00 
  1223)       257.3  Rx         0020  5  0A 00 C9 1A 01 
  1224)       257.6  Rx         0025  8  B4 03 85 03 B0 02 FC 03 
  1225)       257.8  Rx         0022  5  0B 00 E7 05 02 
  1226)       257.9  Rx         0021  5  00 00 00 00 00 
  1227)       258.2  Rx         0024  5  00 00 5F 15 00 
  1228)       258.3  Rx         0023  5  00 00 00 00 00 
  1229)       258.5  Rx         0020  5  0A 00 C9 1A 01 
  1230)       258.7  Rx         0031  6  FA 7F 05 80 02 80 
  1231)       258.9  Rx         0022  5  0B 00 E7 05 02 
  1232)       259.1  Rx         0021  5  00 00 00 00 00 
  1233)       259.4  Rx         0025  8  B4 03 84 03 AF 02 FC 03 
  1234)       259.5  Rx         0023  5  00 00 00 00 00 
  1235)       259.7  Rx         0020  5  0A 00 C9 1A 01 
  1236)       259.9  Rx         0024  5  00 00 5F 15 00 
  1237)       260.1  Rx         0022  5  0B 00 E7 05 02 
  1238)       260.3  Rx         0021  5  00 00 00 00 00 
  1239)       260.5  Rx         0023  5  00 00 00 00 00 
  1240)       260.8  Rx         0020  5  0A 00 C9 1A 01 
  1241)       261.0  Rx         0025  8  B4 03 84 03 AF 02 F9 03 
  1242)       261.2  Rx         0022  5  0B 00 E7 05 02 
  1243)       261.4  Rx         0021  5  00 00 00 00 00 
  1244)       261.6  Rx         0024  5  00 00 5F 15 00 
  1245)       261.8  Rx         0023  5  00 00 00 00 00 
  1246)       262.0  Rx         0020  5  0A 00 C9 1A 01 
  1247)       262.2  Rx         0030  6  5A 08 AA 72 5A 82 
  1248)       262.3  Rx         0022  5  0B 00 E7 05 02 
  1249)       262.6  Rx         0021  5  00 00 00 00 00 
  1250)       262.8  Rx         0025  8  B3 03 83 03 AF 02 FA 03 
  1251)       263.0  Rx         0023  5  00 00 00 00 00 
  1252)       263.1  Rx         0020  5  0A 00 C9 1A 01 
  1253)       263.3  Rx         0024  5  00 00 5F 15 00 
  1254)       263.5  Rx         0022  5  0B 00 E7 05 02 
  1255)       263.7  Rx         0021  5  00 00 00 00 00 
  1256)       263.9  Rx         0031  6  00 80 00 80 03 80 
  1257)       264.1  Rx         0023  5  00 00 00 00 00 
  1258)       264.3  Rx         0020  5  0A 00 C9 1A 01 
  1259)       264.5  Rx         0025  8  B3 03 84 03 AF 02 FB 03 
  1260)       264.7  Rx         0022  5  0B 00 E7 05 02 
  1261)       264.9  Rx         0021  5  00 00 00 00 00 
  1262)       265.1  Rx         0024  5  00 00 3B 15 00 
  1263)       265.3  Rx         0023  5  00 00 00 00 00 
  1264)       265.5  Rx         0020  5  0A 00 C9 1A 01 
  1265)       266.0  Rx         0030  6  5A 08 AA 72 5A 82 
  1266)       266.2  Rx         0021  5  00 00 00 00 00 
  1267)       266.4  Rx         0025  8  B5 03 85 03 B0 02 FC 03 
  1268)       266.7  Rx         0020  5  0A 00 C9 1A 01 
  1269)       266.9  Rx         0024  5  00 00 5F 15 00 
  1270)       267.1  Rx         0026  6  B5 FE 05 7D 10 41 
  1271)       267.3  Rx         0021  5  00 00 00 00 00 
  1272)       267.6  Rx         0022  5  0B 00 E7 05 02 
  1273)       267.8  Rx         0020  5  0A 00 C9 1A 01 
  1274)       268.1  Rx         0025  8  B1 03 83 03 AF 02 FA 03 
  1275)       268.3  Rx         0023  5  00 00 00 00 00 
  1276)       268.5  Rx         0021  5  00 00 00 00 00 
  1277)       268.7  Rx         0024  5  00 00 5F 15 00 
  1278)       268.8  Rx         0022  5  0B 00 E7 05 02 
  1279)       269.0  Rx         0020  5  0A 00 C9 1A 01 
  1280)       269.2  Rx         0031  6  00 80 00 80 03 80 
  1281)       269.4  Rx         0023  5  00 00 00 00 00 
  1282)       269.6  Rx         0021  5  00 00 00 00 00 
  1283)       269.8  Rx         0025  8  B3 03 83 03 AF 02 FA 03 
  1284)       270.0  Rx         0022  5  0B 00 E7 05 02 
  1285)       270.2  Rx         0020  5  0A 00 C9 1A 01 
  1286)       270.4  Rx         0024  5  00 00 5F 15 00 
  1287)       270.6  Rx         0023  5  00 00 00 00 00 
  1288)       270.8  Rx         0021  5  00 00 00 00 00 
  1289)       271.0  Rx         0022  5  0B 00 E7 05 02 
  1290)       271.3  Rx         0020  5  0A 00 C9 1A 01 
  1291)       271.5  Rx         0025  8  B4 03 85 03 AF 02 FB 03 
  1292)       271.7  Rx         0023  5  00 00 00 00 00 
  1293)       271.9  Rx         0021  5  00 00 00 00 00 
  1294)       272.1  Rx         0024  5  00 00 5F 15 00 
  1295)       272.3  Rx         0022  5  0B 00 E7 05 02 
  1296)       272.5  Rx         0020  5  0A 00 C9 1A 01 
  1297)       272.7  Rx         0030  6  5A 08 AA 72 5A 82 
  1298)       272.9  Rx         0023  5  00 00 00 00 00 
  1299)       273.0  Rx         0021  5  00 00 00 00 00 
  1300)       273.3  Rx         0025  8  B3 03 84 03 AF 02 FD 03 
  1301)       273.5  Rx         0022  5  0B 00 E7 05 02 
  1302)       273.6  Rx         0020  5  0A 00 C9 1A 01 
  1303)       273.9  Rx         0024  5  00 00 5F 15 00 
  1304)       274.0  Rx         0023  5  00 00 00 00 00 
  1305)       274.2  Rx         0021  5  00 00 00 00 00 
  1306)       274.4  Rx         0031  6  02 80 FD 7F 06 80 
  1307)       274.6  Rx         0022  5  0B 00 E7 05 02 
  1308)       274.8  Rx         0020  5  0A 00 C9 1A 01 
  1309)       275.1  Rx         0025  8  B2 03 85 03 AF 02 FD 03 
  1310)       275.2  Rx         0023  5  00 00 00 00 00 
  1311)       275.4  Rx         0021  5  00 00 00 00 00 
  1312)       275.6  Rx         0024  5  00 00 5F 15 00 
  1313)       275.8  Rx         0022  5  0B 00 E7 05 02 
  1314)       276.0  Rx         0020  5  0A 00 C9 1A 01 
  1315)       276.3  Rx         0023  5  00 00 00 00 00 
  1316)       276.5  Rx         0021  5  00 00 00 00 00 
  1317)       276.8  Rx         0025  8  B0 03 82 03 AF 02 FB 03 
  1318)       276.9  Rx         0030  6  5A 08 AA 72 5A 82 
  1319)       277.1  Rx         0020  5  0A 00 C9 1A 01 
  1320)       277.3  Rx         0024  5  00 00 5F 15 00 
  1321)       277.7  Rx         0021  5  00 00 00 00 00 
  1322)       278.0  Rx         0026  6  B5 FE 05 7D 10 41 
  1323)       278.1  Rx         0020  5  0A 00 C9 1A 01 
  1324)       278.4  Rx         0025  8  AE 03 83 03 AE 02 FB 03 
  1325)       278.6  Rx         0022  5  0B 00 E7 05 02 
  1326)       278.8  Rx         0021  5  00 00 00 00 00 
  1327)       278.9  Rx         0024  5  00 00 5F 15 00 
  1328)       279.1  Rx         0023  5  00 00 00 00 00 
  1329)       279.3  Rx         0020  5  0A 00 C9 1A 01 
  1330)       279.5  Rx         0031  6  02 80 FD 7F 06 80 
  1331)       279.7  Rx         0022  5  0B 00 E7 05 02 
  1332)       279.9  Rx         0021  5  00 00 00 00 00 
  1333)       280.2  Rx         0025  8  B1 03 85 03 AE 02 FC 03 
  1334)       280.3  Rx         0023  5  00 00 00 00 00 
  1335)       280.5  Rx         0020  5  0A 00 C9 1A 01 
  1336)       280.7  Rx         0024  5  00 00 5F 15 00 
  1337)       280.9  Rx         0022  5  0B 00 E7 05 02 
  1338)       281.1  Rx         0021  5  00 00 00 00 00 
  1339)       281.4  Rx         0023  5  00 00 00 00 00 
  1340)       281.6  Rx         0020  5  0A 00 C8 1A 03 
  1341)       281.8  Rx         0025  8  B0 03 84 03 AE 02 FC 03 
  1342)       282.0  Rx         0022  5  0B 00 E7 05 02 
  1343)       282.2  Rx         0021  5  00 00 00 00 00 
  1344)       282.4  Rx         0024  5  00 00 17 15 00 
  1345)       282.6  Rx         0023  5  00 00 00 00 00 
  1346)       282.8  Rx         0020  5  0A 00 C8 1A 03 
  1347)       283.0  Rx         0030  6  5A 08 AA 72 5A 82 
  1348)       283.2  Rx         0022  5  0B 00 E7 05 02 
  1349)       283.3  Rx         0021  5  00 00 00 00 00 
  1350)       283.6  Rx         0025  8  AF 03 84 03 AF 02 FD 03 
  1351)       283.8  Rx         0023  5  00 00 00 00 00 
  1352)       284.0  Rx         0020  5  0A 00 C8 1A 03 
  1353)       284.1  Rx         0024  5  00 00 5F 15 00 
  1354)       284.4  Rx         0022  5  0B 00 E7 05 02 
  1355)       284.5  Rx         0021  5  00 00 00 00 00 
  1356)       284.7  Rx         0031  6  0E 80 DF 7F F8 7F 
  1357)       284.9  Rx         0023  5  00 00 00 00 00 
  1358)       285.1  Rx         0020  5  0A 00 C8 1A 03 
  1359)       285.3  Rx         0025  8  AE 03 82 03 AE 02 FC 03 
  1360)       285.5  Rx         0022  5  0B 00 E7 05 02 
  1361)       285.7  Rx         0021  5  00 00 00 00 00 
  1362)       285.9  Rx         0024  5  00 00 5F 15 00 
  1363)       286.1  Rx         0023  5  00 00 00 00 00 
  1364)       286.3  Rx         0020  5  0A 00 C8 1A 03 
  1365)       286.6  Rx         0022  5  0B 00 E7 05 02 
  1366)       286.8  Rx         0030  6  5A 08 B5 72 5A 82 
  1367)       287.0  Rx         0021  5  00 00 00 00 00 
  1368)       287.2  Rx         0023  5  00 00 00 00 00 
  1369)       287.4  Rx         0025  8  AE 03 82 03 AF 02 FC 03 
  1370)       287.6  Rx         0020  5  0A 00 C8 1A 03 
  1371)       287.9  Rx         0024  5  00 00 5F 15 00 
  1372)       288.1  Rx         0021  5  00 00 00 00 00 
  1373)       288.6  Rx         0020  5  0A 00 C8 1A 03 
  1374)       288.8  Rx         0026  6  B5 FE 05 7D 10 41 
  1375)       289.0  Rx         0025  8  AB 03 80 03 AC 02 F8 03 
  1376)       289.3  Rx         0021  5  00 00 00 00 00 
  1377)       289.4  Rx         0022  5  0B 00 E7 05 02 
  1378)       289.6  Rx         0024  5  00 00 5F 15 00 
  1379)       289.8  Rx         0020  5  0A 00 C8 1A 03 
  1380)       290.0  Rx         0023  5  00 00 00 00 00 
  1381)       290.2  Rx         0031  6  0E 80 DF 7F F8 7F 
  1382)       290.4  Rx         0021  5  00 00 00 00 00 
  1383)       290.6  Rx         0022  5  0B 00 E7 05 02 
  1384)       290.8  Rx         0025  8  AE 03 7D 03 AE 02 FB 03 
  1385)       291.0  Rx         0020  5  0A 00 C8 1A 03 
  1386)       291.2  Rx         0023  5  00 00 00 00 00 
  1387)       291.4  Rx         0024  5  00 00 5F 15 00 
  1388)       291.6  Rx         0021  5  00 00 00 00 00 
  1389)       291.8  Rx         0022  5  0B 00 E7 05 02 
  1390)       292.1  Rx         0020  5  0A 00 C8 1A 03 
  1391)       292.3  Rx         0023  5  00 00 00 00 00 
  1392)       292.5  Rx         0025  8  AE 03 80 03 AE 02 FB 03 
  1393)       292.7  Rx         0021  5  00 00 00 00 00 
  1394)       292.9  Rx         0022  5  0B 00 E7 05 02 
  1395)       293.1  Rx         0024  5  00 00 5F 15 00 
  1396)       293.3  Rx         0020  5  0A 00 C8 1A 03 
  1397)       293.5  Rx         0023  5  00 00 00 00 00 
  1398)       293.7  Rx         0030  6  5A 08 B5 72 5A 82 
  1399)       293.9  Rx         0021  5  00 00 00 00 00 
  1400)       294.1  Rx         0022  5  0B 00 E7 05 02 
  1401)       294.3  Rx         0025  8  AD 03 7D 03 AE 02 FB 03 
  1402)       294.5  Rx         0020  5  0A 00 C8 1A 03 
  1403)       294.7  Rx         0023  5  00 00 00 00 00 
  1404)       294.9  Rx         0024  5  00 00 5F 15 00 
  1405)       295.1  Rx         0021  5  00 00 00 00 00 
  1406)       295.2  Rx         0022  5  0B 00 E7 05 02 
  1407)       295.4  Rx         0031  6  11 80 DA 7F FA 7F 
  1408)       295.6  Rx         0020  5  0A 00 C8 1A 03 
  1409)       295.8  Rx         0023  5  00 00 00 00 00 
  1410)       296.0  Rx         0025  8  AE 03 7F 03 AE 02 FD 03 
  1411)       296.3  Rx         0021  5  00 00 00 00 00 
  1412)       296.4  Rx         0022  5  0B 00 E7 05 02 
  1413)       296.6  Rx         0024  5  00 00 5F 15 00 
  1414)       296.8  Rx         0020  5  0A 00 C8 1A 03 
  1415)       297.0  Rx         0023  5  00 00 00 00 00 
  1416)       297.3  Rx         0021  5  00 00 00 00 00 
  1417)       297.5  Rx         0022  5  0B 00 E7 05 02 
  1418)       297.8  Rx         0025  8  AC 03 7C 03 AE 02 FB 03 
  1419)       297.9  Rx         0020  5  0A 00 C8 1A 03 
  1420)       298.1  Rx         0023  5  00 00 00 00 00 
  1421)       298.3  Rx         0024  5  00 00 3B 15 00 
  1422)       298.5  Rx         0021  5  00 00 00 00 00 
  1423)       298.7  Rx         0030  6  5A 08 B5 72 5A 82 
  1424)       299.0  Rx         0020  5  0A 00 C8 1A 03 
  1425)       299.2  Rx         0025  8  AC 03 7A 03 AD 02 FA 03 
  1426)       299.5  Rx         0021  5  00 00 00 00 00 
  1427)       299.7  Rx         0024  5  00 00 5F 15 00 
  1428)       299.9  Rx         0026  6  B5 FE 05 7D 10 41 
  1429)       300.1  Rx         0020  5  0A 00 C8 1A 03 
  1430)       300.4  Rx         0022  5  0B 00 E7 05 02 
  1431)       300.6  Rx         0021  5  00 00 00 00 00 
  1432)       300.8  Rx         0025  8  AD 03 7C 03 AD 02 FB 03 
  1433)       301.0  Rx         0023  5  00 00 00 00 00 
  1434)       301.2  Rx         0020  5  0A 00 C8 1A 03 
  1435)       301.4  Rx         0024  5  00 00 5F 15 00 
  1436)       301.6  Rx         0022  5  0B 00 E7 05 02 
  1437)       301.8  Rx         0021  5  00 00 00 00 00 
  1438)       302.0  Rx         0031  6  11 80 DA 7F FA 7F 
  1439)       302.2  Rx         0023  5  00 00 00 00 00 
  1440)       302.4  Rx         0020  5  0A 00 C8 1A 03 
  1441)       302.6  Rx         0025  8  AB 03 7B 03 AE 02 FA 03 
  1442)       302.8  Rx         0022  5  0B 00 E7 05 02 
  1443)       303.0  Rx         0021  5  00 00 00 00 00 
  1444)       303.2  Rx         0024  5  00 00 5F 15 00 
  1445)       303.3  Rx         0023  5  00 00 00 00 00 
  1446)       303.6  Rx         0020  5  0A 00 C8 1A 03 
  1447)       303.8  Rx         0030  6  4F 08 B5 72 4F 82 
  1448)       303.9  Rx         0022  5  0B 00 E7 05 02 
  1449)       304.2  Rx         0021  5  00 00 00 00 00 
  1450)       304.4  Rx         0025  8  AD 03 7C 03 AD 02 FD 03 
  1451)       304.5  Rx         0023  5  00 00 00 00 00 
  1452)       304.7  Rx         0020  5  0A 00 C8 1A 03 
  1453)       304.9  Rx         0024  5  00 00 5F 15 00 
  1454)       305.1  Rx         0022  5  0B 00 E7 05 02 
  1455)       305.3  Rx         0021  5  00 00 00 00 00 
  1456)       305.5  Rx         0031  6  13 80 EC 7F 26 80 
  1457)       305.7  Rx         0023  5  00 00 00 00 00 
  1458)       305.9  Rx         0020  5  0A 00 C8 1A 03 
  1459)       306.1  Rx         0025  8  AE 03 7C 03 AE 02 FD 03 
  1460)       306.3  Rx         0022  5  0B 00 E7 05 02 
  1461)       306.5  Rx         0021  5  00 00 00 00 00 
  1462)       306.7  Rx         0024  5  00 00 5F 15 00 
  1463)       306.9  Rx         0023  5  00 00 00 00 00 
  1464)       307.1  Rx         0020  5  0A 00 C8 1A 03 
  1465)       307.4  Rx         0022  5  0B 00 E7 05 02 
  1466)       307.6  Rx         0021  5  00 00 00 00 00 
  1467)       307.8  Rx         0025  8  AF 03 7C 03 AE 02 FD 03 
  1468)       308.0  Rx         0023  5  00 00 00 00 00 
  1469)       308.2  Rx         0020  5  0A 00 C8 1A 03 
  1470)       308.4  Rx         0024  5  00 00 5F 15 00 
  1471)       308.6  Rx         0022  5  0B 00 E7 05 02 
  1472)       308.8  Rx         0021  5  00 00 00 00 00 
  1473)       309.0  Rx         0030  6  4F 08 B5 72 4F 82 
  1474)       309.1  Rx         0023  5  00 00 00 00 00 
  1475)       309.4  Rx         0020  5  0A 00 C8 1A 03 
  1476)       309.6  Rx         0025  8  AC 03 7A 03 AC 02 FA 03 
  1477)       309.9  Rx         0021  5  00 00 00 00 00 
  1478)       310.1  Rx         0024  5  00 00 5F 15 00 
  1479)       310.3  Rx         0020  5  0A 00 C8 1A 03 
  1480)       310.9  Rx         0021  5  00 00 00 00 00 
  1481)       311.1  Rx         0025  8  AB 03 79 03 AB 02 F8 03 
  1482)       311.4  Rx         0020  5  0A 00 C8 1A 03 
  1483)       311.6  Rx         0031  6  13 80 EC 7F 26 80 
  1484)       311.7  Rx         0024  5  00 00 5F 15 00 
  1485)       312.0  Rx         0021  5  00 00 00 00 00 
  1486)       312.1  Rx         0026  6  A9 FE 10 7D 1C 41 
  1487)       312.5  Rx         0020  5  0A 00 C8 1A 03 
  1488)       312.6  Rx         0022  5  0B 00 E7 05 02 
  1489)       312.9  Rx         0025  8  AD 03 7A 03 AC 02 F9 03 
  1490)       313.1  Rx         0021  5  00 00 00 00 00 
  1491)       313.3  Rx         0023  5  00 00 00 00 00 
  1492)       313.5  Rx         0024  5  00 00 5F 15 00 
  1493)       313.6  Rx         0020  5  0A 00 C8 1A 03 
  1494)       313.8  Rx         0022  5  0B 00 E7 05 02 
  1495)       314.0  Rx         0030  6  4F 08 B5 72 4F 82 
  1496)       314.2  Rx         0021  5  00 00 00 00 00 
  1497)       314.4  Rx         0023  5  00 00 00 00 00 
  1498)       314.6  Rx         0025  8  AC 03 79 03 AC 02 FA 03 
  1499)       314.8  Rx         0020  5  0A 00 C8 1A 03 
  1500)       315.0  Rx         0022  5  0B 00 E7 05 02 
  1501)       315.2  Rx         0024  5  00 00 5F 15 00 
  1502)       315.4  Rx         0021  5  00 00 00 00 00 
  1503)       315.6  Rx         0023  5  00 00 00 00 00 
  1504)       315.9  Rx         0020  5  0A 00 C8 1A 03 
  1505)       316.1  Rx         0022  5  0B 00 E7 05 02 
  1506)       316.4  Rx         0025  8  AE 03 7B 03 AE 02 FC 03 
  1507)       316.5  Rx         0021  5  00 00 00 00 00 
  1508)       316.7  Rx         0023  5  00 00 00 00 00 
  1509)       316.9  Rx         0024  5  00 00 5F 15 00 
  1510)       317.1  Rx         0020  5  0A 00 C8 1A 03 
  1511)       317.3  Rx         0022  5  0B 00 E7 05 02 
  1512)       317.5  Rx         0031  6  FF 7F 1A 80 31 80 
  1513)       317.7  Rx         0021  5  00 00 00 00 00 
  1514)       317.9  Rx         0023  5  00 00 00 00 00 
  1515)       318.1  Rx         0025  8  AD 03 7B 03 AD 02 FC 03 
  1516)       318.3  Rx         0020  5  0A 00 C8 1A 03 
  1517)       318.5  Rx         0022  5  0B 00 E7 05 02 
  1518)       318.7  Rx         0024  5  00 00 5F 15 00 
  1519)       318.9  Rx         0021  5  00 00 00 00 00 
  1520)       319.0  Rx         0023  5  00 00 00 00 00 
  1521)       319.3  Rx         0020  5  0A 00 C8 1A 03 
  1522)       319.6  Rx         0022  5  0B 00 E7 05 02 
  1523)       319.8  Rx         0025  8  AE 03 7B 03 AD 02 FC 03 
  1524)       320.0  Rx         0021  5  00 00 00 00 00 
  1525)       320.2  Rx         0023  5  00 00 00 00 00 
  1526)       320.4  Rx         0024  5  00 00 5F 15 00 
  1527)       320.5  Rx         0020  5  0A 00 C8 1A 03 
  1528)       320.7  Rx         0030  6  4F 08 B5 72 4F 82 
  1529)       321.0  Rx         0021  5  00 00 00 00 00 
  1530)       321.3  Rx         0025  8  AC 03 7A 03 AC 02 FA 03 
  1531)       321.6  Rx         0020  5  0A 00 C8 1A 03 
  1532)       321.8  Rx         0024  5  00 00 5F 15 00 
  1533)       322.1  Rx         0021  5  00 00 00 00 00 
  1534)       322.6  Rx         0020  5  0A 00 C8 1A 03 
  1535)       322.8  Rx         0025  8  AA 03 79 03 AB 02 FA 03 
  1536)       323.0  Rx         0026  6  A9 FE 10 7D 1C 41 
  1537)       323.2  Rx         0021  5  00 00 00 00 00 
  1538)       323.4  Rx         0024  5  00 00 5F 15 00 
  1539)       323.6  Rx         0022  5  0B 00 E7 05 02 
  1540)       323.7  Rx         0020  5  0A 00 C8 1A 03 
  1541)       323.9  Rx         0031  6  E1 7F 33 80 09 80 
  1542)       324.2  Rx         0023  5  00 00 00 00 00 
  1543)       324.3  Rx         0021  5  00 00 00 00 00 
  1544)       324.6  Rx         0025  8  AC 03 7A 03 AC 02 FB 03 
  1545)       324.8  Rx         0022  5  0B 00 E7 05 02 
  1546)       324.9  Rx         0020  5  0A 00 C8 1A 03 
  1547)       325.1  Rx         0024  5  00 00 5F 15 00 
  1548)       325.3  Rx         0023  5  00 00 00 00 00 
  1549)       325.5  Rx         0021  5  00 00 00 00 00 
  1550)       325.8  Rx         0022  5  0B 00 E7 05 02 
  1551)       326.0  Rx         0030  6  4F 08 AA 72 5A 82 
  1552)       326.2  Rx         0020  5  0A 00 C8 1A 03 
  1553)       326.4  Rx         0023  5  00 00 00 00 00 
  1554)       326.6  Rx         0025  8  AC 03 7A 03 AD 02 FD 03 
  1555)       326.8  Rx         0021  5  00 00 00 00 00 
  1556)       327.0  Rx         0022  5  0B 00 E7 05 02 
  1557)       327.2  Rx         0024  5  00 00 5F 15 00 
  1558)       327.4  Rx         0020  5  0A 00 C8 1A 03 
  1559)       327.6  Rx         0023  5  00 00 00 00 00 
  1560)       327.9  Rx         0021  5  00 00 00 00 00 
  1561)       328.1  Rx         0022  5  0B 00 E7 05 02 
  1562)       328.3  Rx         0025  8  AB 03 7B 03 AD 02 FD 03 
  1563)       328.5  Rx         0020  5  0A 00 C8 1A 03 
  1564)       328.7  Rx         0023  5  00 00 00 00 00 
  1565)       328.9  Rx         0024  5  00 00 5F 15 00 
  1566)       329.1  Rx         0021  5  00 00 00 00 00 
  1567)       329.3  Rx         0022  5  0B 00 E7 05 02 
  1568)       329.5  Rx         0031  6  E1 7F 33 80 09 80 
  1569)       329.7  Rx         0020  5  0A 00 C8 1A 03 
  1570)       329.8  Rx         0023  5  00 00 00 00 00 
  1571)       330.1  Rx         0025  8  AA 03 77 03 AB 02 FA 03 
  1572)       330.3  Rx         0021  5  00 00 00 00 00 
  1573)       330.5  Rx         0022  5  0B 00 E7 05 02 
  1574)       330.6  Rx         0024  5  00 00 5F 15 00 
  1575)       330.9  Rx         0020  5  0A 00 C8 1A 03 
  1576)       331.0  Rx         0023  5  00 00 00 00 00 
  1577)       331.4  Rx         0021  5  00 00 00 00 00 
  1578)       331.6  Rx         0025  8  A9 03 78 03 AB 02 FC 03 
  1579)       331.8  Rx         0020  5  0A 00 C8 1A 03 
  1580)       332.1  Rx         0030  6  4F 08 AA 72 5A 82 
  1581)       332.2  Rx         0024  5  00 00 5F 15 00 
  1582)       332.4  Rx         0021  5  00 00 00 00 00 
  1583)       333.0  Rx         0020  5  0A 00 C8 1A 03 
  1584)       333.2  Rx         0025  8  AB 03 79 03 AA 02 F9 03 
  1585)       333.5  Rx         0021  5  00 00 00 00 00 
  1586)       333.7  Rx         0026  6  A9 FE 10 7D 1C 41 
  1587)       333.8  Rx         0024  5  00 00 5F 15 00 
  1588)       334.1  Rx         0020  5  0A 00 C8 1A 03 
  1589)       334.2  Rx         0022  5  0B 00 E7 05 02 
  1590)       334.4  Rx         0031  6  DB 7F 12 80 DF 7F 
  1591)       334.6  Rx         0021  5  00 00 00 00 00 
  1592)       334.8  Rx         0023  5  00 00 00 00 00 
  1593)       335.0  Rx         0025  8  A8 03 77 03 AC 02 FB 03 
  1594)       335.2  Rx         0020  5  0A 00 C8 1A 03 
  1595)       335.4  Rx         0022  5  0B 00 E7 05 02 
  1596)       335.6  Rx         0024  5  00 00 83 15 00 
  1597)       335.8  Rx         0021  5  00 00 00 00 00 
  1598)       336.0  Rx         0023  5  00 00 00 00 00 
  1599)       336.3  Rx         0020  5  0A 00 C8 1A 03 
  1600)       336.5  Rx         0022  5  0B 00 E7 05 02 
  1601)       336.7  Rx         0025  8  AA 03 78 03 AC 02 FD 03 
  1602)       336.9  Rx         0021  5  00 00 00 00 00 
  1603)       337.1  Rx         0023  5  00 00 00 00 00 
  1604)       337.3  Rx         0024  5  00 00 5F 15 00 
  1605)       337.5  Rx         0020  5  0A 00 C8 1A 03 
  1606)       337.7  Rx         0022  5  0B 00 E7 05 02 
  1607)       337.9  Rx         0030  6  4F 08 AA 72 5A 82 
  1608)       338.1  Rx         0021  5  00 00 00 00 00 
  1609)       338.3  Rx         0023  5  00 00 00 00 00 
  1610)       338.5  Rx         0025  8  AA 03 78 03 AB 02 FC 03 
  1611)       338.7  Rx         0020  5  0A 00 C8 1A 03 
  1612)       338.9  Rx         0022  5  0B 00 E7 05 02 
  1613)       339.1  Rx         0024  5  00 00 5F 15 00 
  1614)       339.3  Rx         0021  5  00 00 00 00 00 
  1615)       339.4  Rx         0023  5  00 00 00 00 00 
  1616)       339.8  Rx         0020  5  0A 00 C8 1A 01 
  1617)       339.9  Rx         0022  5  0B 00 E7 05 02 
  1618)       340.2  Rx         0025  8  A9 03 78 03 AB 02 FA 03 
  1619)       340.4  Rx         0021  5  00 00 00 00 00 
  1620)       340.5  Rx         0023  5  00 00 00 00 00 
  1621)       340.8  Rx         0024  5  00 00 5F 15 00 
  1622)       340.9  Rx         0020  5  0A 00 C8 1A 01 
  1623)       341.1  Rx         0022  5  0B 00 E7 05 02 
  1624)       341.3  Rx         0031  6  DB 7F 12 80 DF 7F 
  1625)       341.5  Rx         0021  5  00 00 00 00 00 
  1626)       341.7  Rx         0023  5  00 00 00 00 00 
  1627)       342.0  Rx         0025  8  A8 03 76 03 AA 02 FA 03 
  1628)       342.1  Rx         0020  5  0A 00 C8 1A 01 
  1629)       342.3  Rx         0022  5  0B 00 E7 05 02 
  1630)       342.5  Rx         0024  5  00 00 5F 15 00 
  1631)       342.7  Rx         0021  5  00 00 00 00 00 
  1632)       342.9  Rx         0023  5  00 00 00 00 00 
  1633)       343.1  Rx         0030  6  4F 08 AA 72 5A 82 
  1634)       343.3  Rx         0020  5  0A 00 C8 1A 01 
  1635)       343.5  Rx         0025  8  A8 03 77 03 AB 02 FC 03 
  1636)       343.8  Rx         0021  5  00 00 00 00 00 
  1637)       344.0  Rx         0024  5  00 00 5F 15 00 
  1638)       344.3  Rx         0020  5  0A 00 C8 1A 01 
  1639)       344.8  Rx         0031  6  E6 7F 00 80 F4 7F 
  1640)       345.0  Rx         0021  5  00 00 00 00 00 
  1641)       345.2  Rx         0025  8  A7 03 76 03 AA 02 F9 03 
  1642)       345.5  Rx         0026  6  A9 FE 10 7D 27 41 
  1643)       345.6  Rx         0020  5  0A 00 C8 1A 01 
  1644)       345.8  Rx         0024  5  00 00 83 15 00 
  1645)       346.0  Rx         0022  5  0B 00 E7 05 02 
  1646)       346.2  Rx         0021  5  00 00 00 00 00 
  1647)       346.5  Rx         0023  5  00 00 00 00 00 
  1648)       346.8  Rx         0025  8  A9 03 77 03 AB 02 FC 03 
  1649)       346.9  Rx         0020  5  0A 00 C8 1A 01 
  1650)       347.2  Rx         0022  5  0B 00 E7 05 02 
  1651)       347.3  Rx         0024  5  00 00 5F 15 00 
  1652)       347.5  Rx         0021  5  00 00 00 00 00 
  1653)       347.7  Rx         0023  5  00 00 00 00 00 
  1654)       347.9  Rx         0030  6  4F 08 AA 72 5A 82 
  1655)       348.1  Rx         0020  5  0A 00 C8 1A 01 
  1656)       348.3  Rx         0022  5  0B 00 E7 05 02 
  1657)       348.5  Rx         0025  8  A8 03 76 03 AA 02 FD 03 
  1658)       348.7  Rx         0021  5  00 00 00 00 00 
  1659)       348.9  Rx         0023  5  00 00 00 00 00 
  1660)       349.1  Rx         0024  5  00 00 5F 15 00 
  1661)       349.3  Rx         0020  5  0A 00 C8 1A 01 
  1662)       349.5  Rx         0022  5  0B 00 E7 05 02 
  1663)       349.8  Rx         0021  5  00 00 00 00 00 
  1664)       350.0  Rx         0023  5  00 00 00 00 00 
  1665)       350.2  Rx         0025  8  A8 03 76 03 A9 02 FB 03 
  1666)       350.4  Rx         0020  5  0A 00 C8 1A 01 
  1667)       350.6  Rx         0022  5  0B 00 E7 05 02 
  1668)       350.8  Rx         0024  5  00 00 5F 15 00 
  1669)       351.0  Rx         0021  5  00 00 00 00 00 
  1670)       351.2  Rx         0023  5  00 00 00 00 00 
  1671)       351.4  Rx         0031  6  E6 7F 00 80 F4 7F 
  1672)       351.6  Rx         0020  5  0A 00 C8 1A 01 
  1673)       351.8  Rx         0022  5  0B 00 E7 05 02 
  1674)       352.0  Rx         0025  8  A6 03 75 03 A9 02 FB 03 
  1675)       352.2  Rx         0021  5  00 00 00 00 00 
  1676)       352.4  Rx         0023  5  00 00 00 00 00 
  1677)       352.6  Rx         0024  5  00 00 5F 15 00 
  1678)       352.7  Rx         0020  5  0A 00 C8 1A 01 
  1679)       352.9  Rx         0022  5  0B 00 E7 05 02 
  1680)       353.1  Rx         0030  6  4F 08 AA 72 65 82 
  1681)       353.3  Rx         0021  5  00 00 00 00 00 
  1682)       353.5  Rx         0023  5  00 00 00 00 00 
  1683)       353.7  Rx         0025  8  A5 03 75 03 A9 02 FC 03 
  1684)       353.9  Rx         0020  5  0A 00 C8 1A 01 
  1685)       354.1  Rx         0022  5  0B 00 E7 05 02 
  1686)       354.3  Rx         0024  5  00 00 5F 15 00 
  1687)       354.5  Rx         0021  5  00 00 00 00 00 
  1688)       354.7  Rx         0023  5  00 00 00 00 00 
  1689)       354.9  Rx         0031  6  D8 7F 26 80 04 80 
  1690)       355.1  Rx         0020  5  0A 00 C8 1A 01 
  1691)       355.3  Rx         0025  8  A4 03 75 03 A9 02 FE 03 
  1692)       355.6  Rx         0021  5  00 00 00 00 00 
  1693)       355.8  Rx         0024  5  00 00 5F 15 00 
  1694)       356.1  Rx         0020  5  0A 00 C8 1A 01 
  1695)       356.4  Rx         0026  6  9E FE 1B 7D 27 41 
  1696)       356.6  Rx         0021  5  00 00 00 00 00 
  1697)       356.8  Rx         0025  8  A5 03 75 03 A8 02 FC 03 
  1698)       357.1  Rx         0022  5  0B 00 E7 05 02 
  1699)       357.2  Rx         0020  5  0A 00 C8 1A 01 
  1700)       357.4  Rx         0024  5  00 00 5F 15 00 
  1701)       357.6  Rx         0023  5  00 00 00 00 00 
  1702)       357.8  Rx         0021  5  00 00 00 00 00 
  1703)       358.0  Rx         0030  6  4F 08 AA 72 65 82 
  1704)       358.2  Rx         0022  5  0B 00 E7 05 02 
