;$FILEVERSION=1.1
;$STARTTIME=45805.7646247917
;
;   Start time: 2025/5/28 18:21:03.582.0
;   Generated by PCAN-View v5.3.2.952
;
;   Message Number
;   |         Time Offset (ms)
;   |         |        Type
;   |         |        |        ID (hex)
;   |         |        |        |     Data Length
;   |         |        |        |     |   Data Bytes (hex) ...
;   |         |        |        |     |   |
;---+--   ----+----  --+--  ----+---  +  -+ -- -- -- -- -- -- --
     1)         0.0  Rx         0020  5  0A 00 36 1A 01 
     2)         0.1  Rx         0022  5  0B 00 F4 1D 03 
     3)         0.6  Rx         0021  5  00 00 00 00 00 
     4)         0.8  Rx         0023  5  00 00 00 00 00 
     5)         4.1  Rx         0021  5  00 00 00 00 00 
     6)         4.3  Rx         0023  5  00 00 00 00 00 
     7)         4.8  Rx         0020  5  0A 00 34 1A 01 
     8)         5.0  Rx         0022  5  0B 00 F6 1D 01 
     9)         8.9  Rx         0021  5  00 00 00 00 00 
    10)        10.0  Rx         0021  5  00 00 00 00 00 
    11)        13.6  Rx         0021  5  00 00 00 00 00 
    12)        13.7  Rx         0022  5  0B 00 F9 1D 03 
    13)        14.2  Rx         0020  5  0A 00 31 1A 03 
    14)        14.4  Rx         0023  5  00 00 00 00 00 
    15)        20.0  Rx         0020  5  0A 00 2F 1A 03 
    16)        21.7  Rx         0026  6  DD 09 AF 7F B0 31 
    17)        21.9  Rx         0021  5  00 00 00 00 00 
    18)        22.4  Rx         0022  5  0B 00 FC 1D 01 
    19)        22.6  Rx         0020  5  0A 00 2E 1A 03 
    20)        23.0  Rx         0023  5  00 00 00 00 00 
    21)        23.2  Rx         0021  5  00 00 00 00 00 
    22)        23.7  Rx         0022  5  0B 00 FD 1D 01 
    23)        23.8  Rx         0020  5  0A 00 2E 1A 03 
    24)        30.7  Rx         0022  5  0B 00 FF 1D 01 
    25)        31.2  Rx         0020  5  0A 00 2C 1A 03 
    26)        31.4  Rx         0023  5  00 00 00 00 00 
    27)        32.3  Rx         0020  5  0A 00 2C 1A 01 
    28)        33.6  Rx         0026  6  FF 09 99 7F 82 31 
    29)        33.7  Rx         0020  5  0A 00 2B 1A 03 
    30)        34.2  Rx         0022  5  0B 00 00 1E 03 
    31)        34.4  Rx         0021  5  00 00 00 00 00 
    32)        40.0  Rx         0022  5  0B 00 02 1E 01 
    33)        40.3  Rx         0021  5  00 00 00 00 00 
    34)        40.7  Rx         0023  5  00 00 00 00 00 
    35)        40.9  Rx         0020  5  0A 00 29 1A 01 
    36)        42.7  Rx         0021  5  00 00 00 00 00 
    37)        43.2  Rx         0020  5  0A 00 28 1A 03 
    38)        45.3  Rx         0023  5  00 00 00 00 00 
    39)        45.6  Rx         0020  5  0A 00 28 1A 01 
    40)        45.8  Rx         0022  5  0B 00 03 1E 03 
    41)        46.1  Rx         0021  5  00 00 00 00 00 
    42)        46.3  Rx         0023  5  00 00 00 00 00 
    43)        46.6  Rx         0020  5  0A 00 27 1A 03 
    44)        46.8  Rx         0022  5  0B 00 04 1E 03 
    45)        49.0  Rx         0020  5  0A 00 26 1A 03 
    46)        49.2  Rx         0022  5  0B 00 05 1E 01 
    47)        50.2  Rx         0020  5  0A 00 26 1A 03 
    48)        50.4  Rx         0022  5  0B 00 05 1E 03 
    49)        50.7  Rx         0021  5  00 00 00 00 00 
    50)        50.9  Rx         0023  5  00 00 00 00 00 
    51)        51.2  Rx         0020  5  0A 00 26 1A 03 
    52)        51.4  Rx         0022  5  0B 00 05 1E 03 
    53)        51.7  Rx         0021  5  00 00 00 00 00 
    54)        51.9  Rx         0023  5  00 00 00 00 00 
    55)        52.3  Rx         0020  5  0A 00 26 1A 01 
    56)        52.5  Rx         0022  5  0B 00 05 1E 03 
    57)        52.9  Rx         0021  5  00 00 00 00 00 
    58)        53.1  Rx         0023  5  00 00 00 00 00 
    59)        53.5  Rx         0020  5  0A 00 26 1A 01 
    60)        54.7  Rx         0020  5  0A 00 25 1A 03 
    61)        54.9  Rx         0026  6  5A 0A 60 7F 1C 31 
    62)        55.2  Rx         0021  5  00 00 00 00 00 
    63)        55.4  Rx         0022  5  0B 00 07 1E 01 
    64)        55.9  Rx         0020  5  0A 00 25 1A 01 
    65)        56.1  Rx         0023  5  00 00 00 00 00 
    66)        56.5  Rx         0021  5  00 00 00 00 00 
    67)        56.7  Rx         0022  5  0B 00 07 1E 01 
    68)        57.1  Rx         0020  5  0A 00 25 1A 01 
    69)        57.3  Rx         0023  5  00 00 00 00 00 
    70)        57.7  Rx         0021  5  00 00 00 00 00 
    71)        57.9  Rx         0022  5  0B 00 07 1E 03 
    72)        58.3  Rx         0020  5  0A 00 24 1A 03 
    73)        58.5  Rx         0023  5  00 00 00 00 00 
    74)        58.9  Rx         0021  5  00 00 00 00 00 
    75)        59.1  Rx         0022  5  0B 00 08 1E 01 
    76)        59.5  Rx         0020  5  0A 00 24 1A 01 
    77)        59.7  Rx         0023  5  00 00 00 00 00 
    78)        60.1  Rx         0021  5  00 00 00 00 00 
    79)        60.2  Rx         0022  5  0B 00 08 1E 01 
    80)        60.6  Rx         0020  5  0A 00 24 1A 01 
    81)        60.7  Rx         0023  5  00 00 00 00 00 
    82)        61.1  Rx         0021  5  00 00 00 00 00 
    83)        61.2  Rx         0022  5  0B 00 08 1E 03 
    84)        61.6  Rx         0020  5  0A 00 24 1A 01 
    85)        61.8  Rx         0023  5  00 00 00 00 00 
    86)        62.3  Rx         0021  5  00 00 00 00 00 
    87)        62.5  Rx         0022  5  0B 00 08 1E 03 
    88)        63.0  Rx         0020  5  0A 00 24 1A 01 
    89)        63.2  Rx         0023  5  00 00 00 00 00 
    90)        63.6  Rx         0021  5  00 00 00 00 00 
    91)        66.1  Rx         0021  5  00 00 00 00 00 
    92)        66.2  Rx         0022  5  0B 00 09 1E 03 
    93)        66.7  Rx         0020  5  0A 00 23 1A 01 
    94)        66.9  Rx         0023  5  00 00 00 00 00 
    95)        67.3  Rx         0021  5  00 00 00 00 00 
    96)        67.5  Rx         0022  5  0B 00 0A 1E 01 
    97)        68.0  Rx         0020  5  0A 00 23 1A 01 
    98)        68.2  Rx         0023  5  00 00 00 00 00 
    99)        68.6  Rx         0021  5  00 00 00 00 00 
   100)        68.8  Rx         0022  5  0B 00 0A 1E 01 
   101)        69.2  Rx         0020  5  0A 00 22 1A 01 
   102)        69.4  Rx         0023  5  00 00 00 00 00 
   103)        69.8  Rx         0021  5  00 00 00 00 00 
   104)        70.0  Rx         0022  5  0B 00 0A 1E 03 
   105)        70.4  Rx         0020  5  0A 00 22 1A 01 
   106)        70.6  Rx         0023  5  00 00 00 00 00 
   107)        71.0  Rx         0021  5  00 00 00 00 00 
   108)        71.2  Rx         0022  5  0B 00 0A 1E 03 
   109)        71.7  Rx         0020  5  0A 00 22 1A 01 
   110)        71.9  Rx         0023  5  00 00 00 00 00 
   111)        72.3  Rx         0021  5  00 00 00 00 00 
   112)        72.5  Rx         0022  5  0B 00 0A 1E 03 
   113)        72.9  Rx         0020  5  0A 00 21 1A 03 
   114)        73.1  Rx         0023  5  00 00 00 00 00 
   115)        73.6  Rx         0021  5  00 00 00 00 00 
   116)        73.8  Rx         0022  5  0B 00 0B 1E 03 
   117)        74.2  Rx         0020  5  0A 00 21 1A 03 
   118)        74.4  Rx         0023  5  00 00 00 00 00 
   119)        74.9  Rx         0021  5  00 00 00 00 00 
   120)        78.3  Rx         0022  5  0B 00 0C 1E 01 
   121)        78.8  Rx         0021  5  00 00 00 00 00 
   122)        78.9  Rx         0023  5  00 00 00 00 00 
   123)        87.6  Rx         0020  5  0A 00 21 1A 01 
   124)        88.2  Rx         0021  5  00 00 00 00 00 
   125)        88.5  Rx         0026  6  AA 0A 27 7F C1 30 
   126)        88.7  Rx         0020  5  0A 00 21 1A 01 
   127)        89.0  Rx         0022  5  0B 00 0D 1E 01 
   128)        89.2  Rx         0021  5  00 00 00 00 00 
   129)        89.5  Rx         0023  5  00 00 00 00 00 
   130)        91.6  Rx         0021  5  00 00 00 00 00 
   131)        91.8  Rx         0023  5  00 00 00 00 00 
   132)        94.0  Rx         0021  5  00 00 00 00 00 
   133)        94.2  Rx         0023  5  00 00 00 00 00 
   134)        94.6  Rx         0020  5  0A 00 20 1A 03 
   135)        94.8  Rx         0022  5  0B 00 0D 1E 03 
   136)        98.8  Rx         0021  5  00 00 00 00 00 
   137)       100.4  Rx         0026  6  C1 0A 1B 7F 9F 30 
   138)       100.5  Rx         0020  5  0A 00 20 1A 03 
   139)       101.0  Rx         0022  5  0B 00 0E 1E 01 
   140)       101.2  Rx         0021  5  00 00 00 00 00 
   141)       103.3  Rx         0022  5  0B 00 0E 1E 01 
   142)       103.5  Rx         0021  5  00 00 00 00 00 
   143)       104.0  Rx         0023  5  00 00 00 00 00 
   144)       104.1  Rx         0020  5  0A 00 20 1A 03 
   145)       106.3  Rx         0023  5  00 00 00 00 00 
   146)       106.7  Rx         0020  5  0A 00 20 1A 03 
   147)       106.9  Rx         0022  5  0B 00 0E 1E 03 
   148)       109.6  Rx         0021  5  00 00 00 00 00 
   149)       110.1  Rx         0020  5  0A 00 20 1A 03 
   150)       110.6  Rx         0021  5  00 00 00 00 00 
   151)       111.1  Rx         0020  5  0A 00 20 1A 03 
   152)       111.3  Rx         0026  6  D8 0A 05 7F 88 30 
   153)       111.7  Rx         0021  5  00 00 00 00 00 
   154)       112.0  Rx         0022  5  0B 00 0F 1E 01 
   155)       112.3  Rx         0020  5  0A 00 20 1A 03 
   156)       112.6  Rx         0023  5  00 00 00 00 00 
   157)       112.9  Rx         0021  5  00 00 00 00 00 
   158)       113.1  Rx         0022  5  0B 00 0F 1E 01 
   159)       113.5  Rx         0020  5  0A 00 20 1A 03 
   160)       113.7  Rx         0023  5  00 00 00 00 00 
   161)       114.1  Rx         0021  5  00 00 00 00 00 
   162)       114.3  Rx         0022  5  0B 00 0F 1E 01 
   163)       114.8  Rx         0020  5  0A 00 20 1A 03 
   164)       114.9  Rx         0023  5  00 00 00 00 00 
   165)       115.4  Rx         0021  5  00 00 00 00 00 
   166)       115.5  Rx         0022  5  0B 00 0F 1E 01 
   167)       116.0  Rx         0020  5  0A 00 20 1A 03 
   168)       116.1  Rx         0023  5  00 00 00 00 00 
   169)       116.6  Rx         0021  5  00 00 00 00 00 
   170)       116.7  Rx         0022  5  0B 00 0F 1E 03 
   171)       117.2  Rx         0020  5  0A 00 20 1A 03 
   172)       117.4  Rx         0023  5  00 00 00 00 00 
   173)       117.8  Rx         0021  5  00 00 00 00 00 
   174)       118.0  Rx         0022  5  0B 00 0F 1E 03 
   175)       118.4  Rx         0020  5  0A 00 20 1A 03 
   176)       118.6  Rx         0023  5  00 00 00 00 00 
   177)       118.9  Rx         0021  5  00 00 00 00 00 
   178)       119.2  Rx         0022  5  0B 00 0F 1E 03 
   179)       119.5  Rx         0020  5  0A 00 20 1A 03 
   180)       119.8  Rx         0023  5  00 00 00 00 00 
   181)       120.2  Rx         0021  5  00 00 00 00 00 
   182)       121.9  Rx         0020  5  0A 00 20 1A 03 
   183)       122.3  Rx         0026  6  EE 0A F9 7E 71 30 
   184)       122.4  Rx         0021  5  00 00 00 00 00 
   185)       122.9  Rx         0022  5  0B 00 0F 1E 03 
   186)       123.0  Rx         0020  5  0A 00 20 1A 03 
   187)       123.5  Rx         0023  5  00 00 00 00 00 
   188)       123.7  Rx         0021  5  00 00 00 00 00 
   189)       124.1  Rx         0022  5  0B 00 0F 1E 03 
   190)       124.2  Rx         0020  5  0A 00 20 1A 03 
   191)       124.7  Rx         0023  5  00 00 00 00 00 
   192)       124.9  Rx         0021  5  00 00 00 00 00 
   193)       125.3  Rx         0022  5  0B 00 0F 1E 03 
   194)       125.5  Rx         0020  5  0A 00 20 1A 03 
   195)       125.9  Rx         0023  5  00 00 00 00 00 
   196)       126.1  Rx         0021  5  00 00 00 00 00 
   197)       126.5  Rx         0022  5  0B 00 0F 1E 03 
   198)       126.7  Rx         0020  5  0A 00 20 1A 03 
   199)       132.6  Rx         0020  5  0A 00 20 1A 03 
   200)       135.5  Rx         0021  5  00 00 00 00 00 
   201)       135.7  Rx         0023  5  00 00 00 00 00 
   202)       136.1  Rx         0020  5  0A 00 21 1A 01 
   203)       136.3  Rx         0022  5  0B 00 10 1E 01 
   204)       141.4  Rx         0021  5  00 00 00 00 00 
   205)       141.6  Rx         0023  5  00 00 00 00 00 
   206)       142.0  Rx         0020  5  0A 00 21 1A 03 
   207)       142.2  Rx         0022  5  0B 00 10 1E 03 
   208)       143.8  Rx         0021  5  00 00 00 00 00 
   209)       145.6  Rx         0020  5  0A 00 22 1A 01 
   210)       145.8  Rx         0023  5  00 00 00 00 00 
   211)       150.9  Rx         0021  5  00 00 00 00 00 
   212)       151.1  Rx         0022  5  0B 00 10 1E 03 
   213)       151.6  Rx         0020  5  0A 00 23 1A 01 
   214)       151.7  Rx         0023  5  00 00 00 00 00 
   215)       155.1  Rx         0020  5  0A 00 23 1A 03 
   216)       160.4  Rx         0021  5  00 00 00 00 00 
   217)       160.7  Rx         0023  5  00 00 00 00 00 
   218)       161.1  Rx         0020  5  0A 00 24 1A 03 
   219)       161.3  Rx         0022  5  0B 00 10 1E 03 
   220)       164.7  Rx         0020  5  0A 00 25 1A 01 
   221)       164.8  Rx         0022  5  0B 00 10 1E 03 
   222)       166.4  Rx         0021  5  00 00 00 00 00 
   223)       171.8  Rx         0020  5  0A 00 27 1A 01 
   224)       172.0  Rx         0023  5  00 00 00 00 00 
   225)       172.4  Rx         0021  5  00 00 00 00 00 
   226)       172.6  Rx         0022  5  0B 00 10 1E 03 
   227)       175.9  Rx         0021  5  00 00 00 00 00 
   228)       176.1  Rx         0022  5  0B 00 10 1E 03 
   229)       177.7  Rx         0020  5  0A 00 28 1A 01 
   230)       181.0  Rx         0022  5  0B 00 10 1E 03 
   231)       181.2  Rx         0020  5  0A 00 29 1A 01 
   232)       181.5  Rx         0023  5  00 00 00 00 00 
   233)       181.8  Rx         0021  5  00 00 00 00 00 
   234)       182.0  Rx         0022  5  0B 00 10 1E 03 
   235)       185.3  Rx         0021  5  00 00 00 00 00 
   236)       185.5  Rx         0022  5  0B 00 10 1E 03 
   237)       189.5  Rx         0020  5  0A 00 2B 1A 01 
   238)       190.0  Rx         0021  5  00 00 00 00 00 
   239)       193.5  Rx         0023  5  00 00 00 00 00 
   240)       193.9  Rx         0021  5  00 00 00 00 00 
   241)       194.1  Rx         0022  5  0B 00 10 1E 03 
   242)       196.3  Rx         0021  5  00 00 00 00 00 
   243)       196.4  Rx         0022  5  0B 00 10 1E 03 
   244)       199.2  Rx         0020  5  0A 00 2D 1A 03 
   245)       201.8  Rx         0023  5  00 00 00 00 00 
   246)       202.3  Rx         0021  5  00 00 00 00 00 
   247)       202.5  Rx         0022  5  0B 00 10 1E 03 
   248)       204.7  Rx         0021  5  00 00 00 00 00 
   249)       204.8  Rx         0022  5  0B 00 10 1E 03 
   250)       205.3  Rx         0020  5  0A 00 2F 1A 01 
   251)       205.5  Rx         0023  5  00 00 00 00 00 
   252)       211.2  Rx         0020  5  0A 00 31 1A 01 
   253)       212.4  Rx         0020  5  0A 00 31 1A 01 
   254)       213.5  Rx         0020  5  0A 00 31 1A 01 
   255)       213.7  Rx         0022  5  0B 00 10 1E 03 
   256)       214.2  Rx         0021  5  00 00 00 00 00 
   257)       214.3  Rx         0023  5  00 00 00 00 00 
   258)       216.5  Rx         0021  5  00 00 00 00 00 
   259)       216.7  Rx         0023  5  00 00 00 00 00 
   260)       222.4  Rx         0021  5  00 00 00 00 00 
   261)       224.2  Rx         0020  5  0A 00 34 1A 01 
   262)       224.4  Rx         0022  5  0B 00 10 1E 01 
   263)       224.8  Rx         0021  5  00 00 00 00 00 
   264)       225.1  Rx         0023  5  00 00 00 00 00 
   265)       225.5  Rx         0020  5  0A 00 34 1A 03 
   266)       225.7  Rx         0022  5  0B 00 10 1E 01 
   267)       231.4  Rx         0020  5  0A 00 36 1A 01 
   268)       231.6  Rx         0022  5  0B 00 0F 1E 03 
   269)       233.2  Rx         0021  5  00 00 00 00 00 
   270)       233.7  Rx         0020  5  0A 00 36 1A 03 
   271)       234.0  Rx         0026  6  DD 0B 7C 7E 2D 30 
   272)       234.4  Rx         0021  5  00 00 00 00 00 
   273)       234.6  Rx         0022  5  0B 00 0F 1E 03 
   274)       235.0  Rx         0020  5  0A 00 36 1A 03 
   275)       235.2  Rx         0023  5  00 00 00 00 00 
   276)       235.6  Rx         0021  5  00 00 00 00 00 
   277)       235.8  Rx         0022  5  0B 00 0F 1E 01 
   278)       236.2  Rx         0020  5  0A 00 37 1A 01 
   279)       236.4  Rx         0023  5  00 00 00 00 00 
   280)       236.9  Rx         0021  5  00 00 00 00 00 
   281)       237.0  Rx         0022  5  0B 00 0F 1E 01 
   282)       237.4  Rx         0020  5  0A 00 37 1A 03 
   283)       237.6  Rx         0023  5  00 00 00 00 00 
   284)       238.1  Rx         0021  5  00 00 00 00 00 
   285)       238.2  Rx         0022  5  0B 00 0F 1E 01 
   286)       238.7  Rx         0020  5  0A 00 38 1A 01 
   287)       238.8  Rx         0023  5  00 00 00 00 00 
   288)       239.3  Rx         0021  5  00 00 00 00 00 
   289)       239.4  Rx         0022  5  0B 00 0F 1E 01 
   290)       239.9  Rx         0020  5  0A 00 38 1A 01 
   291)       240.0  Rx         0023  5  00 00 00 00 00 
   292)       240.4  Rx         0021  5  00 00 00 00 00 
   293)       240.6  Rx         0022  5  0B 00 0F 1E 01 
   294)       241.0  Rx         0020  5  0A 00 38 1A 03 
   295)       241.2  Rx         0023  5  00 00 00 00 00 
   296)       241.6  Rx         0021  5  00 00 00 00 00 
   297)       241.9  Rx         0022  5  0B 00 0F 1E 01 
   298)       242.2  Rx         0020  5  0A 00 39 1A 01 
   299)       242.5  Rx         0023  5  00 00 00 00 00 
   300)       242.8  Rx         0021  5  00 00 00 00 00 
   301)       243.1  Rx         0022  5  0B 00 0F 1E 01 
   302)       243.3  Rx         0020  5  0A 00 39 1A 01 
   303)       243.6  Rx         0023  5  00 00 00 00 00 
   304)       243.9  Rx         0021  5  00 00 00 00 00 
   305)       244.4  Rx         0020  5  0A 00 39 1A 03 
   306)       244.9  Rx         0021  5  00 00 00 00 00 
   307)       245.2  Rx         0026  6  F4 0B 71 7E 2D 30 
   308)       245.4  Rx         0020  5  0A 00 3A 1A 01 
   309)       245.7  Rx         0022  5  0B 00 0E 1E 03 
   310)       245.9  Rx         0021  5  00 00 00 00 00 
   311)       246.1  Rx         0023  5  00 00 00 00 00 
   312)       246.4  Rx         0020  5  0A 00 3A 1A 01 
   313)       246.6  Rx         0022  5  0B 00 0E 1E 03 
   314)       246.9  Rx         0021  5  00 00 00 00 00 
   315)       247.1  Rx         0023  5  00 00 00 00 00 
   316)       247.4  Rx         0020  5  0A 00 3A 1A 03 
   317)       247.6  Rx         0022  5  0B 00 0E 1E 03 
   318)       248.2  Rx         0021  5  00 00 00 00 00 
   319)       248.3  Rx         0023  5  00 00 00 00 00 
   320)       248.8  Rx         0020  5  0A 00 3A 1A 03 
   321)       249.0  Rx         0022  5  0B 00 0E 1E 03 
   322)       249.4  Rx         0021  5  00 00 00 00 00 
   323)       249.7  Rx         0023  5  00 00 00 00 00 
   324)       250.1  Rx         0020  5  0A 00 3A 1A 03 
   325)       250.3  Rx         0022  5  0B 00 0E 1E 03 
   326)       250.7  Rx         0021  5  00 00 00 00 00 
   327)       250.9  Rx         0023  5  00 00 00 00 00 
   328)       251.4  Rx         0020  5  0A 00 3B 1A 01 
   329)       251.6  Rx         0022  5  0B 00 0E 1E 01 
   330)       252.0  Rx         0021  5  00 00 00 00 00 
   331)       252.2  Rx         0023  5  00 00 00 00 00 
   332)       252.6  Rx         0020  5  0A 00 3B 1A 03 
   333)       252.9  Rx         0022  5  0B 00 0E 1E 01 
   334)       253.3  Rx         0021  5  00 00 00 00 00 
   335)       253.5  Rx         0023  5  00 00 00 00 00 
   336)       254.0  Rx         0020  5  0A 00 3C 1A 01 
   337)       254.1  Rx         0022  5  0B 00 0E 1E 01 
   338)       254.6  Rx         0021  5  00 00 00 00 00 
   339)       254.8  Rx         0023  5  00 00 00 00 00 
   340)       255.2  Rx         0020  5  0A 00 3C 1A 01 
   341)       267.7  Rx         0021  5  00 00 00 00 00 
   342)       269.5  Rx         0020  5  0A 00 3E 1A 03 
   343)       269.7  Rx         0022  5  0B 00 0E 1E 01 
   344)       270.2  Rx         0021  5  00 00 00 00 00 
   345)       270.3  Rx         0023  5  00 00 00 00 00 
   346)       273.7  Rx         0021  5  00 00 00 00 00 
   347)       273.9  Rx         0023  5  00 00 00 00 00 
   348)       274.4  Rx         0020  5  0A 00 3F 1A 01 
   349)       274.5  Rx         0022  5  0B 00 0E 1E 01 
   350)       277.3  Rx         0021  5  00 00 00 00 00 
   351)       278.5  Rx         0021  5  00 00 00 00 00 
   352)       281.4  Rx         0020  5  0A 00 40 1A 01 
   353)       281.6  Rx         0023  5  00 00 00 00 00 
   354)       283.7  Rx         0020  5  0A 00 40 1A 01 
   355)       283.9  Rx         0023  5  00 00 00 00 00 
   356)       284.4  Rx         0021  5  00 00 00 00 00 
   357)       284.6  Rx         0022  5  0B 00 0E 1E 01 
   358)       286.7  Rx         0021  5  00 00 00 00 00 
   359)       286.9  Rx         0022  5  0B 00 0E 1E 01 
   360)       288.5  Rx         0020  5  0A 00 40 1A 03 
   361)       289.1  Rx         0021  5  00 00 00 00 00 
   362)       290.0  Rx         0026  6  22 0C 5A 7E 38 30 
   363)       290.4  Rx         0021  5  00 00 00 00 00 
   364)       290.6  Rx         0022  5  0B 00 0E 1E 01 
   365)       291.0  Rx         0020  5  0A 00 40 1A 03 
   366)       291.2  Rx         0023  5  00 00 00 00 00 
   367)       293.9  Rx         0021  5  00 00 00 00 00 
   368)       294.1  Rx         0022  5  0B 00 0D 1E 03 
   369)       296.3  Rx         0021  5  00 00 00 00 00 
   370)       296.5  Rx         0022  5  0B 00 0D 1E 03 
   371)       299.3  Rx         0020  5  0A 00 41 1A 03 
   372)       301.9  Rx         0023  5  00 00 00 00 00 
   373)       302.4  Rx         0021  5  00 00 00 00 00 
   374)       302.5  Rx         0022  5  0B 00 0D 1E 03 
   375)       304.7  Rx         0021  5  00 00 00 00 00 
   376)       304.9  Rx         0022  5  0B 00 0D 1E 03 
   377)       305.4  Rx         0020  5  0A 00 41 1A 03 
   378)       305.5  Rx         0023  5  00 00 00 00 00 
   379)       311.8  Rx         0021  5  00 00 00 00 00 
   380)       312.7  Rx         0026  6  16 0C 4F 7E 44 30 
   381)       313.0  Rx         0021  5  00 00 00 00 00 
   382)       313.2  Rx         0022  5  0B 00 0D 1E 03 
   383)       313.6  Rx         0020  5  0A 00 41 1A 03 
   384)       313.8  Rx         0023  5  00 00 00 00 00 
   385)       316.0  Rx         0020  5  0A 00 41 1A 03 
   386)       316.2  Rx         0023  5  00 00 00 00 00 
   387)       316.7  Rx         0021  5  00 00 00 00 00 
   388)       316.8  Rx         0022  5  0B 00 0D 1E 03 
   389)       320.8  Rx         0020  5  0A 00 41 1A 03 
   390)       321.3  Rx         0021  5  00 00 00 00 00 
   391)       321.8  Rx         0020  5  0A 00 41 1A 03 
   392)       322.3  Rx         0021  5  00 00 00 00 00 
   393)       322.5  Rx         0026  6  0B 0C 4F 7E 38 30 
   394)       322.8  Rx         0020  5  0A 00 41 1A 03 
   395)       323.0  Rx         0022  5  0B 00 0D 1E 03 
   396)       323.4  Rx         0021  5  00 00 00 00 00 
   397)       323.6  Rx         0023  5  00 00 00 00 00 
   398)       324.0  Rx         0020  5  0A 00 41 1A 03 
   399)       324.2  Rx         0022  5  0B 00 0D 1E 03 
   400)       324.6  Rx         0021  5  00 00 00 00 00 
   401)       324.8  Rx         0023  5  00 00 00 00 00 
   402)       325.3  Rx         0020  5  0A 00 41 1A 03 
   403)       325.4  Rx         0022  5  0B 00 0D 1E 03 
   404)       325.9  Rx         0021  5  00 00 00 00 00 
   405)       326.0  Rx         0023  5  00 00 00 00 00 
   406)       326.5  Rx         0020  5  0A 00 41 1A 03 
   407)       326.6  Rx         0022  5  0B 00 0D 1E 03 
   408)       327.1  Rx         0021  5  00 00 00 00 00 
   409)       327.2  Rx         0023  5  00 00 00 00 00 
   410)       327.7  Rx         0020  5  0A 00 41 1A 03 
   411)       327.9  Rx         0022  5  0B 00 0D 1E 03 
   412)       328.3  Rx         0021  5  00 00 00 00 00 
   413)       328.5  Rx         0023  5  00 00 00 00 00 
   414)       328.9  Rx         0020  5  0A 00 41 1A 03 
   415)       329.1  Rx         0022  5  0B 00 0D 1E 03 
   416)       329.5  Rx         0021  5  00 00 00 00 00 
   417)       329.7  Rx         0023  5  00 00 00 00 00 
   418)       330.1  Rx         0020  5  0A 00 41 1A 03 
   419)       330.3  Rx         0022  5  0B 00 0D 1E 03 
   420)       330.7  Rx         0021  5  00 00 00 00 00 
   421)       330.9  Rx         0023  5  00 00 00 00 00 
   422)       331.3  Rx         0020  5  0A 00 41 1A 03 
   423)       331.5  Rx         0022  5  0B 00 0D 1E 03 
   424)       331.9  Rx         0021  5  00 00 00 00 00 
   425)       332.1  Rx         0023  5  00 00 00 00 00 
   426)       332.5  Rx         0020  5  0A 00 41 1A 03 
   427)       334.9  Rx         0020  5  0A 00 41 1A 01 
   428)       335.1  Rx         0023  5  00 00 00 00 00 
   429)       335.4  Rx         0021  5  00 00 00 00 00 
   430)       335.6  Rx         0022  5  0B 00 0D 1E 03 
   431)       335.9  Rx         0020  5  0A 00 41 1A 01 
   432)       336.1  Rx         0023  5  00 00 00 00 00 
   433)       336.4  Rx         0021  5  00 00 00 00 00 
   434)       336.6  Rx         0022  5  0B 00 0D 1E 03 
   435)       337.0  Rx         0020  5  0A 00 41 1A 01 
   436)       337.2  Rx         0023  5  00 00 00 00 00 
   437)       337.5  Rx         0021  5  00 00 00 00 00 
   438)       337.7  Rx         0022  5  0B 00 0D 1E 03 
   439)       345.9  Rx         0021  5  00 00 00 00 00 
   440)       347.0  Rx         0021  5  00 00 00 00 00 
   441)       347.2  Rx         0022  5  0B 00 0D 1E 03 
   442)       352.3  Rx         0020  5  0A 00 3F 1A 03 
   443)       352.5  Rx         0023  5  00 00 00 00 00 
   444)       353.0  Rx         0021  5  00 00 00 00 00 
   445)       353.2  Rx         0022  5  0B 00 0D 1E 03 
   446)       356.5  Rx         0021  5  00 00 00 00 00 
   447)       358.3  Rx         0020  5  0A 00 3F 1A 01 
   448)       361.9  Rx         0020  5  0A 00 3E 1A 03 
   449)       362.1  Rx         0022  5  0B 00 0D 1E 03 
   450)       362.5  Rx         0021  5  00 00 00 00 00 
   451)       362.8  Rx         0023  5  00 00 00 00 00 
   452)       366.1  Rx         0021  5  00 00 00 00 00 
   453)       366.3  Rx         0023  5  00 00 00 00 00 
   454)       367.9  Rx         0020  5  0A 00 3D 1A 03 
   455)       373.3  Rx         0021  5  00 00 00 00 00 
   456)       373.4  Rx         0023  5  00 00 00 00 00 
   457)       373.9  Rx         0020  5  0A 00 3D 1A 01 
   458)       374.1  Rx         0022  5  0B 00 0D 1E 03 
   459)       378.0  Rx         0021  5  00 00 00 00 00 
   460)       379.6  Rx         0026  6  B0 0B 65 7E 16 30 
   461)       379.8  Rx         0020  5  0A 00 3C 1A 01 
   462)       380.2  Rx         0022  5  0B 00 0D 1E 03 
   463)       380.4  Rx         0021  5  00 00 00 00 00 
   464)       380.8  Rx         0023  5  00 00 00 00 00 
   465)       381.0  Rx         0020  5  0A 00 3C 1A 01 
   466)       383.7  Rx         0022  5  0B 00 0D 1E 03 
   467)       383.9  Rx         0021  5  00 00 00 00 00 
   468)       384.4  Rx         0023  5  00 00 00 00 00 
   469)       384.6  Rx         0020  5  0A 00 3B 1A 03 
   470)       389.9  Rx         0021  5  00 00 00 00 00 
   471)       391.1  Rx         0021  5  00 00 00 00 00 
   472)       391.5  Rx         0026  6  99 0B 65 7E 0B 30 
   473)       391.6  Rx         0020  5  0A 00 3A 1A 03 
   474)       392.1  Rx         0022  5  0B 00 0D 1E 03 
   475)       392.3  Rx         0021  5  00 00 00 00 00 
   476)       394.4  Rx         0022  5  0B 00 0D 1E 03 
   477)       394.9  Rx         0021  5  00 00 00 00 00 
   478)       395.1  Rx         0023  5  00 00 00 00 00 
   479)       397.2  Rx         0021  5  00 00 00 00 00 
   480)       397.4  Rx         0023  5  00 00 00 00 00 
   481)       401.3  Rx         0020  5  0A 00 39 1A 01 
   482)       403.1  Rx         0021  5  00 00 00 00 00 
   483)       403.3  Rx         0022  5  0B 00 0D 1E 03 
   484)       403.7  Rx         0020  5  0A 00 39 1A 01 
   485)       403.9  Rx         0023  5  00 00 00 00 00 
   486)       404.4  Rx         0021  5  00 00 00 00 00 
   487)       404.6  Rx         0022  5  0B 00 0D 1E 03 
   488)       406.7  Rx         0021  5  00 00 00 00 00 
   489)       406.9  Rx         0022  5  0B 00 0D 1E 03 
   490)       407.4  Rx         0020  5  0A 00 38 1A 03 
   491)       407.6  Rx         0023  5  00 00 00 00 00 
   492)       411.0  Rx         0020  5  0A 00 37 1A 03 
   493)       411.4  Rx         0021  5  00 00 00 00 00 
   494)       413.3  Rx         0020  5  0A 00 37 1A 03 
   495)       413.4  Rx         0022  5  0B 00 0D 1E 03 
   496)       413.9  Rx         0021  5  00 00 00 00 00 
   497)       414.1  Rx         0023  5  00 00 00 00 00 
   498)       414.5  Rx         0020  5  0A 00 37 1A 03 
   499)       414.7  Rx         0022  5  0B 00 0D 1E 03 
   500)       416.9  Rx         0020  5  0A 00 37 1A 01 
   501)       417.1  Rx         0022  5  0B 00 0D 1E 03 
   502)       421.0  Rx         0021  5  00 00 00 00 00 
   503)       421.2  Rx         0023  5  00 00 00 00 00 
   504)       422.2  Rx         0021  5  00 00 00 00 00 
   505)       423.1  Rx         0026  6  82 0B 71 7E E9 2F 
   506)       423.3  Rx         0021  5  00 00 00 00 00 
   507)       423.8  Rx         0022  5  0B 00 0D 1E 03 
   508)       424.0  Rx         0020  5  0A 00 36 1A 01 
   509)       426.1  Rx         0022  5  0B 00 0D 1E 03 
   510)       426.3  Rx         0020  5  0A 00 35 1A 03 
   511)       426.8  Rx         0023  5  00 00 00 00 00 
   512)       426.9  Rx         0021  5  00 00 00 00 00 
   513)       427.4  Rx         0022  5  0B 00 0D 1E 03 
   514)       427.6  Rx         0020  5  0A 00 35 1A 03 
   515)       428.0  Rx         0023  5  00 00 00 00 00 
   516)       428.2  Rx         0021  5  00 00 00 00 00 
   517)       428.6  Rx         0022  5  0B 00 0D 1E 03 
   518)       428.8  Rx         0020  5  0A 00 35 1A 01 
   519)       429.2  Rx         0023  5  00 00 00 00 00 
   520)       429.4  Rx         0021  5  00 00 00 00 00 
   521)       429.8  Rx         0022  5  0B 00 0D 1E 03 
   522)       430.0  Rx         0020  5  0A 00 35 1A 01 
   523)       430.4  Rx         0023  5  00 00 00 00 00 
   524)       430.6  Rx         0021  5  00 00 00 00 00 
   525)       431.0  Rx         0022  5  0B 00 0D 1E 03 
   526)       431.2  Rx         0020  5  0A 00 34 1A 03 
   527)       431.6  Rx         0023  5  00 00 00 00 00 
   528)       431.8  Rx         0021  5  00 00 00 00 00 
   529)       432.2  Rx         0022  5  0B 00 0D 1E 03 
   530)       432.4  Rx         0020  5  0A 00 34 1A 03 
   531)       432.8  Rx         0023  5  00 00 00 00 00 
   532)       433.0  Rx         0021  5  00 00 00 00 00 
   533)       434.5  Rx         0026  6  82 0B 71 7E DD 2F 
   534)       434.7  Rx         0020  5  0A 00 34 1A 01 
   535)       434.9  Rx         0022  5  0B 00 0D 1E 03 
   536)       435.2  Rx         0021  5  00 00 00 00 00 
   537)       435.4  Rx         0023  5  00 00 00 00 00 
   538)       435.7  Rx         0020  5  0A 00 34 1A 01 
   539)       435.9  Rx         0022  5  0B 00 0D 1E 03 
   540)       436.2  Rx         0021  5  00 00 00 00 00 
   541)       436.5  Rx         0023  5  00 00 00 00 00 
   542)       436.8  Rx         0020  5  0A 00 33 1A 03 
   543)       437.0  Rx         0022  5  0B 00 0D 1E 03 
   544)       437.4  Rx         0021  5  00 00 00 00 00 
   545)       437.6  Rx         0023  5  00 00 00 00 00 
   546)       438.0  Rx         0020  5  0A 00 33 1A 03 
   547)       438.2  Rx         0022  5  0B 00 0D 1E 03 
   548)       438.6  Rx         0021  5  00 00 00 00 00 
   549)       438.8  Rx         0023  5  00 00 00 00 00 
   550)       439.2  Rx         0020  5  0A 00 33 1A 01 
   551)       439.4  Rx         0022  5  0B 00 0D 1E 03 
   552)       439.9  Rx         0021  5  00 00 00 00 00 
   553)       440.0  Rx         0023  5  00 00 00 00 00 
   554)       440.5  Rx         0020  5  0A 00 33 1A 01 
   555)       440.6  Rx         0022  5  0B 00 0D 1E 03 
   556)       441.1  Rx         0021  5  00 00 00 00 00 
   557)       441.2  Rx         0023  5  00 00 00 00 00 
   558)       441.6  Rx         0020  5  0A 00 33 1A 01 
   559)       441.7  Rx         0022  5  0B 00 0D 1E 03 
   560)       442.1  Rx         0021  5  00 00 00 00 00 
   561)       442.3  Rx         0023  5  00 00 00 00 00 
   562)       442.6  Rx         0020  5  0A 00 32 1A 03 
   563)       442.8  Rx         0022  5  0B 00 0D 1E 03 
   564)       443.1  Rx         0021  5  00 00 00 00 00 
   565)       443.3  Rx         0023  5  00 00 00 00 00 
   566)       443.6  Rx         0020  5  0A 00 32 1A 03 
   567)       443.8  Rx         0022  5  0B 00 0D 1E 03 
   568)       444.3  Rx         0021  5  00 00 00 00 00 
   569)       444.4  Rx         0023  5  00 00 00 00 00 
   570)       444.9  Rx         0020  5  0A 00 32 1A 03 
   571)       448.3  Rx         0022  5  0B 00 0D 1E 03 
   572)       448.8  Rx         0020  5  0A 00 31 1A 03 
   573)       449.0  Rx         0023  5  00 00 00 00 00 
   574)       449.4  Rx         0021  5  00 00 00 00 00 
   575)       449.6  Rx         0022  5  0B 00 0D 1E 03 
   576)       450.1  Rx         0020  5  0A 00 31 1A 01 
   577)       450.3  Rx         0023  5  00 00 00 00 00 
   578)       450.7  Rx         0021  5  00 00 00 00 00 
   579)       450.9  Rx         0022  5  0B 00 0D 1E 03 
   580)       451.3  Rx         0020  5  0A 00 31 1A 01 
   581)       451.5  Rx         0023  5  00 00 00 00 00 
   582)       451.9  Rx         0021  5  00 00 00 00 00 
   583)       452.1  Rx         0022  5  0B 00 0D 1E 03 
   584)       452.5  Rx         0020  5  0A 00 31 1A 01 
   585)       452.7  Rx         0023  5  00 00 00 00 00 
   586)       453.1  Rx         0021  5  00 00 00 00 00 
   587)       453.3  Rx         0022  5  0B 00 0D 1E 03 
   588)       453.7  Rx         0020  5  0A 00 30 1A 03 
   589)       453.9  Rx         0023  5  00 00 00 00 00 
   590)       454.4  Rx         0021  5  00 00 00 00 00 
   591)       456.6  Rx         0022  5  0B 00 0D 1E 03 
   592)       456.8  Rx         0021  5  00 00 00 00 00 
   593)       457.3  Rx         0023  5  00 00 00 00 00 
   594)       457.5  Rx         0020  5  0A 00 30 1A 01 
   595)       457.9  Rx         0022  5  0B 00 0D 1E 03 
   596)       458.1  Rx         0021  5  00 00 00 00 00 
   597)       458.5  Rx         0023  5  00 00 00 00 00 
   598)       458.8  Rx         0020  5  0A 00 2F 1A 03 
   599)       459.2  Rx         0022  5  0B 00 0D 1E 03 
   600)       459.4  Rx         0021  5  00 00 00 00 00 
   601)       459.8  Rx         0023  5  00 00 00 00 00 
   602)       460.0  Rx         0020  5  0A 00 2F 1A 03 
   603)       460.4  Rx         0022  5  0B 00 0D 1E 03 
   604)       460.6  Rx         0021  5  00 00 00 00 00 
   605)       467.7  Rx         0021  5  00 00 00 00 00 
   606)       469.1  Rx         0022  5  0B 00 0D 1E 03 
   607)       469.4  Rx         0020  5  0A 00 2D 1A 03 
   608)       469.8  Rx         0023  5  00 00 00 00 00 
   609)       470.0  Rx         0021  5  00 00 00 00 00 
   610)       472.2  Rx         0023  5  00 00 00 00 00 
   611)       472.6  Rx         0021  5  00 00 00 00 00 
   612)       472.7  Rx         0022  5  0B 00 0D 1E 03 
   613)       474.9  Rx         0021  5  00 00 00 00 00 
   614)       475.1  Rx         0022  5  0B 00 0D 1E 03 
   615)       475.6  Rx         0020  5  0A 00 2C 1A 01 
   616)       475.7  Rx         0023  5  00 00 00 00 00 
   617)       477.9  Rx         0020  5  0A 00 2C 1A 01 
   618)       479.5  Rx         0026  6  82 0B 71 7E BB 2F 
   619)       479.7  Rx         0021  5  00 00 00 00 00 
   620)       480.2  Rx         0022  5  0B 00 0D 1E 03 
   621)       480.3  Rx         0020  5  0A 00 2B 1A 01 
   622)       482.5  Rx         0022  5  0B 00 0D 1E 03 
   623)       482.7  Rx         0020  5  0A 00 2A 1A 01 
   624)       483.2  Rx         0023  5  00 00 00 00 00 
   625)       483.3  Rx         0021  5  00 00 00 00 00 
   626)       485.4  Rx         0023  5  00 00 00 00 00 
   627)       485.7  Rx         0021  5  00 00 00 00 00 
   628)       486.1  Rx         0022  5  0B 00 0D 1E 03 
   629)       486.3  Rx         0020  5  0A 00 29 1A 03 
   630)       489.4  Rx         0021  5  00 00 00 00 00 
   631)       489.9  Rx         0020  5  0A 00 28 1A 03 
   632)       491.7  Rx         0021  5  00 00 00 00 00 
   633)       491.9  Rx         0023  5  00 00 00 00 00 
   634)       494.1  Rx         0021  5  00 00 00 00 00 
   635)       494.2  Rx         0023  5  00 00 00 00 00 
   636)       494.7  Rx         0020  5  0A 00 28 1A 01 
   637)       494.9  Rx         0022  5  0B 00 0D 1E 03 
   638)       495.9  Rx         0020  5  0A 00 27 1A 03 
   639)       496.1  Rx         0022  5  0B 00 0D 1E 03 
   640)       496.4  Rx         0021  5  00 00 00 00 00 
   641)       496.6  Rx         0023  5  00 00 00 00 00 
   642)       496.9  Rx         0020  5  0A 00 27 1A 03 
   643)       497.1  Rx         0022  5  0B 00 0D 1E 03 
   644)       497.4  Rx         0021  5  00 00 00 00 00 
   645)       497.6  Rx         0023  5  00 00 00 00 00 
   646)       498.0  Rx         0020  5  0A 00 27 1A 01 
   647)       498.2  Rx         0022  5  0B 00 0D 1E 03 
   648)       498.6  Rx         0021  5  00 00 00 00 00 
   649)       498.8  Rx         0023  5  00 00 00 00 00 
   650)       499.2  Rx         0020  5  0A 00 26 1A 03 
   651)       500.3  Rx         0020  5  0A 00 26 1A 03 
   652)       501.3  Rx         0026  6  82 0B 71 7E B0 2F 
   653)       501.5  Rx         0020  5  0A 00 26 1A 01 
   654)       501.7  Rx         0022  5  0B 00 0D 1E 03 
   655)       502.0  Rx         0021  5  00 00 00 00 00 
   656)       502.2  Rx         0023  5  00 00 00 00 00 
   657)       502.5  Rx         0020  5  0A 00 26 1A 01 
   658)       502.7  Rx         0022  5  0B 00 0D 1E 03 
   659)       503.0  Rx         0021  5  00 00 00 00 00 
   660)       503.2  Rx         0023  5  00 00 00 00 00 
   661)       503.6  Rx         0020  5  0A 00 25 1A 03 
   662)       503.8  Rx         0022  5  0B 00 0D 1E 03 
   663)       504.2  Rx         0021  5  00 00 00 00 00 
   664)       504.4  Rx         0023  5  00 00 00 00 00 
   665)       504.9  Rx         0020  5  0A 00 25 1A 03 
   666)       505.0  Rx         0022  5  0B 00 0D 1E 03 
   667)       505.5  Rx         0021  5  00 00 00 00 00 
   668)       505.7  Rx         0023  5  00 00 00 00 00 
   669)       506.1  Rx         0020  5  0A 00 25 1A 01 
   670)       506.3  Rx         0022  5  0B 00 0D 1E 03 
   671)       506.7  Rx         0021  5  00 00 00 00 00 
   672)       506.9  Rx         0023  5  00 00 00 00 00 
   673)       507.3  Rx         0020  5  0A 00 25 1A 01 
   674)       507.5  Rx         0022  5  0B 00 0D 1E 03 
   675)       507.9  Rx         0021  5  00 00 00 00 00 
   676)       508.1  Rx         0023  5  00 00 00 00 00 
   677)       508.5  Rx         0020  5  0A 00 24 1A 03 
   678)       508.7  Rx         0022  5  0B 00 0D 1E 03 
   679)       509.1  Rx         0021  5  00 00 00 00 00 
   680)       509.3  Rx         0023  5  00 00 00 00 00 
   681)       509.7  Rx         0020  5  0A 00 24 1A 03 
   682)       509.9  Rx         0022  5  0B 00 0D 1E 03 
   683)       510.3  Rx         0021  5  00 00 00 00 00 
   684)       510.5  Rx         0023  5  00 00 00 00 00 
   685)       522.8  Rx         0020  5  0A 00 21 1A 01 
   686)       523.3  Rx         0021  5  00 00 00 00 00 
   687)       526.9  Rx         0021  5  00 00 00 00 00 
   688)       527.0  Rx         0022  5  0B 00 0D 1E 01 
   689)       527.5  Rx         0020  5  0A 00 20 1A 01 
   690)       527.7  Rx         0023  5  00 00 00 00 00 
   691)       532.8  Rx         0021  5  00 00 00 00 00 
   692)       534.0  Rx         0021  5  00 00 00 00 00 
   693)       534.2  Rx         0026  6  77 0B 71 7E A4 2F 
   694)       534.5  Rx         0020  5  0A 00 1E 1A 01 
   695)       534.8  Rx         0022  5  0B 00 0C 1E 03 
   696)       535.2  Rx         0021  5  00 00 00 00 00 
   697)       535.4  Rx         0023  5  00 00 00 00 00 
   698)       535.8  Rx         0020  5  0A 00 1E 1A 01 
   699)       536.0  Rx         0022  5  0B 00 0C 1E 03 
   700)       542.9  Rx         0020  5  0A 00 1C 1A 03 
   701)       543.1  Rx         0022  5  0B 00 0C 1E 03 
   702)       543.5  Rx         0021  5  00 00 00 00 00 
   703)       543.8  Rx         0023  5  00 00 00 00 00 
   704)       545.3  Rx         0020  5  0A 00 1B 1A 03 
   705)       546.9  Rx         0023  5  00 00 00 00 00 
   706)       547.3  Rx         0021  5  00 00 00 00 00 
   707)       547.5  Rx         0022  5  0B 00 0C 1E 03 
   708)       552.6  Rx         0020  5  0A 00 19 1A 03 
   709)       552.8  Rx         0023  5  00 00 00 00 00 
   710)       553.3  Rx         0021  5  00 00 00 00 00 
   711)       553.4  Rx         0022  5  0B 00 0C 1E 01 
   712)       556.7  Rx         0021  5  00 00 00 00 00 
   713)       558.6  Rx         0020  5  0A 00 18 1A 03 
   714)       558.7  Rx         0022  5  0B 00 0C 1E 01 
   715)       559.2  Rx         0021  5  00 00 00 00 00 
   716)       559.4  Rx         0023  5  00 00 00 00 00 
   717)       562.7  Rx         0021  5  00 00 00 00 00 
   718)       562.9  Rx         0023  5  00 00 00 00 00 
   719)       563.4  Rx         0020  5  0A 00 17 1A 01 
   720)       563.5  Rx         0022  5  0B 00 0B 1E 03 
   721)       566.9  Rx         0020  5  0A 00 16 1A 01 
   722)       568.7  Rx         0021  5  00 00 00 00 00 
   723)       572.3  Rx         0021  5  00 00 00 00 00 
   724)       572.5  Rx         0022  5  0B 00 0B 1E 01 
   725)       572.9  Rx         0020  5  0A 00 15 1A 01 
   726)       573.1  Rx         0023  5  00 00 00 00 00 
   727)       576.5  Rx         0020  5  0A 00 14 1A 01 
   728)       576.6  Rx         0023  5  00 00 00 00 00 
   729)       577.7  Rx         0020  5  0A 00 13 1A 03 
   730)       582.1  Rx         0022  5  0B 00 0B 1E 01 
   731)       582.3  Rx         0020  5  0A 00 13 1A 01 
   732)       582.8  Rx         0023  5  00 00 00 00 00 
   733)       582.9  Rx         0021  5  00 00 00 00 00 
   734)       585.1  Rx         0023  5  00 00 00 00 00 
   735)       585.3  Rx         0021  5  00 00 00 00 00 
   736)       585.8  Rx         0022  5  0B 00 0B 1E 01 
   737)       585.9  Rx         0020  5  0A 00 11 1A 03 
   738)       588.1  Rx         0022  5  0B 00 0B 1E 01 
   739)       588.3  Rx         0020  5  0A 00 11 1A 01 
   740)       588.5  Rx         0023  5  00 00 00 00 00 
   741)       588.8  Rx         0021  5  00 00 00 00 00 
   742)       590.0  Rx         0021  5  00 00 00 00 00 
   743)       590.5  Rx         0020  5  0A 00 10 1A 03 
   744)       594.0  Rx         0020  5  0A 00 10 1A 01 
   745)       594.2  Rx         0022  5  0B 00 0B 1E 01 
   746)       594.7  Rx         0021  5  00 00 00 00 00 
   747)       594.9  Rx         0023  5  00 00 00 00 00 
   748)       597.0  Rx         0021  5  00 00 00 00 00 
   749)       597.2  Rx         0023  5  00 00 00 00 00 
   750)       597.7  Rx         0020  5  0A 00 0F 1A 01 
   751)       597.8  Rx         0022  5  0B 00 0B 1E 01 
   752)       598.1  Rx         0022  5  0B 00 0B 1C 00 
   753)       598.3  Rx         0021  5  00 00 00 00 00 
   754)       598.5  Rx         0023  5  00 00 00 00 00 
   755)       600.7  Rx         0021  5  00 00 00 00 00 
   756)       601.9  Rx         0021  5  00 00 00 00 00 
   757)       602.1  Rx         0026  6  60 0B 7C 7E 8E 2F 
   758)       602.6  Rx         0020  5  0A 00 0E 1A 01 
   759)       602.7  Rx         0022  5  0B 00 0B 1E 01 
   760)       604.9  Rx         0020  5  0A 00 0D 1A 03 
   761)       605.1  Rx         0022  5  0B 00 0B 1E 01 
   762)       605.6  Rx         0021  5  00 00 00 00 00 
   763)       605.8  Rx         0023  5  00 00 00 00 00 
   764)       607.9  Rx         0021  5  00 00 00 00 00 
   765)       608.1  Rx         0023  5  00 00 00 00 00 
   766)       612.5  Rx         0026  6  3E 0B 7C 7E 8E 2F 
   767)       612.6  Rx         0021  5  00 00 00 00 00 
   768)       613.1  Rx         0022  5  0B 00 0B 1E 01 
   769)       613.2  Rx         0020  5  0A 00 0C 1A 01 
   770)       613.7  Rx         0023  5  00 00 00 00 00 
   771)       613.8  Rx         0021  5  00 00 00 00 00 
   772)       614.1  Rx         0022  5  0B 00 0B 1E 01 
   773)       614.5  Rx         0020  5  0A 00 0C 1A 01 
   774)       614.8  Rx         0023  5  00 00 00 00 00 
   775)       615.2  Rx         0021  5  00 00 00 00 00 
   776)       615.4  Rx         0022  5  0B 00 0B 1E 01 
   777)       615.7  Rx         0020  5  0A 00 0B 1A 03 
   778)       616.0  Rx         0023  5  00 00 00 00 00 
   779)       616.4  Rx         0021  5  00 00 00 00 00 
   780)       616.6  Rx         0022  5  0B 00 0B 1E 01 
   781)       617.0  Rx         0020  5  0A 00 0B 1A 03 
   782)       617.2  Rx         0023  5  00 00 00 00 00 
   783)       617.6  Rx         0021  5  00 00 00 00 00 
   784)       617.8  Rx         0022  5  0B 00 0B 1E 01 
   785)       618.2  Rx         0020  5  0A 00 0B 1A 03 
   786)       618.4  Rx         0023  5  00 00 00 00 00 
   787)       618.8  Rx         0021  5  00 00 00 00 00 
   788)       619.0  Rx         0022  5  0B 00 0B 1E 01 
   789)       619.4  Rx         0020  5  0A 00 0B 1A 01 
   790)       619.6  Rx         0023  5  00 00 00 00 00 
   791)       620.0  Rx         0021  5  00 00 00 00 00 
   792)       620.2  Rx         0022  5  0B 00 0B 1E 01 
   793)       620.6  Rx         0020  5  0A 00 0A 1A 03 
   794)       620.8  Rx         0023  5  00 00 00 00 00 
   795)       621.2  Rx         0021  5  00 00 00 00 00 
   796)       623.0  Rx         0020  5  0A 00 0A 1A 01 
   797)       623.1  Rx         0022  5  0B 00 0B 1E 01 
   798)       623.5  Rx         0021  5  00 00 00 00 00 
   799)       623.6  Rx         0023  5  00 00 00 00 00 
   800)       623.9  Rx         0020  5  0A 00 0A 1A 01 
   801)       624.1  Rx         0022  5  0B 00 0B 1E 01 
   802)       624.5  Rx         0021  5  00 00 00 00 00 
   803)       624.7  Rx         0023  5  00 00 00 00 00 
   804)       625.2  Rx         0020  5  0A 00 0A 1A 01 
   805)       625.3  Rx         0022  5  0B 00 0B 1E 01 
   806)       625.8  Rx         0021  5  00 00 00 00 00 
   807)       625.9  Rx         0023  5  00 00 00 00 00 
   808)       626.4  Rx         0020  5  0A 00 09 1A 03 
   809)       626.5  Rx         0022  5  0B 00 0B 1E 01 
   810)       626.9  Rx         0021  5  00 00 00 00 00 
   811)       627.0  Rx         0023  5  00 00 00 00 00 
   812)       627.3  Rx         0020  5  0A 00 09 1A 03 
   813)       627.6  Rx         0022  5  0B 00 0B 1E 01 
   814)       627.9  Rx         0021  5  00 00 00 00 00 
   815)       628.1  Rx         0023  5  00 00 00 00 00 
   816)       628.4  Rx         0020  5  0A 00 09 1A 03 
   817)       628.6  Rx         0022  5  0B 00 0B 1E 01 
   818)       628.9  Rx         0021  5  00 00 00 00 00 
   819)       629.1  Rx         0023  5  00 00 00 00 00 
   820)       629.4  Rx         0020  5  0A 00 09 1A 01 
   821)       629.6  Rx         0022  5  0B 00 0B 1E 01 
   822)       630.0  Rx         0021  5  00 00 00 00 00 
   823)       630.2  Rx         0023  5  00 00 00 00 00 
   824)       630.6  Rx         0020  5  0A 00 09 1A 01 
   825)       630.8  Rx         0022  5  0B 00 0B 1E 01 
   826)       631.2  Rx         0021  5  00 00 00 00 00 
   827)       631.4  Rx         0023  5  00 00 00 00 00 
   828)       631.8  Rx         0020  5  0A 00 08 1A 03 
   829)       631.9  Rx         0022  5  0B 00 0B 1E 01 
   830)       632.4  Rx         0021  5  00 00 00 00 00 
   831)       632.5  Rx         0023  5  00 00 00 00 00 
   832)       633.0  Rx         0020  5  0A 00 08 1A 03 
   833)       635.3  Rx         0020  5  0A 00 08 1A 03 
   834)       635.5  Rx         0022  5  0B 00 0B 1E 01 
   835)       636.0  Rx         0021  5  00 00 00 00 00 
   836)       636.1  Rx         0023  5  00 00 00 00 00 
   837)       636.6  Rx         0020  5  0A 00 08 1A 03 
   838)       636.8  Rx         0022  5  0B 00 0B 1E 01 
   839)       637.2  Rx         0021  5  00 00 00 00 00 
   840)       637.5  Rx         0023  5  00 00 00 00 00 
   841)       637.9  Rx         0020  5  0A 00 08 1A 01 
   842)       638.1  Rx         0022  5  0B 00 0B 1E 01 
   843)       638.5  Rx         0021  5  00 00 00 00 00 
   844)       638.7  Rx         0023  5  00 00 00 00 00 
   845)       639.1  Rx         0020  5  0A 00 08 1A 01 
   846)       639.3  Rx         0022  5  0B 00 0B 1E 01 
   847)       639.7  Rx         0021  5  00 00 00 00 00 
   848)       639.9  Rx         0023  5  00 00 00 00 00 
   849)       640.3  Rx         0020  5  0A 00 08 1A 01 
   850)       640.5  Rx         0022  5  0B 00 0B 1E 01 
   851)       640.9  Rx         0021  5  00 00 00 00 00 
   852)       641.1  Rx         0023  5  00 00 00 00 00 
   853)       641.5  Rx         0020  5  0A 00 07 1A 03 
   854)       641.8  Rx         0022  5  0B 00 0B 1E 01 
   855)       642.2  Rx         0021  5  00 00 00 00 00 
   856)       642.4  Rx         0023  5  00 00 00 00 00 
   857)       642.9  Rx         0020  5  0A 00 07 1A 03 
   858)       643.0  Rx         0022  5  0B 00 0B 1E 01 
   859)       643.5  Rx         0021  5  00 00 00 00 00 
   860)       643.7  Rx         0023  5  00 00 00 00 00 
   861)       644.1  Rx         0020  5  0A 00 07 1A 03 
   862)       655.4  Rx         0021  5  00 00 00 00 00 
   863)       655.8  Rx         0026  6  EE 0A 9E 7E 77 2F 
   864)       656.0  Rx         0020  5  0A 00 06 1A 03 
   865)       656.4  Rx         0022  5  0B 00 0B 1E 01 
   866)       656.6  Rx         0021  5  00 00 00 00 00 
   867)       657.0  Rx         0023  5  00 00 00 00 00 
   868)       657.2  Rx         0020  5  0A 00 06 1A 03 
   869)       663.4  Rx         0022  5  0B 00 0B 1E 01 
   870)       663.9  Rx         0021  5  00 00 00 00 00 
   871)       664.1  Rx         0023  5  00 00 00 00 00 
   872)       666.3  Rx         0021  5  00 00 00 00 00 
   873)       667.9  Rx         0026  6  D8 0A 9E 7E 77 2F 
   874)       668.1  Rx         0020  5  0A 00 06 1A 01 
   875)       668.5  Rx         0022  5  0B 00 0B 1E 01 
   876)       668.8  Rx         0021  5  00 00 00 00 00 
   877)       669.2  Rx         0023  5  00 00 00 00 00 
   878)       669.4  Rx         0020  5  0A 00 06 1A 01 
   879)       673.3  Rx         0022  5  0B 00 0B 1E 01 
   880)       673.5  Rx         0021  5  00 00 00 00 00 
   881)       673.8  Rx         0023  5  00 00 00 00 00 
   882)       674.0  Rx         0020  5  0A 00 06 1A 01 
   883)       674.3  Rx         0022  5  0B 00 0B 1E 01 
   884)       674.6  Rx         0021  5  00 00 00 00 00 
   885)       674.8  Rx         0023  5  00 00 00 00 00 
   886)       675.2  Rx         0020  5  0A 00 06 1A 01 
   887)       675.4  Rx         0022  5  0B 00 0B 1E 01 
   888)       675.8  Rx         0021  5  00 00 00 00 00 
   889)       676.0  Rx         0023  5  00 00 00 00 00 
   890)       676.4  Rx         0020  5  0A 00 06 1A 01 
   891)       676.6  Rx         0022  5  0B 00 0B 1E 01 
   892)       677.1  Rx         0021  5  00 00 00 00 00 
   893)       677.2  Rx         0023  5  00 00 00 00 00 
   894)       677.7  Rx         0020  5  0A 00 06 1A 01 
   895)       678.8  Rx         0020  5  0A 00 06 1A 01 
   896)       679.3  Rx         0021  5  00 00 00 00 00 
   897)       679.7  Rx         0026  6  CC 0A AA 7E 6B 2F 
   898)       679.9  Rx         0020  5  0A 00 06 1A 01 
   899)       680.3  Rx         0022  5  0B 00 0B 1E 01 
   900)       680.5  Rx         0021  5  00 00 00 00 00 
   901)       680.9  Rx         0023  5  00 00 00 00 00 
   902)       681.1  Rx         0020  5  0A 00 06 1A 01 
   903)       681.5  Rx         0022  5  0B 00 0B 1E 01 
   904)       681.7  Rx         0021  5  00 00 00 00 00 
   905)       682.1  Rx         0023  5  00 00 00 00 00 
   906)       682.3  Rx         0020  5  0A 00 06 1A 01 
   907)       682.7  Rx         0022  5  0B 00 0B 1E 01 
   908)       682.9  Rx         0021  5  00 00 00 00 00 
   909)       683.3  Rx         0023  5  00 00 00 00 00 
   910)       683.5  Rx         0020  5  0A 00 06 1A 01 
   911)       683.9  Rx         0022  5  0B 00 0B 1E 01 
   912)       684.1  Rx         0021  5  00 00 00 00 00 
   913)       684.5  Rx         0023  5  00 00 00 00 00 
   914)       684.7  Rx         0020  5  0A 00 06 1A 01 
   915)       685.1  Rx         0022  5  0B 00 0B 1E 01 
   916)       685.3  Rx         0021  5  00 00 00 00 00 
   917)       685.7  Rx         0023  5  00 00 00 00 00 
   918)       685.9  Rx         0020  5  0A 00 06 1A 01 
   919)       686.3  Rx         0022  5  0B 00 0B 1E 01 
   920)       686.5  Rx         0021  5  00 00 00 00 00 
   921)       687.0  Rx         0023  5  00 00 00 00 00 
   922)       687.1  Rx         0020  5  0A 00 06 1A 01 
   923)       687.6  Rx         0022  5  0B 00 0B 1E 01 
   924)       687.7  Rx         0021  5  00 00 00 00 00 
   925)       688.2  Rx         0023  5  00 00 00 00 00 
   926)       688.3  Rx         0020  5  0A 00 06 1A 01 
   927)       690.1  Rx         0021  5  00 00 00 00 00 
   928)       690.6  Rx         0020  5  0A 00 06 1A 01 
   929)       690.8  Rx         0026  6  B6 0A B5 7E 6B 2F 
   930)       691.3  Rx         0021  5  00 00 00 00 00 
   931)       691.4  Rx         0022  5  0B 00 0B 1E 01 
   932)       691.9  Rx         0020  5  0A 00 06 1A 01 
   933)       692.0  Rx         0023  5  00 00 00 00 00 
   934)       700.7  Rx         0021  5  00 00 00 00 00 
   935)       704.3  Rx         0021  5  00 00 00 00 00 
   936)       704.4  Rx         0022  5  0B 00 0B 1E 01 
   937)       704.9  Rx         0020  5  0A 00 06 1A 01 
   938)       705.1  Rx         0023  5  00 00 00 00 00 
   939)       708.4  Rx         0020  5  0A 00 06 1A 01 
   940)       708.6  Rx         0023  5  00 00 00 00 00 
   941)       710.8  Rx         0020  5  0A 00 06 1A 01 
   942)       711.9  Rx         0020  5  0A 00 06 1A 01 
   943)       712.1  Rx         0026  6  9F 0A B5 7E 60 2F 
   944)       712.6  Rx         0021  5  00 00 00 00 00 
   945)       712.8  Rx         0022  5  0B 00 0B 1E 01 
   946)       713.2  Rx         0020  5  0A 00 06 1A 01 
   947)       713.4  Rx         0023  5  00 00 00 00 00 
   948)       713.9  Rx         0021  5  00 00 00 00 00 
   949)       714.0  Rx         0022  5  0B 00 0B 1E 01 
   950)       717.4  Rx         0021  5  00 00 00 00 00 
   951)       717.6  Rx         0022  5  0B 00 0B 1E 01 
   952)       718.0  Rx         0020  5  0A 00 06 1A 03 
   953)       718.2  Rx         0023  5  00 00 00 00 00 
   954)       721.6  Rx         0020  5  0A 00 07 1A 01 
   955)       725.1  Rx         0020  5  0A 00 07 1A 01 
   956)       725.3  Rx         0022  5  0B 00 0B 1E 01 
   957)       725.8  Rx         0021  5  00 00 00 00 00 
   958)       726.0  Rx         0023  5  00 00 00 00 00 
   959)       732.9  Rx         0021  5  00 00 00 00 00 
   960)       734.6  Rx         0020  5  0A 00 07 1A 03 
   961)       734.9  Rx         0023  5  00 00 00 00 00 
   962)       738.2  Rx         0020  5  0A 00 08 1A 01 
   963)       738.4  Rx         0023  5  00 00 00 00 00 
   964)       738.8  Rx         0021  5  00 00 00 00 00 
   965)       739.0  Rx         0022  5  0B 00 0A 1E 03 
   966)       744.2  Rx         0020  5  0A 00 08 1A 03 
   967)       747.8  Rx         0020  5  0A 00 08 1A 03 
   968)       747.9  Rx         0022  5  0B 00 0A 1E 01 
   969)       748.4  Rx         0021  5  00 00 00 00 00 
   970)       748.6  Rx         0023  5  00 00 00 00 00 
   971)       753.7  Rx         0020  5  0A 00 09 1A 01 
   972)       753.9  Rx         0022  5  0B 00 0A 1E 01 
   973)       754.4  Rx         0021  5  00 00 00 00 00 
   974)       754.6  Rx         0023  5  00 00 00 00 00 
   975)       755.5  Rx         0021  5  00 00 00 00 00 
   976)       756.6  Rx         0021  5  00 00 00 00 00 
   977)       757.2  Rx         0026  6  93 0A C0 7E 60 2F 
   978)       757.3  Rx         0020  5  0A 00 09 1A 03 
   979)       763.0  Rx         0023  5  00 00 00 00 00 
   980)       763.4  Rx         0020  5  0A 00 09 1A 03 
   981)       763.6  Rx         0022  5  0B 00 0A 1E 01 
   982)       765.8  Rx         0020  5  0A 00 09 1A 03 
   983)       767.6  Rx         0021  5  00 00 00 00 00 
   984)       768.1  Rx         0026  6  93 0A C0 7E 60 2F 
   985)       768.2  Rx         0020  5  0A 00 09 1A 03 
   986)       768.7  Rx         0022  5  0B 00 09 1E 03 
   987)       768.9  Rx         0021  5  00 00 00 00 00 
   988)       774.5  Rx         0022  5  0B 00 09 1E 03 
   989)       775.0  Rx         0021  5  00 00 00 00 00 
   990)       775.2  Rx         0023  5  00 00 00 00 00 
   991)       777.4  Rx         0021  5  00 00 00 00 00 
   992)       777.6  Rx         0023  5  00 00 00 00 00 
   993)       778.1  Rx         0020  5  0A 00 0A 1A 01 
   994)       779.3  Rx         0020  5  0A 00 0A 1A 01 
   995)       779.8  Rx         0021  5  00 00 00 00 00 
   996)       781.6  Rx         0020  5  0A 00 0A 1A 01 
   997)       781.8  Rx         0023  5  00 00 00 00 00 
   998)       783.9  Rx         0020  5  0A 00 0A 1A 01 
   999)       784.2  Rx         0023  5  00 00 00 00 00 
  1000)       784.6  Rx         0021  5  00 00 00 00 00 
  1001)       784.8  Rx         0022  5  0B 00 09 1E 03 
  1002)       786.9  Rx         0021  5  00 00 00 00 00 
  1003)       787.1  Rx         0022  5  0B 00 09 1E 03 
  1004)       787.6  Rx         0020  5  0A 00 0A 1A 01 
  1005)       787.8  Rx         0023  5  00 00 00 00 00 
  1006)       788.8  Rx         0020  5  0A 00 0A 1A 01 
  1007)       789.9  Rx         0020  5  0A 00 0A 1A 01 
  1008)       790.4  Rx         0026  6  88 0A C0 7E 60 2F 
  1009)       790.6  Rx         0021  5  00 00 00 00 00 
  1010)       790.9  Rx         0022  5  0B 00 09 1E 03 
  1011)       791.1  Rx         0020  5  0A 00 0A 1A 01 
  1012)       791.5  Rx         0023  5  00 00 00 00 00 
  1013)       791.7  Rx         0021  5  00 00 00 00 00 
  1014)       792.1  Rx         0022  5  0B 00 09 1E 03 
  1015)       792.3  Rx         0020  5  0A 00 0A 1A 01 
  1016)       792.7  Rx         0023  5  00 00 00 00 00 
  1017)       792.9  Rx         0021  5  00 00 00 00 00 
  1018)       793.3  Rx         0022  5  0B 00 09 1E 03 
  1019)       793.5  Rx         0020  5  0A 00 0A 1A 01 
  1020)       793.9  Rx         0023  5  00 00 00 00 00 
  1021)       794.1  Rx         0021  5  00 00 00 00 00 
  1022)       794.5  Rx         0022  5  0B 00 09 1E 03 
  1023)       794.7  Rx         0020  5  0A 00 0A 1A 01 
  1024)       795.1  Rx         0023  5  00 00 00 00 00 
  1025)       795.3  Rx         0021  5  00 00 00 00 00 
  1026)       795.7  Rx         0022  5  0B 00 09 1E 03 
  1027)       795.9  Rx         0020  5  0A 00 0A 1A 01 
  1028)       796.3  Rx         0023  5  00 00 00 00 00 
  1029)       796.5  Rx         0021  5  00 00 00 00 00 
  1030)       796.9  Rx         0022  5  0B 00 09 1E 03 
  1031)       797.1  Rx         0020  5  0A 00 0A 1A 01 
  1032)       797.5  Rx         0023  5  00 00 00 00 00 
  1033)       797.7  Rx         0021  5  00 00 00 00 00 
  1034)       798.1  Rx         0022  5  0B 00 09 1E 03 
  1035)       798.3  Rx         0020  5  0A 00 0A 1A 01 
  1036)       798.7  Rx         0023  5  00 00 00 00 00 
  1037)       799.0  Rx         0021  5  00 00 00 00 00 
  1038)       799.5  Rx         0020  5  0A 00 0A 1A 01 
  1039)       800.0  Rx         0021  5  00 00 00 00 00 
  1040)       800.5  Rx         0020  5  0A 00 0A 1A 01 
  1041)       801.0  Rx         0021  5  00 00 00 00 00 
  1042)       801.3  Rx         0026  6  88 0A C0 7E 60 2F 
  1043)       801.5  Rx         0020  5  0A 00 0A 1A 01 
  1044)       801.8  Rx         0022  5  0B 00 09 1E 03 
  1045)       802.0  Rx         0021  5  00 00 00 00 00 
  1046)       802.2  Rx         0023  5  00 00 00 00 00 
  1047)       802.7  Rx         0020  5  0A 00 0A 1A 01 
  1048)       802.9  Rx         0022  5  0B 00 09 1E 03 
  1049)       803.3  Rx         0021  5  00 00 00 00 00 
  1050)       803.5  Rx         0023  5  00 00 00 00 00 
  1051)       804.0  Rx         0020  5  0A 00 0A 1A 01 
  1052)       804.2  Rx         0022  5  0B 00 09 1E 03 
  1053)       804.6  Rx         0021  5  00 00 00 00 00 
  1054)       804.8  Rx         0023  5  00 00 00 00 00 
  1055)       805.3  Rx         0020  5  0A 00 0A 1A 01 
  1056)       805.4  Rx         0022  5  0B 00 09 1E 03 
  1057)       805.9  Rx         0021  5  00 00 00 00 00 
  1058)       806.1  Rx         0023  5  00 00 00 00 00 
  1059)       806.5  Rx         0020  5  0A 00 0A 1A 01 
  1060)       806.7  Rx         0022  5  0B 00 09 1E 03 
  1061)       807.2  Rx         0021  5  00 00 00 00 00 
  1062)       807.4  Rx         0023  5  00 00 00 00 00 
  1063)       807.8  Rx         0020  5  0A 00 0A 1A 01 
  1064)       808.0  Rx         0022  5  0B 00 09 1E 03 
  1065)       808.5  Rx         0021  5  00 00 00 00 00 
  1066)       808.7  Rx         0023  5  00 00 00 00 00 
  1067)       809.1  Rx         0020  5  0A 00 0A 1A 01 
  1068)       809.3  Rx         0022  5  0B 00 09 1E 03 
  1069)       809.7  Rx         0021  5  00 00 00 00 00 
  1070)       810.0  Rx         0023  5  00 00 00 00 00 
  1071)       810.4  Rx         0020  5  0A 00 0A 1A 01 
  1072)       822.2  Rx         0020  5  0A 00 0A 1A 01 
  1073)       824.3  Rx         0023  5  00 00 00 00 00 
  1074)       824.5  Rx         0020  5  0A 00 0A 1A 01 
  1075)       825.0  Rx         0022  5  0B 00 09 1E 03 
  1076)       825.2  Rx         0021  5  00 00 00 00 00 
  1077)       828.5  Rx         0022  5  0B 00 09 1E 03 
  1078)       828.7  Rx         0021  5  00 00 00 00 00 
  1079)       829.1  Rx         0023  5  00 00 00 00 00 
  1080)       829.4  Rx         0020  5  0A 00 0A 1A 01 
  1081)       832.7  Rx         0020  5  0A 00 0A 1A 01 
  1082)       836.3  Rx         0020  5  0A 00 0A 1A 03 
  1083)       836.4  Rx         0022  5  0B 00 09 1E 03 
  1084)       836.9  Rx         0021  5  00 00 00 00 00 
  1085)       837.1  Rx         0023  5  00 00 00 00 00 
  1086)       839.3  Rx         0021  5  00 00 00 00 00 
  1087)       839.4  Rx         0023  5  00 00 00 00 00 
  1088)       843.4  Rx         0020  5  0A 00 0B 1A 01 
  1089)       844.5  Rx         0020  5  0A 00 0B 1A 01 
  1090)       844.8  Rx         0026  6  B6 0A AA 7E 49 2F 
  1091)       845.1  Rx         0021  5  00 00 00 00 00 
  1092)       845.4  Rx         0022  5  0B 00 09 1E 03 
  1093)       845.7  Rx         0020  5  0A 00 0B 1A 03 
  1094)       846.0  Rx         0023  5  00 00 00 00 00 
  1095)       846.3  Rx         0021  5  00 00 00 00 00 
  1096)       846.5  Rx         0022  5  0B 00 09 1E 03 
  1097)       852.8  Rx         0020  5  0A 00 0C 1A 01 
  1098)       853.0  Rx         0023  5  00 00 00 00 00 
  1099)       855.1  Rx         0020  5  0A 00 0C 1A 03 
  1100)       857.0  Rx         0021  5  00 00 00 00 00 
  1101)       857.1  Rx         0022  5  0B 00 09 1E 03 
  1102)       857.6  Rx         0020  5  0A 00 0C 1A 03 
  1103)       857.8  Rx         0023  5  00 00 00 00 00 
  1104)       858.2  Rx         0021  5  00 00 00 00 00 
  1105)       858.4  Rx         0022  5  0B 00 09 1E 03 
  1106)       864.1  Rx         0021  5  00 00 00 00 00 
  1107)       864.3  Rx         0022  5  0B 00 09 1E 03 
  1108)       864.7  Rx         0020  5  0A 00 0D 1A 03 
  1109)       864.9  Rx         0023  5  00 00 00 00 00 
  1110)       865.9  Rx         0020  5  0A 00 0D 1A 03 
  1111)       867.0  Rx         0020  5  0A 00 0D 1A 03 
  1112)       867.5  Rx         0026  6  E3 0A 93 7E 49 2F 
  1113)       867.7  Rx         0021  5  00 00 00 00 00 
  1114)       869.8  Rx         0023  5  00 00 00 00 00 
  1115)       870.2  Rx         0021  5  00 00 00 00 00 
  1116)       870.4  Rx         0022  5  0B 00 09 1E 03 
  1117)       874.3  Rx         0020  5  0A 00 0E 1A 03 
  1118)       874.5  Rx         0023  5  00 00 00 00 00 
  1119)       875.0  Rx         0021  5  00 00 00 00 00 
  1120)       875.2  Rx         0022  5  0B 00 09 1E 03 
  1121)       876.1  Rx         0021  5  00 00 00 00 00 
  1122)       876.7  Rx         0020  5  0A 00 0E 1A 03 
  1123)       877.1  Rx         0021  5  00 00 00 00 00 
  1124)       877.6  Rx         0020  5  0A 00 0F 1A 01 
  1125)       878.9  Rx         0020  5  0A 00 0F 1A 03 
  1126)       879.0  Rx         0022  5  0B 00 09 1E 03 
  1127)       879.4  Rx         0021  5  00 00 00 00 00 
  1128)       879.6  Rx         0023  5  00 00 00 00 00 
  1129)       879.9  Rx         0020  5  0A 00 0F 1A 03 
  1130)       880.1  Rx         0022  5  0B 00 09 1E 03 
  1131)       880.5  Rx         0021  5  00 00 00 00 00 
  1132)       880.7  Rx         0023  5  00 00 00 00 00 
  1133)       881.0  Rx         0020  5  0A 00 0F 1A 03 
  1134)       881.3  Rx         0022  5  0B 00 09 1E 03 
  1135)       881.7  Rx         0021  5  00 00 00 00 00 
  1136)       881.9  Rx         0023  5  00 00 00 00 00 
  1137)       882.2  Rx         0020  5  0A 00 0F 1A 03 
  1138)       882.5  Rx         0022  5  0B 00 09 1E 03 
  1139)       882.9  Rx         0021  5  00 00 00 00 00 
  1140)       883.1  Rx         0023  5  00 00 00 00 00 
  1141)       883.5  Rx         0020  5  0A 00 0F 1A 03 
  1142)       883.7  Rx         0022  5  0B 00 09 1E 03 
  1143)       884.1  Rx         0021  5  00 00 00 00 00 
  1144)       884.2  Rx         0023  5  00 00 00 00 00 
  1145)       884.7  Rx         0020  5  0A 00 10 1A 01 
  1146)       884.8  Rx         0022  5  0B 00 09 1E 03 
  1147)       885.3  Rx         0021  5  00 00 00 00 00 
  1148)       885.4  Rx         0023  5  00 00 00 00 00 
  1149)       885.9  Rx         0020  5  0A 00 10 1A 03 
  1150)       886.0  Rx         0022  5  0B 00 09 1E 03 
  1151)       886.5  Rx         0021  5  00 00 00 00 00 
  1152)       886.7  Rx         0023  5  00 00 00 00 00 
  1153)       887.1  Rx         0020  5  0A 00 10 1A 03 
  1154)       894.1  Rx         0020  5  0A 00 11 1A 01 
  1155)       894.3  Rx         0022  5  0B 00 09 1E 03 
  1156)       894.7  Rx         0021  5  00 00 00 00 00 
  1157)       894.9  Rx         0023  5  00 00 00 00 00 
  1158)       898.2  Rx         0021  5  00 00 00 00 00 
  1159)       899.9  Rx         0026  6  55 0B 65 7E 49 2F 
  1160)       900.1  Rx         0020  5  0A 00 12 1A 01 
  1161)       900.5  Rx         0022  5  0B 00 09 1E 03 
  1162)       900.7  Rx         0021  5  00 00 00 00 00 
  1163)       904.0  Rx         0022  5  0B 00 09 1E 03 
  1164)       904.2  Rx         0021  5  00 00 00 00 00 
  1165)       904.7  Rx         0023  5  00 00 00 00 00 
  1166)       904.9  Rx         0020  5  0A 00 13 1A 01 
  1167)       908.2  Rx         0023  5  00 00 00 00 00 
  1168)       908.4  Rx         0020  5  0A 00 13 1A 01 
  1169)       908.6  Rx         0022  5  0B 00 09 1E 03 
  1170)       908.9  Rx         0021  5  00 00 00 00 00 
  1171)       909.2  Rx         0023  5  00 00 00 00 00 
  1172)       909.5  Rx         0020  5  0A 00 13 1A 01 
  1173)       910.7  Rx         0020  5  0A 00 13 1A 03 
  1174)       911.2  Rx         0021  5  00 00 00 00 00 
  1175)       914.7  Rx         0021  5  00 00 00 00 00 
  1176)       914.9  Rx         0022  5  0B 00 09 1E 03 
  1177)       915.3  Rx         0020  5  0A 00 14 1A 03 
  1178)       915.6  Rx         0023  5  00 00 00 00 00 
  1179)       918.9  Rx         0020  5  0A 00 14 1A 03 
  1180)       919.1  Rx         0023  5  00 00 00 00 00 
  1181)       919.6  Rx         0021  5  00 00 00 00 00 
  1182)       920.8  Rx         0021  5  00 00 00 00 00 
  1183)       921.3  Rx         0020  5  0A 00 15 1A 01 
  1184)       924.6  Rx         0020  5  0A 00 15 1A 03 
  1185)       924.8  Rx         0022  5  0B 00 09 1E 03 
  1186)       925.3  Rx         0021  5  00 00 00 00 00 
  1187)       925.5  Rx         0023  5  00 00 00 00 00 
  1188)       927.6  Rx         0021  5  00 00 00 00 00 
  1189)       927.8  Rx         0023  5  00 00 00 00 00 
  1190)       928.3  Rx         0020  5  0A 00 16 1A 01 
  1191)       928.5  Rx         0022  5  0B 00 09 1E 03 
  1192)       931.2  Rx         0021  5  00 00 00 00 00 
  1193)       934.1  Rx         0020  5  0A 00 17 1A 01 
  1194)       934.3  Rx         0023  5  00 00 00 00 00 
  1195)       936.4  Rx         0020  5  0A 00 17 1A 03 
  1196)       936.7  Rx         0023  5  00 00 00 00 00 
  1197)       937.1  Rx         0021  5  00 00 00 00 00 
  1198)       937.3  Rx         0022  5  0B 00 09 1E 03 
  1199)       939.4  Rx         0021  5  00 00 00 00 00 
  1200)       939.6  Rx         0022  5  0B 00 09 1E 03 
  1201)       942.4  Rx         0020  5  0A 00 18 1A 01 
  1202)       943.5  Rx         0020  5  0A 00 18 1A 03 
  1203)       943.7  Rx         0022  5  0B 00 09 1E 03 
  1204)       945.9  Rx         0020  5  0A 00 19 1A 01 
  1205)       946.0  Rx         0022  5  0B 00 09 1E 03 
  1206)       946.5  Rx         0021  5  00 00 00 00 00 
  1207)       946.7  Rx         0023  5  00 00 00 00 00 
  1208)       948.9  Rx         0021  5  00 00 00 00 00 
  1209)       949.0  Rx         0023  5  00 00 00 00 00 
  1210)       949.5  Rx         0020  5  0A 00 19 1A 03 
  1211)       949.7  Rx         0022  5  0B 00 09 1E 03 
  1212)       953.6  Rx         0021  5  00 00 00 00 00 
  1213)       955.8  Rx         0023  5  00 00 00 00 00 
  1214)       956.0  Rx         0021  5  00 00 00 00 00 
  1215)       956.4  Rx         0022  5  0B 00 09 1E 03 
  1216)       956.6  Rx         0020  5  0A 00 1B 1A 01 
  1217)       958.8  Rx         0022  5  0B 00 09 1E 03 
  1218)       959.2  Rx         0020  5  0A 00 1B 1A 01 
  1219)       959.4  Rx         0023  5  00 00 00 00 00 
  1220)       963.4  Rx         0021  5  00 00 00 00 00 
  1221)       964.6  Rx         0021  5  00 00 00 00 00 
  1222)       964.8  Rx         0026  6  B5 0C F4 7D 60 2F 
  1223)       965.1  Rx         0020  5  0A 00 1C 1A 03 
  1224)       965.3  Rx         0022  5  0B 00 09 1E 03 
  1225)       965.7  Rx         0021  5  00 00 00 00 00 
  1226)       965.9  Rx         0023  5  00 00 00 00 00 
  1227)       966.3  Rx         0020  5  0A 00 1C 1A 03 
  1228)       966.5  Rx         0022  5  0B 00 09 1E 03 
  1229)       966.9  Rx         0021  5  00 00 00 00 00 
  1230)       967.1  Rx         0023  5  00 00 00 00 00 
  1231)       967.5  Rx         0020  5  0A 00 1D 1A 01 
  1232)       967.7  Rx         0022  5  0B 00 09 1E 03 
  1233)       968.1  Rx         0021  5  00 00 00 00 00 
  1234)       968.3  Rx         0023  5  00 00 00 00 00 
  1235)       968.7  Rx         0020  5  0A 00 1D 1A 01 
  1236)       968.9  Rx         0022  5  0B 00 09 1E 03 
  1237)       969.3  Rx         0021  5  00 00 00 00 00 
  1238)       969.5  Rx         0023  5  00 00 00 00 00 
  1239)       969.9  Rx         0020  5  0A 00 1D 1A 03 
  1240)       970.1  Rx         0022  5  0B 00 09 1E 03 
  1241)       970.6  Rx         0021  5  00 00 00 00 00 
  1242)       970.7  Rx         0023  5  00 00 00 00 00 
  1243)       971.2  Rx         0020  5  0A 00 1D 1A 03 
  1244)       971.3  Rx         0022  5  0B 00 09 1E 03 
  1245)       971.8  Rx         0021  5  00 00 00 00 00 
  1246)       971.9  Rx         0023  5  00 00 00 00 00 
  1247)       972.4  Rx         0020  5  0A 00 1E 1A 01 
  1248)       972.5  Rx         0022  5  0B 00 09 1E 03 
  1249)       973.0  Rx         0021  5  00 00 00 00 00 
  1250)       973.2  Rx         0023  5  00 00 00 00 00 
  1251)       973.6  Rx         0020  5  0A 00 1E 1A 01 
  1252)       973.8  Rx         0022  5  0B 00 09 1E 03 
  1253)       974.1  Rx         0021  5  00 00 00 00 00 
  1254)       974.4  Rx         0023  5  00 00 00 00 00 
  1255)       974.8  Rx         0020  5  0A 00 1E 1A 01 
  1256)       976.5  Rx         0021  5  00 00 00 00 00 
  1257)       976.9  Rx         0026  6  FA 0C E8 7D 60 2F 
  1258)       977.1  Rx         0020  5  0A 00 1F 1A 01 
  1259)       977.5  Rx         0022  5  0B 00 09 1E 03 
  1260)       977.7  Rx         0021  5  00 00 00 00 00 
  1261)       978.1  Rx         0023  5  00 00 00 00 00 
  1262)       978.3  Rx         0020  5  0A 00 1F 1A 01 
  1263)       978.7  Rx         0022  5  0B 00 09 1E 03 
  1264)       978.9  Rx         0021  5  00 00 00 00 00 
  1265)       979.3  Rx         0023  5  00 00 00 00 00 
  1266)       979.5  Rx         0020  5  0A 00 1F 1A 01 
  1267)       979.9  Rx         0022  5  0B 00 09 1E 03 
  1268)       980.1  Rx         0021  5  00 00 00 00 00 
  1269)       980.5  Rx         0023  5  00 00 00 00 00 
  1270)       980.7  Rx         0020  5  0A 00 1F 1A 01 
  1271)       981.0  Rx         0022  5  0B 00 09 1E 03 
  1272)       981.2  Rx         0021  5  00 00 00 00 00 
  1273)       981.4  Rx         0023  5  00 00 00 00 00 
  1274)       981.7  Rx         0020  5  0A 00 1F 1A 01 
  1275)       981.9  Rx         0022  5  0B 00 09 1E 03 
  1276)       982.2  Rx         0021  5  00 00 00 00 00 
  1277)       982.4  Rx         0023  5  00 00 00 00 00 
  1278)       982.7  Rx         0020  5  0A 00 1F 1A 03 
  1279)       982.9  Rx         0022  5  0B 00 09 1E 03 
  1280)       983.4  Rx         0021  5  00 00 00 00 00 
  1281)       983.6  Rx         0023  5  00 00 00 00 00 
  1282)       984.1  Rx         0020  5  0A 00 20 1A 01 
  1283)       984.3  Rx         0022  5  0B 00 09 1E 03 
  1284)       984.7  Rx         0021  5  00 00 00 00 00 
  1285)       984.9  Rx         0023  5  00 00 00 00 00 
  1286)       985.4  Rx         0020  5  0A 00 20 1A 03 
  1287)       985.5  Rx         0022  5  0B 00 09 1E 03 
  1288)       986.0  Rx         0021  5  00 00 00 00 00 
  1289)       986.2  Rx         0023  5  00 00 00 00 00 
  1290)       986.6  Rx         0020  5  0A 00 20 1A 03 
  1291)       988.4  Rx         0021  5  00 00 00 00 00 
  1292)       990.2  Rx         0020  5  0A 00 21 1A 01 
  1293)       990.4  Rx         0023  5  00 00 00 00 00 
  1294)       990.8  Rx         0021  5  00 00 00 00 00 
  1295)       991.0  Rx         0022  5  0B 00 09 1E 03 
  1296)       991.5  Rx         0020  5  0A 00 21 1A 01 
  1297)       991.7  Rx         0023  5  00 00 00 00 00 
  1298)       992.1  Rx         0021  5  00 00 00 00 00 
  1299)       992.3  Rx         0022  5  0B 00 09 1E 03 
  1300)       992.7  Rx         0020  5  0A 00 21 1A 03 
  1301)       993.0  Rx         0023  5  00 00 00 00 00 
  1302)       993.3  Rx         0021  5  00 00 00 00 00 
  1303)       993.6  Rx         0022  5  0B 00 09 1E 03 
  1304)       993.9  Rx         0020  5  0A 00 21 1A 03 
  1305)       994.1  Rx         0023  5  00 00 00 00 00 
  1306)       994.5  Rx         0021  5  00 00 00 00 00 
  1307)       994.7  Rx         0022  5  0B 00 09 1E 03 
  1308)       995.1  Rx         0020  5  0A 00 22 1A 01 
  1309)       995.3  Rx         0023  5  00 00 00 00 00 
  1310)       995.8  Rx         0021  5  00 00 00 00 00 
  1311)       995.9  Rx         0022  5  0B 00 09 1E 03 
  1312)       996.4  Rx         0020  5  0A 00 22 1A 01 
  1313)       996.6  Rx         0023  5  00 00 00 00 00 
  1314)       997.0  Rx         0021  5  00 00 00 00 00 
  1315)       998.9  Rx         0020  5  0A 00 22 1A 03 
  1316)       999.4  Rx         0026  6  77 0D C6 7D 6B 2F 
  1317)       999.5  Rx         0021  5  00 00 00 00 00 
  1318)      1000.0  Rx         0022  5  0B 00 09 1E 03 
  1319)      1000.2  Rx         0020  5  0A 00 23 1A 01 
  1320)      1000.6  Rx         0023  5  00 00 00 00 00 
  1321)      1000.8  Rx         0021  5  00 00 00 00 00 
  1322)      1014.4  Rx         0020  5  0A 00 25 1A 01 
  1323)      1014.7  Rx         0022  5  0B 00 09 1E 03 
  1324)      1015.1  Rx         0021  5  00 00 00 00 00 
  1325)      1015.3  Rx         0023  5  00 00 00 00 00 
  1326)      1017.4  Rx         0021  5  00 00 00 00 00 
  1327)      1017.6  Rx         0023  5  00 00 00 00 00 
  1328)      1018.1  Rx         0020  5  0A 00 26 1A 01 
  1329)      1018.2  Rx         0022  5  0B 00 09 1E 03 
  1330)      1019.9  Rx         0021  5  00 00 00 00 00 
  1331)      1020.4  Rx         0020  5  0A 00 26 1A 01 
  1332)      1022.2  Rx         0021  5  00 00 00 00 00 
  1333)      1022.3  Rx         0023  5  00 00 00 00 00 
  1334)      1024.5  Rx         0021  5  00 00 00 00 00 
  1335)      1024.7  Rx         0023  5  00 00 00 00 00 
  1336)      1025.2  Rx         0020  5  0A 00 26 1A 03 
  1337)      1025.3  Rx         0022  5  0B 00 09 1E 03 
  1338)      1027.5  Rx         0020  5  0A 00 27 1A 01 
  1339)      1027.7  Rx         0022  5  0B 00 09 1E 01 
  1340)      1028.1  Rx         0021  5  00 00 00 00 00 
  1341)      1028.3  Rx         0023  5  00 00 00 00 00 
  1342)      1030.5  Rx         0021  5  00 00 00 00 00 
  1343)      1032.2  Rx         0020  5  0A 00 27 1A 03 
  1344)      1032.4  Rx         0022  5  0B 00 09 1E 01 
  1345)      1032.8  Rx         0021  5  00 00 00 00 00 
  1346)      1033.0  Rx         0023  5  00 00 00 00 00 
  1347)      1035.2  Rx         0021  5  00 00 00 00 00 
  1348)      1035.3  Rx         0023  5  00 00 00 00 00 
  1349)      1035.8  Rx         0020  5  0A 00 28 1A 01 
  1350)      1036.0  Rx         0022  5  0B 00 09 1E 01 
  1351)      1037.0  Rx         0020  5  0A 00 28 1A 01 
  1352)      1037.2  Rx         0022  5  0B 00 09 1E 01 
  1353)      1037.5  Rx         0021  5  00 00 00 00 00 
  1354)      1037.7  Rx         0023  5  00 00 00 00 00 
  1355)      1038.0  Rx         0020  5  0A 00 28 1A 03 
  1356)      1038.2  Rx         0022  5  0B 00 09 1E 01 
  1357)      1038.5  Rx         0021  5  00 00 00 00 00 
  1358)      1038.7  Rx         0023  5  00 00 00 00 00 
  1359)      1039.1  Rx         0020  5  0A 00 28 1A 03 
  1360)      1039.3  Rx         0022  5  0B 00 09 1E 01 
  1361)      1039.7  Rx         0021  5  00 00 00 00 00 
  1362)      1039.9  Rx         0023  5  00 00 00 00 00 
  1363)      1040.3  Rx         0020  5  0A 00 28 1A 03 
  1364)      1040.5  Rx         0022  5  0B 00 09 1E 01 
  1365)      1040.9  Rx         0021  5  00 00 00 00 00 
  1366)      1041.1  Rx         0023  5  00 00 00 00 00 
  1367)      1041.5  Rx         0020  5  0A 00 28 1A 03 
  1368)      1042.6  Rx         0020  5  0A 00 29 1A 01 
  1369)      1042.9  Rx         0026  6  71 0E 82 7D 77 2F 
  1370)      1043.2  Rx         0021  5  00 00 00 00 00 
  1371)      1043.4  Rx         0022  5  0B 00 09 1E 01 
  1372)      1043.7  Rx         0020  5  0A 00 29 1A 01 
  1373)      1043.9  Rx         0023  5  00 00 00 00 00 
  1374)      1044.2  Rx         0021  5  00 00 00 00 00 
  1375)      1044.4  Rx         0022  5  0B 00 09 1E 01 
  1376)      1044.9  Rx         0020  5  0A 00 29 1A 01 
  1377)      1045.1  Rx         0023  5  00 00 00 00 00 
  1378)      1045.5  Rx         0021  5  00 00 00 00 00 
  1379)      1045.7  Rx         0022  5  0B 00 09 1E 01 
  1380)      1046.1  Rx         0020  5  0A 00 29 1A 01 
  1381)      1046.3  Rx         0023  5  00 00 00 00 00 
  1382)      1046.7  Rx         0021  5  00 00 00 00 00 
  1383)      1046.9  Rx         0022  5  0B 00 09 1E 01 
  1384)      1047.3  Rx         0020  5  0A 00 29 1A 03 
  1385)      1047.5  Rx         0023  5  00 00 00 00 00 
  1386)      1047.9  Rx         0021  5  00 00 00 00 00 
  1387)      1048.1  Rx         0022  5  0B 00 09 1E 01 
  1388)      1048.5  Rx         0020  5  0A 00 29 1A 03 
  1389)      1048.7  Rx         0023  5  00 00 00 00 00 
  1390)      1049.1  Rx         0021  5  00 00 00 00 00 
  1391)      1049.3  Rx         0022  5  0B 00 09 1E 01 
  1392)      1049.7  Rx         0020  5  0A 00 2A 1A 01 
  1393)      1049.9  Rx         0023  5  00 00 00 00 00 
  1394)      1050.3  Rx         0021  5  00 00 00 00 00 
  1395)      1050.5  Rx         0022  5  0B 00 09 1E 01 
  1396)      1050.9  Rx         0020  5  0A 00 2A 1A 01 
  1397)      1051.1  Rx         0023  5  00 00 00 00 00 
  1398)      1051.5  Rx         0021  5  00 00 00 00 00 
  1399)      1063.4  Rx         0021  5  00 00 00 00 00 
  1400)      1064.1  Rx         0020  5  0A 00 2C 1A 01 
  1401)      1067.4  Rx         0022  5  0B 00 09 1E 01 
  1402)      1067.9  Rx         0020  5  0A 00 2C 1A 03 
  1403)      1068.1  Rx         0023  5  00 00 00 00 00 
  1404)      1074.9  Rx         0020  5  0A 00 2D 1A 03 
  1405)      1076.5  Rx         0026  6  93 0E 82 7D 6B 2F 
  1406)      1076.8  Rx         0021  5  00 00 00 00 00 
  1407)      1077.2  Rx         0022  5  0B 00 09 1E 01 
  1408)      1077.4  Rx         0020  5  0A 00 2D 1A 03 
  1409)      1077.9  Rx         0023  5  00 00 00 00 00 
  1410)      1078.0  Rx         0021  5  00 00 00 00 00 
  1411)      1078.5  Rx         0022  5  0B 00 09 1E 01 
  1412)      1078.7  Rx         0020  5  0A 00 2E 1A 01 
  1413)      1085.5  Rx         0020  5  0A 00 2F 1A 01 
  1414)      1087.3  Rx         0021  5  00 00 00 00 00 
  1415)      1094.5  Rx         0021  5  00 00 00 00 00 
  1416)      1094.7  Rx         0022  5  0B 00 09 1E 01 
  1417)      1095.2  Rx         0020  5  0A 00 30 1A 03 
  1418)      1095.4  Rx         0023  5  00 00 00 00 00 
  1419)      1097.5  Rx         0020  5  0A 00 31 1A 03 
  1420)      1098.6  Rx         0020  5  0A 00 31 1A 03 
  1421)      1105.7  Rx         0020  5  0A 00 32 1A 03 
  1422)      1105.9  Rx         0022  5  0B 00 09 1E 01 
  1423)      1106.3  Rx         0021  5  00 00 00 00 00 
  1424)      1106.5  Rx         0023  5  00 00 00 00 00 
  1425)      1108.7  Rx         0021  5  00 00 00 00 00 
  1426)      1109.8  Rx         0021  5  00 00 00 00 00 
  1427)      1115.1  Rx         0020  5  0A 00 34 1A 03 
  1428)      1115.4  Rx         0023  5  00 00 00 00 00 
  1429)      1115.8  Rx         0021  5  00 00 00 00 00 
  1430)      1116.0  Rx         0022  5  0B 00 09 1E 01 
  1431)      1119.3  Rx         0021  5  00 00 00 00 00 
  1432)      1121.1  Rx         0020  5  0A 00 35 1A 01 
  1433)      1121.3  Rx         0026  6  0B 0E AF 7D 77 2F 
  1434)      1121.8  Rx         0021  5  00 00 00 00 00 
  1435)      1122.0  Rx         0022  5  0B 00 09 1E 01 
  1436)      1125.3  Rx         0021  5  00 00 00 00 00 
  1437)      1125.5  Rx         0022  5  0B 00 09 1E 01 
  1438)      1125.9  Rx         0020  5  0A 00 35 1A 03 
  1439)      1126.1  Rx         0023  5  00 00 00 00 00 
  1440)      1128.3  Rx         0020  5  0A 00 36 1A 01 
  1441)      1128.4  Rx         0023  5  00 00 00 00 00 
  1442)      1128.9  Rx         0021  5  00 00 00 00 00 
  1443)      1129.1  Rx         0022  5  0B 00 09 1E 01 
  1444)      1130.7  Rx         0020  5  0A 00 36 1A 03 
  1445)      1131.4  Rx         0021  5  00 00 00 00 00 
  1446)      1131.6  Rx         0026  6  99 0D D1 7D 77 2F 
  1447)      1131.9  Rx         0020  5  0A 00 36 1A 03 
  1448)      1132.2  Rx         0022  5  0B 00 09 1E 01 
  1449)      1136.1  Rx         0021  5  00 00 00 00 00 
  1450)      1136.3  Rx         0023  5  00 00 00 00 00 
  1451)      1138.4  Rx         0021  5  00 00 00 00 00 
  1452)      1138.6  Rx         0023  5  00 00 00 00 00 
  1453)      1139.1  Rx         0020  5  0A 00 37 1A 03 
  1454)      1139.3  Rx         0022  5  0B 00 09 1E 01 
  1455)      1142.0  Rx         0021  5  00 00 00 00 00 
  1456)      1146.7  Rx         0021  5  00 00 00 00 00 
  1457)      1146.9  Rx         0022  5  0B 00 09 1E 01 
  1458)      1147.3  Rx         0020  5  0A 00 38 1A 03 
  1459)      1147.5  Rx         0023  5  00 00 00 00 00 
  1460)      1149.6  Rx         0020  5  0A 00 38 1A 03 
  1461)      1149.9  Rx         0023  5  00 00 00 00 00 
  1462)      1150.3  Rx         0021  5  00 00 00 00 00 
  1463)      1150.5  Rx         0022  5  0B 00 09 1E 01 
  1464)      1153.2  Rx         0020  5  0A 00 39 1A 01 
  1465)      1154.3  Rx         0026  6  1C 0D F4 7D 82 2F 
  1466)      1154.5  Rx         0020  5  0A 00 39 1A 03 
  1467)      1156.6  Rx         0023  5  00 00 00 00 00 
  1468)      1157.1  Rx         0020  5  0A 00 39 1A 03 
  1469)      1157.3  Rx         0022  5  0B 00 09 1E 01 
  1470)      1159.4  Rx         0020  5  0A 00 39 1A 03 
  1471)      1159.6  Rx         0022  5  0B 00 08 1E 03 
  1472)      1160.1  Rx         0021  5  00 00 00 00 00 
  1473)      1160.3  Rx         0023  5  00 00 00 00 00 
  1474)      1160.7  Rx         0020  5  0A 00 39 1A 03 
  1475)      1160.9  Rx         0022  5  0B 00 08 1E 03 
  1476)      1161.3  Rx         0021  5  00 00 00 00 00 
  1477)      1161.5  Rx         0023  5  00 00 00 00 00 
  1478)      1161.9  Rx         0020  5  0A 00 3A 1A 01 
  1479)      1162.1  Rx         0022  5  0B 00 08 1E 03 
  1480)      1162.5  Rx         0021  5  00 00 00 00 00 
  1481)      1162.7  Rx         0023  5  00 00 00 00 00 
  1482)      1163.1  Rx         0020  5  0A 00 3A 1A 01 
  1483)      1163.3  Rx         0022  5  0B 00 08 1E 03 
  1484)      1163.7  Rx         0021  5  00 00 00 00 00 
  1485)      1163.9  Rx         0023  5  00 00 00 00 00 
  1486)      1164.3  Rx         0020  5  0A 00 3A 1A 01 
  1487)      1165.4  Rx         0020  5  0A 00 3A 1A 01 
  1488)      1165.9  Rx         0021  5  00 00 00 00 00 
  1489)      1166.4  Rx         0026  6  D8 0C FF 7D 8E 2F 
  1490)      1166.6  Rx         0020  5  0A 00 3A 1A 01 
  1491)      1166.8  Rx         0022  5  0B 00 08 1E 03 
  1492)      1167.1  Rx         0021  5  00 00 00 00 00 
  1493)      1167.5  Rx         0023  5  00 00 00 00 00 
  1494)      1167.7  Rx         0020  5  0A 00 3A 1A 01 
  1495)      1168.1  Rx         0022  5  0B 00 08 1E 03 
  1496)      1168.3  Rx         0021  5  00 00 00 00 00 
  1497)      1168.7  Rx         0023  5  00 00 00 00 00 
  1498)      1168.9  Rx         0020  5  0A 00 3A 1A 01 
  1499)      1169.3  Rx         0022  5  0B 00 08 1E 03 
  1500)      1169.5  Rx         0021  5  00 00 00 00 00 
  1501)      1169.9  Rx         0023  5  00 00 00 00 00 
  1502)      1170.1  Rx         0020  5  0A 00 3A 1A 01 
  1503)      1170.5  Rx         0022  5  0B 00 08 1E 03 
  1504)      1170.7  Rx         0021  5  00 00 00 00 00 
  1505)      1171.1  Rx         0023  5  00 00 00 00 00 
  1506)      1171.3  Rx         0020  5  0A 00 3A 1A 01 
  1507)      1171.7  Rx         0022  5  0B 00 08 1E 01 
  1508)      1171.9  Rx         0021  5  00 00 00 00 00 
  1509)      1172.3  Rx         0023  5  00 00 00 00 00 
  1510)      1172.5  Rx         0020  5  0A 00 3A 1A 03 
  1511)      1172.8  Rx         0022  5  0B 00 08 1E 01 
  1512)      1173.0  Rx         0021  5  00 00 00 00 00 
  1513)      1173.3  Rx         0023  5  00 00 00 00 00 
  1514)      1173.5  Rx         0020  5  0A 00 3B 1A 01 
  1515)      1173.7  Rx         0022  5  0B 00 08 1E 01 
  1516)      1174.0  Rx         0021  5  00 00 00 00 00 
  1517)      1174.2  Rx         0023  5  00 00 00 00 00 
  1518)      1174.5  Rx         0020  5  0A 00 3B 1A 01 
  1519)      1175.1  Rx         0021  5  00 00 00 00 00 
  1520)      1177.6  Rx         0021  5  00 00 00 00 00 
  1521)      1177.8  Rx         0022  5  0B 00 07 1E 03 
  1522)      1178.2  Rx         0020  5  0A 00 3B 1A 01 
  1523)      1178.4  Rx         0023  5  00 00 00 00 00 
  1524)      1178.9  Rx         0021  5  00 00 00 00 00 
  1525)      1179.1  Rx         0022  5  0B 00 07 1E 03 
  1526)      1179.5  Rx         0020  5  0A 00 3B 1A 01 
  1527)      1179.7  Rx         0023  5  00 00 00 00 00 
  1528)      1180.1  Rx         0021  5  00 00 00 00 00 
  1529)      1180.3  Rx         0022  5  0B 00 07 1E 03 
  1530)      1180.7  Rx         0020  5  0A 00 3B 1A 01 
  1531)      1180.9  Rx         0023  5  00 00 00 00 00 
  1532)      1181.4  Rx         0021  5  00 00 00 00 00 
  1533)      1181.5  Rx         0022  5  0B 00 07 1E 03 
  1534)      1181.9  Rx         0020  5  0A 00 3B 1A 01 
  1535)      1182.1  Rx         0023  5  00 00 00 00 00 
  1536)      1182.5  Rx         0021  5  00 00 00 00 00 
  1537)      1182.7  Rx         0022  5  0B 00 07 1E 01 
  1538)      1183.2  Rx         0020  5  0A 00 3B 1A 01 
  1539)      1183.4  Rx         0023  5  00 00 00 00 00 
  1540)      1183.8  Rx         0021  5  00 00 00 00 00 
  1541)      1184.0  Rx         0022  5  0B 00 07 1E 01 
  1542)      1184.5  Rx         0020  5  0A 00 3B 1A 01 
  1543)      1184.7  Rx         0023  5  00 00 00 00 00 
  1544)      1185.1  Rx         0021  5  00 00 00 00 00 
  1545)      1185.3  Rx         0022  5  0B 00 07 1E 01 
  1546)      1185.8  Rx         0020  5  0A 00 3B 1A 01 
  1547)      1186.0  Rx         0023  5  00 00 00 00 00 
  1548)      1186.4  Rx         0021  5  00 00 00 00 00 
  1549)      1188.2  Rx         0020  5  0A 00 3B 1A 01 
  1550)      1188.7  Rx         0026  6  71 0C 16 7E 99 2F 
  1551)      1188.9  Rx         0021  5  00 00 00 00 00 
  1552)      1189.3  Rx         0022  5  0B 00 06 1E 03 
  1553)      1189.5  Rx         0020  5  0A 00 3B 1A 01 
  1554)      1190.0  Rx         0023  5  00 00 00 00 00 
  1555)      1190.2  Rx         0021  5  00 00 00 00 00 
  1556)      1190.6  Rx         0022  5  0B 00 06 1E 03 
  1557)      1190.8  Rx         0020  5  0A 00 3B 1A 01 
  1558)      1191.2  Rx         0023  5  00 00 00 00 00 
  1559)      1191.4  Rx         0021  5  00 00 00 00 00 
  1560)      1191.8  Rx         0022  5  0B 00 06 1E 03 
  1561)      1192.0  Rx         0020  5  0A 00 3B 1A 01 
  1562)      1192.4  Rx         0023  5  00 00 00 00 00 
  1563)      1192.6  Rx         0021  5  00 00 00 00 00 
  1564)      1199.7  Rx         0021  5  00 00 00 00 00 
  1565)      1199.9  Rx         0026  6  44 0C 21 7E 99 2F 
  1566)      1200.2  Rx         0020  5  0A 00 3B 1A 01 
  1567)      1200.4  Rx         0022  5  0B 00 05 1E 03 
  1568)      1200.9  Rx         0021  5  00 00 00 00 00 
  1569)      1201.0  Rx         0023  5  00 00 00 00 00 
  1570)      1205.0  Rx         0020  5  0A 00 3A 1A 03 
  1571)      1205.1  Rx         0022  5  0B 00 05 1E 03 
  1572)      1205.6  Rx         0021  5  00 00 00 00 00 
  1573)      1205.8  Rx         0023  5  00 00 00 00 00 
  1574)      1207.9  Rx         0021  5  00 00 00 00 00 
  1575)      1208.2  Rx         0023  5  00 00 00 00 00 
  1576)      1208.6  Rx         0020  5  0A 00 3A 1A 03 
  1577)      1208.7  Rx         0022  5  0B 00 05 1E 01 
  1578)      1210.4  Rx         0021  5  00 00 00 00 00 
  1579)      1210.9  Rx         0020  5  0A 00 3A 1A 01 
  1580)      1211.4  Rx         0026  6  DD 0B 38 7E A4 2F 
  1581)      1211.5  Rx         0021  5  00 00 00 00 00 
  1582)      1215.6  Rx         0020  5  0A 00 39 1A 03 
  1583)      1215.8  Rx         0023  5  00 00 00 00 00 
  1584)      1216.3  Rx         0021  5  00 00 00 00 00 
  1585)      1216.5  Rx         0022  5  0B 00 04 1E 03 
  1586)      1218.6  Rx         0021  5  00 00 00 00 00 
  1587)      1218.8  Rx         0022  5  0B 00 04 1E 03 
  1588)      1219.2  Rx         0020  5  0A 00 39 1A 01 
  1589)      1219.5  Rx         0023  5  00 00 00 00 00 
  1590)      1220.4  Rx         0020  5  0A 00 39 1A 01 
  1591)      1220.6  Rx         0023  5  00 00 00 00 00 
  1592)      1220.9  Rx         0021  5  00 00 00 00 00 
  1593)      1221.4  Rx         0020  5  0A 00 38 1A 03 
  1594)      1222.3  Rx         0026  6  B0 0B 43 7E A4 2F 
  1595)      1222.6  Rx         0020  5  0A 00 38 1A 03 
  1596)      1222.8  Rx         0022  5  0B 00 04 1E 03 
  1597)      1223.1  Rx         0021  5  00 00 00 00 00 
  1598)      1223.3  Rx         0023  5  00 00 00 00 00 
  1599)      1223.7  Rx         0020  5  0A 00 38 1A 03 
  1600)      1223.9  Rx         0022  5  0B 00 04 1E 03 
  1601)      1224.3  Rx         0021  5  00 00 00 00 00 
  1602)      1224.5  Rx         0023  5  00 00 00 00 00 
  1603)      1224.9  Rx         0020  5  0A 00 38 1A 01 
  1604)      1225.1  Rx         0022  5  0B 00 04 1E 03 
  1605)      1225.6  Rx         0021  5  00 00 00 00 00 
  1606)      1225.7  Rx         0023  5  00 00 00 00 00 
  1607)      1226.1  Rx         0020  5  0A 00 38 1A 01 
  1608)      1226.3  Rx         0022  5  0B 00 04 1E 03 
  1609)      1226.7  Rx         0021  5  00 00 00 00 00 
  1610)      1227.0  Rx         0023  5  00 00 00 00 00 
  1611)      1227.3  Rx         0020  5  0A 00 37 1A 03 
  1612)      1227.5  Rx         0022  5  0B 00 04 1E 03 
  1613)      1227.9  Rx         0021  5  00 00 00 00 00 
  1614)      1228.2  Rx         0023  5  00 00 00 00 00 
  1615)      1228.5  Rx         0020  5  0A 00 37 1A 03 
  1616)      1228.8  Rx         0022  5  0B 00 04 1E 03 
  1617)      1229.1  Rx         0021  5  00 00 00 00 00 
  1618)      1229.3  Rx         0023  5  00 00 00 00 00 
  1619)      1229.8  Rx         0020  5  0A 00 37 1A 03 
  1620)      1229.9  Rx         0022  5  0B 00 04 1E 03 
  1621)      1230.4  Rx         0021  5  00 00 00 00 00 
  1622)      1230.5  Rx         0023  5  00 00 00 00 00 
  1623)      1231.0  Rx         0020  5  0A 00 37 1A 01 
  1624)      1231.2  Rx         0022  5  0B 00 04 1E 03 
  1625)      1231.6  Rx         0021  5  00 00 00 00 00 
  1626)      1231.8  Rx         0023  5  00 00 00 00 00 
  1627)      1232.2  Rx         0020  5  0A 00 37 1A 01 
  1628)      1233.9  Rx         0021  5  00 00 00 00 00 
  1629)      1234.1  Rx         0022  5  0B 00 04 1E 03 
  1630)      1234.5  Rx         0020  5  0A 00 36 1A 03 
  1631)      1234.7  Rx         0023  5  00 00 00 00 00 
  1632)      1235.1  Rx         0021  5  00 00 00 00 00 
  1633)      1235.3  Rx         0022  5  0B 00 04 1E 03 
  1634)      1235.7  Rx         0020  5  0A 00 36 1A 03 
  1635)      1235.9  Rx         0023  5  00 00 00 00 00 
  1636)      1236.3  Rx         0021  5  00 00 00 00 00 
  1637)      1236.5  Rx         0022  5  0B 00 04 1E 03 
  1638)      1236.9  Rx         0020  5  0A 00 36 1A 03 
  1639)      1237.1  Rx         0023  5  00 00 00 00 00 
  1640)      1237.5  Rx         0021  5  00 00 00 00 00 
  1641)      1237.7  Rx         0022  5  0B 00 04 1E 03 
  1642)      1245.3  Rx         0020  5  0A 00 35 1A 03 
  1643)      1246.4  Rx         0020  5  0A 00 35 1A 03 
  1644)      1246.6  Rx         0022  5  0B 00 04 1E 03 
  1645)      1247.1  Rx         0021  5  00 00 00 00 00 
  1646)      1247.3  Rx         0023  5  00 00 00 00 00 
  1647)      1250.6  Rx         0021  5  00 00 00 00 00 
  1648)      1250.8  Rx         0023  5  00 00 00 00 00 
  1649)      1255.4  Rx         0021  5  00 00 00 00 00 
  1650)      1255.9  Rx         0020  5  0A 00 34 1A 03 
  1651)      1257.7  Rx         0021  5  00 00 00 00 00 
  1652)      1257.9  Rx         0022  5  0B 00 04 1E 03 
  1653)      1258.3  Rx         0020  5  0A 00 34 1A 03 
  1654)      1258.5  Rx         0023  5  00 00 00 00 00 
  1655)      1259.0  Rx         0021  5  00 00 00 00 00 
  1656)      1259.2  Rx         0022  5  0B 00 04 1E 03 
  1657)      1266.1  Rx         0021  5  00 00 00 00 00 
  1658)      1267.9  Rx         0020  5  0A 00 34 1A 01 
  1659)      1271.4  Rx         0020  5  0A 00 34 1A 01 
  1660)      1271.6  Rx         0022  5  0B 00 04 1E 03 
  1661)      1275.0  Rx         0020  5  0A 00 34 1A 01 
  1662)      1275.2  Rx         0022  5  0B 00 04 1E 01 
  1663)      1275.5  Rx         0021  5  00 00 00 00 00 
  1664)      1275.7  Rx         0023  5  00 00 00 00 00 
  1665)      1277.9  Rx         0021  5  00 00 00 00 00 
  1666)      1280.7  Rx         0023  5  00 00 00 00 00 
  1667)      1281.2  Rx         0020  5  0A 00 33 1A 03 
  1668)      1281.4  Rx         0022  5  0B 00 04 1E 01 
  1669)      1286.5  Rx         0021  5  00 00 00 00 00 
  1670)      1286.7  Rx         0023  5  00 00 00 00 00 
  1671)      1287.1  Rx         0020  5  0A 00 33 1A 03 
  1672)      1287.3  Rx         0022  5  0B 00 03 1E 01 
  1673)      1288.9  Rx         0021  5  00 00 00 00 00 
  1674)      1290.2  Rx         0021  5  00 00 00 00 00 
  1675)      1290.4  Rx         0026  6  B6 0A 5A 7E BB 2F 
  1676)      1290.7  Rx         0020  5  0A 00 33 1A 03 
  1677)      1290.9  Rx         0022  5  0B 00 03 1E 01 
  1678)      1291.4  Rx         0021  5  00 00 00 00 00 
  1679)      1291.5  Rx         0023  5  00 00 00 00 00 
  1680)      1299.0  Rx         0020  5  0A 00 33 1A 03 
  1681)      1300.7  Rx         0026  6  93 0A 65 7E C6 2F 
  1682)      1300.8  Rx         0021  5  00 00 00 00 00 
  1683)      1301.3  Rx         0022  5  0B 00 01 1E 01 
  1684)      1301.5  Rx         0020  5  0A 00 33 1A 03 
  1685)      1301.9  Rx         0023  5  00 00 00 00 00 
  1686)      1302.1  Rx         0021  5  00 00 00 00 00 
  1687)      1306.0  Rx         0022  5  0B 00 00 1E 01 
  1688)      1306.5  Rx         0020  5  0A 00 33 1A 03 
  1689)      1306.7  Rx         0023  5  00 00 00 00 00 
  1690)      1308.8  Rx         0020  5  0A 00 33 1A 03 
  1691)      1309.1  Rx         0023  5  00 00 00 00 00 
  1692)      1309.5  Rx         0021  5  00 00 00 00 00 
  1693)      1309.7  Rx         0022  5  0B 00 FF 1D 03 
  1694)      1311.8  Rx         0021  5  00 00 00 00 00 
  1695)      1312.0  Rx         0026  6  71 0A 5A 7E DD 2F 
  1696)      1312.3  Rx         0020  5  0A 00 33 1A 03 
  1697)      1312.6  Rx         0022  5  0B 00 FF 1D 01 
  1698)      1316.5  Rx         0021  5  00 00 00 00 00 
  1699)      1316.7  Rx         0023  5  00 00 00 00 00 
  1700)      1317.2  Rx         0020  5  0A 00 33 1A 03 
  1701)      1317.3  Rx         0022  5  0B 00 FD 1D 03 
  1702)      1319.5  Rx         0020  5  0A 00 33 1A 03 
  1703)      1319.7  Rx         0022  5  0B 00 FD 1D 01 
  1704)      1320.1  Rx         0021  5  00 00 00 00 00 
  1705)      1320.3  Rx         0023  5  00 00 00 00 00 
  1706)      1322.4  Rx         0021  5  00 00 00 00 00 
  1707)      1326.0  Rx         0021  5  00 00 00 00 00 
  1708)      1326.2  Rx         0022  5  0B 00 FB 1D 01 
  1709)      1326.7  Rx         0020  5  0A 00 33 1A 03 
  1710)      1326.9  Rx         0023  5  00 00 00 00 00 
  1711)      1327.8  Rx         0020  5  0A 00 33 1A 03 
  1712)      1328.0  Rx         0023  5  00 00 00 00 00 
  1713)      1328.4  Rx         0021  5  00 00 00 00 00 
