;$FILEVERSION=1.1
;$STARTTIME=45826.7025212153
;
;   Start time: 2025/6/18 16:51:37.833.0
;   Generated by PCAN-View v5.3.2.952
;
;   Message Number
;   |         Time Offset (ms)
;   |         |        Type
;   |         |        |        ID (hex)
;   |         |        |        |     Data Length
;   |         |        |        |     |   Data Bytes (hex) ...
;   |         |        |        |     |   |
;---+--   ----+----  --+--  ----+---  +  -+ -- -- -- -- -- -- --
 41635)    185000.0  Rx         0022  5  0B 00 9C 1E 01 
 41636)    185000.3  Rx         0020  5  0A 00 CB 1A 03 
 41637)    185000.5  Rx         0023  5  00 00 00 00 00 
 41638)    185000.8  Rx         0025  8  FF 03 FF 03 FF 03 FC 03 
 41639)    185001.0  Rx         0021  5  00 00 00 00 00 
 41640)    185001.1  Rx         0022  5  0B 00 9C 1E 01 
 41641)    185001.3  Rx         0024  5  00 00 2F 18 03 
 41642)    185001.5  Rx         0020  5  0A 00 CB 1A 03 
 41643)    185001.7  Rx         0023  5  00 00 00 00 00 
 41644)    185001.9  Rx         0031  6  A7 7E 59 81 EE 80 
 41645)    185002.1  Rx         0021  5  00 00 00 00 00 
 41646)    185002.3  Rx         0022  5  0B 00 9B 1E 03 
 41647)    185002.6  Rx         0025  8  FE 03 FD 03 FE 03 FD 03 
 41648)    185002.7  Rx         0020  5  0A 00 CB 1A 03 
 41649)    185002.9  Rx         0023  5  00 00 00 00 00 
 41650)    185003.1  Rx         0024  5  00 00 2F 18 03 
 41651)    185003.3  Rx         0021  5  00 00 00 00 00 
 41652)    185003.5  Rx         0022  5  0B 00 9B 1E 03 
 41653)    185003.8  Rx         0020  5  0A 00 CB 1A 03 
 41654)    185004.0  Rx         0023  5  00 00 00 00 00 
 41655)    185004.2  Rx         0025  8  FF 03 FF 03 FF 03 FC 03 
 41656)    185004.4  Rx         0021  5  00 00 00 00 00 
 41657)    185004.6  Rx         0030  6  77 01 21 8A 9E C8 
 41658)    185004.8  Rx         0024  5  00 00 2F 18 03 
 41659)    185005.0  Rx         0020  5  0A 00 CB 1A 03 
 41660)    185005.5  Rx         0021  5  00 00 00 00 00 
 41661)    185005.7  Rx         0026  6  1C 19 4F 7C FF 31 
 41662)    185006.0  Rx         0025  8  FF 03 FE 03 FC 03 FA 03 
 41663)    185006.1  Rx         0020  5  0A 00 CB 1A 03 
 41664)    185006.3  Rx         0022  5  0B 00 9A 1E 03 
 41665)    185006.5  Rx         0024  5  00 00 2F 18 03 
 41666)    185006.7  Rx         0021  5  00 00 00 00 00 
 41667)    185006.9  Rx         0023  5  00 00 00 00 00 
 41668)    185007.1  Rx         0031  6  B3 7E 09 81 B7 80 
 41669)    185007.2  Rx         0020  5  0A 00 CB 1A 03 
 41670)    185007.5  Rx         0022  5  0B 00 9A 1E 01 
 41671)    185007.7  Rx         0025  8  FE 03 FE 03 FF 03 FE 03 
 41672)    185007.9  Rx         0021  5  00 00 00 00 00 
 41673)    185008.1  Rx         0023  5  00 00 00 00 00 
 41674)    185008.3  Rx         0024  5  00 00 2F 18 03 
 41675)    185008.4  Rx         0020  5  0A 00 CB 1A 03 
 41676)    185008.6  Rx         0022  5  0B 00 99 1E 03 
 41677)    185008.8  Rx         0030  6  8E 01 16 8A B5 C8 
 41678)    185009.0  Rx         0021  5  00 00 00 00 00 
 41679)    185009.2  Rx         0023  5  00 00 00 00 00 
 41680)    185009.5  Rx         0025  8  FF 03 FE 03 FF 03 FE 03 
 41681)    185009.6  Rx         0020  5  0A 00 CB 1A 03 
 41682)    185009.9  Rx         0022  5  0B 00 99 1E 03 
 41683)    185010.0  Rx         0024  5  00 00 2F 18 03 
 41684)    185010.2  Rx         0021  5  00 00 00 00 00 
 41685)    185010.4  Rx         0023  5  00 00 00 00 00 
 41686)    185010.7  Rx         0020  5  0A 00 CB 1A 03 
 41687)    185010.9  Rx         0022  5  0B 00 99 1E 01 
 41688)    185011.1  Rx         0025  8  FE 03 FF 03 FF 03 FD 03 
 41689)    185011.3  Rx         0021  5  00 00 00 00 00 
 41690)    185011.5  Rx         0023  5  00 00 00 00 00 
 41691)    185011.7  Rx         0024  5  00 00 2F 18 03 
 41692)    185011.9  Rx         0020  5  0A 00 CB 1A 03 
 41693)    185012.1  Rx         0022  5  0B 00 98 1E 03 
 41694)    185012.3  Rx         0031  6  B3 7E 09 81 B7 80 
 41695)    185012.5  Rx         0021  5  00 00 00 00 00 
 41696)    185012.7  Rx         0023  5  00 00 00 00 00 
 41697)    185012.9  Rx         0025  8  FE 03 FD 03 FE 03 FC 03 
 41698)    185013.1  Rx         0020  5  0A 00 CB 1A 03 
 41699)    185013.3  Rx         0022  5  0B 00 98 1E 03 
 41700)    185013.5  Rx         0024  5  00 00 2F 18 03 
 41701)    185013.7  Rx         0021  5  00 00 00 00 00 
 41702)    185013.9  Rx         0023  5  00 00 00 00 00 
 41703)    185014.2  Rx         0020  5  0A 00 CB 1A 03 
 41704)    185014.4  Rx         0022  5  0B 00 98 1E 01 
 41705)    185014.6  Rx         0025  8  FE 03 FF 03 FF 03 FE 03 
 41706)    185014.8  Rx         0021  5  00 00 00 00 00 
 41707)    185015.0  Rx         0023  5  00 00 00 00 00 
 41708)    185015.2  Rx         0024  5  00 00 2F 18 03 
 41709)    185015.4  Rx         0020  5  0A 00 CB 1A 03 
 41710)    185015.5  Rx         0022  5  0B 00 97 1E 03 
 41711)    185015.7  Rx         0030  6  8E 01 16 8A B5 C8 
 41712)    185015.9  Rx         0021  5  00 00 00 00 00 
 41713)    185016.1  Rx         0023  5  00 00 00 00 00 
 41714)    185016.4  Rx         0025  8  FE 03 FE 03 FF 03 FF 03 
 41715)    185016.6  Rx         0020  5  0A 00 CB 1A 03 
 41716)    185016.9  Rx         0024  5  00 00 2F 18 03 
 41717)    185017.1  Rx         0021  5  00 00 00 00 00 
 41718)    185017.4  Rx         0031  6  CA 7E 50 80 C0 80 
 41719)    185017.6  Rx         0020  5  0A 00 CB 1A 03 
 41720)    185017.8  Rx         0025  8  FE 03 FE 03 FD 03 FB 03 
 41721)    185018.0  Rx         0026  6  27 19 4F 7C FF 31 
 41722)    185018.2  Rx         0021  5  00 00 00 00 00 
 41723)    185018.4  Rx         0024  5  00 00 2F 18 03 
 41724)    185018.6  Rx         0022  5  0B 00 97 1E 01 
 41725)    185018.8  Rx         0020  5  0A 00 CB 1A 03 
 41726)    185019.1  Rx         0023  5  00 00 00 00 00 
 41727)    185019.3  Rx         0021  5  00 00 00 00 00 
 41728)    185019.5  Rx         0025  8  FE 03 FF 03 FF 03 FB 03 
 41729)    185019.8  Rx         0022  5  0B 00 96 1E 03 
 41730)    185019.9  Rx         0020  5  0A 00 CB 1A 03 
 41731)    185020.1  Rx         0024  5  00 00 2F 18 03 
 41732)    185020.3  Rx         0023  5  00 00 00 00 00 
 41733)    185020.5  Rx         0021  5  00 00 00 00 00 
 41734)    185020.7  Rx         0030  6  8E 01 0A 8A D7 C8 
 41735)    185020.9  Rx         0022  5  0B 00 96 1E 01 
 41736)    185021.0  Rx         0020  5  0A 00 CB 1A 03 
 41737)    185021.3  Rx         0025  8  FD 03 FB 03 FE 03 FD 03 
 41738)    185021.5  Rx         0023  5  00 00 00 00 00 
 41739)    185021.7  Rx         0021  5  00 00 00 00 00 
 41740)    185021.9  Rx         0024  5  00 00 2F 18 03 
 41741)    185022.1  Rx         0022  5  0B 00 96 1E 01 
 41742)    185022.2  Rx         0020  5  0A 00 CB 1A 03 
 41743)    185022.5  Rx         0023  5  00 00 00 00 00 
 41744)    185022.8  Rx         0025  8  FD 03 FC 03 FF 03 FC 03 
 41745)    185023.0  Rx         0021  5  00 00 00 00 00 
 41746)    185023.2  Rx         0022  5  0B 00 96 1E 01 
 41747)    185023.3  Rx         0024  5  00 00 2F 18 03 
 41748)    185023.6  Rx         0020  5  0A 00 CB 1A 03 
 41749)    185023.7  Rx         0023  5  00 00 00 00 00 
 41750)    185023.9  Rx         0031  6  CA 7E 50 80 C0 80 
 41751)    185024.1  Rx         0021  5  00 00 00 00 00 
 41752)    185024.3  Rx         0022  5  0B 00 95 1E 03 
 41753)    185024.5  Rx         0025  8  FE 03 FE 03 FF 03 FD 03 
 41754)    185024.7  Rx         0020  5  0A 00 CB 1A 03 
 41755)    185024.9  Rx         0023  5  00 00 00 00 00 
 41756)    185025.1  Rx         0024  5  00 00 2F 18 03 
 41757)    185025.3  Rx         0021  5  00 00 00 00 00 
 41758)    185025.5  Rx         0022  5  0B 00 95 1E 01 
 41759)    185025.8  Rx         0020  5  0A 00 CB 1A 03 
 41760)    185026.0  Rx         0023  5  00 00 00 00 00 
 41761)    185026.2  Rx         0025  8  FF 03 FF 03 FF 03 FD 03 
 41762)    185026.4  Rx         0021  5  00 00 00 00 00 
 41763)    185026.6  Rx         0022  5  0B 00 94 1E 03 
 41764)    185026.8  Rx         0024  5  00 00 2F 18 03 
 41765)    185027.0  Rx         0020  5  0A 00 CB 1A 03 
 41766)    185027.2  Rx         0023  5  00 00 00 00 00 
 41767)    185027.4  Rx         0030  6  8E 01 0A 8A D7 C8 
 41768)    185027.6  Rx         0021  5  00 00 00 00 00 
 41769)    185027.8  Rx         0022  5  0B 00 94 1E 01 
 41770)    185028.0  Rx         0025  8  FF 03 FF 03 FF 03 FE 03 
 41771)    185028.2  Rx         0020  5  0A 00 CB 1A 03 
 41772)    185028.4  Rx         0023  5  00 00 00 00 00 
 41773)    185028.6  Rx         0024  5  00 00 2F 18 03 
 41774)    185028.8  Rx         0021  5  00 00 00 00 00 
 41775)    185029.0  Rx         0031  6  F6 7E 0B 80 9D 80 
 41776)    185029.3  Rx         0020  5  0A 00 CB 1A 03 
 41777)    185029.5  Rx         0025  8  FC 03 FE 03 FC 03 FE 03 
 41778)    185029.8  Rx         0021  5  00 00 00 00 00 
 41779)    185030.0  Rx         0024  5  00 00 2F 18 03 
 41780)    185030.3  Rx         0020  5  0A 00 CB 1A 03 
 41781)    185030.8  Rx         0021  5  00 00 00 00 00 
 41782)    185031.1  Rx         0025  8  FC 03 FD 03 FE 03 FC 03 
 41783)    185031.3  Rx         0026  6  3E 19 4F 7C FF 31 
 41784)    185031.4  Rx         0020  5  0A 00 CB 1A 03 
 41785)    185031.7  Rx         0024  5  00 00 2F 18 03 
 41786)    185031.8  Rx         0022  5  0B 00 92 1E 03 
 41787)    185032.0  Rx         0021  5  00 00 00 00 00 
 41788)    185032.2  Rx         0030  6  8E 01 F4 89 EE C8 
 41789)    185032.4  Rx         0023  5  00 00 00 00 00 
 41790)    185032.6  Rx         0020  5  0A 00 CB 1A 03 
 41791)    185032.8  Rx         0025  8  FD 03 FD 03 FE 03 FB 03 
 41792)    185033.0  Rx         0022  5  0B 00 92 1E 03 
 41793)    185033.2  Rx         0021  5  00 00 00 00 00 
 41794)    185033.4  Rx         0024  5  00 00 2F 18 03 
 41795)    185033.6  Rx         0023  5  00 00 00 00 00 
 41796)    185033.8  Rx         0020  5  0A 00 CB 1A 03 
 41797)    185034.1  Rx         0022  5  0B 00 92 1E 01 
 41798)    185034.3  Rx         0021  5  00 00 00 00 00 
 41799)    185034.5  Rx         0025  8  FF 03 FF 03 FF 03 FD 03 
 41800)    185034.7  Rx         0023  5  00 00 00 00 00 
 41801)    185034.9  Rx         0020  5  0A 00 CB 1A 03 
 41802)    185035.1  Rx         0024  5  00 00 2F 18 03 
 41803)    185035.2  Rx         0022  5  0B 00 91 1E 03 
 41804)    185035.5  Rx         0021  5  00 00 00 00 00 
 41805)    185035.6  Rx         0031  6  F6 7E 0B 80 9D 80 
 41806)    185035.8  Rx         0023  5  00 00 00 00 00 
 41807)    185036.0  Rx         0020  5  0A 00 CB 1A 03 
 41808)    185036.3  Rx         0025  8  FF 03 FF 03 FF 03 FE 03 
 41809)    185036.4  Rx         0022  5  0B 00 91 1E 01 
 41810)    185036.7  Rx         0021  5  00 00 00 00 00 
 41811)    185036.8  Rx         0024  5  00 00 2F 18 03 
 41812)    185037.0  Rx         0023  5  00 00 00 00 00 
 41813)    185037.2  Rx         0020  5  0A 00 CB 1A 03 
 41814)    185037.4  Rx         0030  6  82 01 E8 89 04 C9 
 41815)    185037.6  Rx         0022  5  0B 00 90 1E 03 
 41816)    185037.8  Rx         0021  5  00 00 00 00 00 
 41817)    185038.0  Rx         0025  8  FF 03 FF 03 FF 03 FE 03 
 41818)    185038.2  Rx         0023  5  00 00 00 00 00 
 41819)    185038.4  Rx         0020  5  0A 00 CB 1A 03 
 41820)    185038.6  Rx         0024  5  00 00 2F 18 03 
 41821)    185038.8  Rx         0022  5  0B 00 90 1E 01 
 41822)    185039.0  Rx         0021  5  00 00 00 00 00 
 41823)    185039.2  Rx         0031  6  24 7F 45 80 D7 80 
 41824)    185039.3  Rx         0023  5  00 00 00 00 00 
 41825)    185039.6  Rx         0020  5  0A 00 CB 1A 03 
 41826)    185039.8  Rx         0025  8  FB 03 FC 03 FE 03 FD 03 
 41827)    185040.1  Rx         0021  5  00 00 00 00 00 
 41828)    185040.3  Rx         0024  5  00 00 2F 18 03 
 41829)    185040.6  Rx         0020  5  0A 00 CB 1A 03 
 41830)    185041.1  Rx         0021  5  00 00 00 00 00 
 41831)    185041.3  Rx         0025  8  FC 03 FC 03 FD 03 F9 03 
 41832)    185041.6  Rx         0020  5  0A 00 CB 1A 03 
 41833)    185041.8  Rx         0030  6  82 01 E8 89 04 C9 
 41834)    185042.0  Rx         0024  5  00 00 2F 18 03 
 41835)    185042.2  Rx         0021  5  00 00 00 00 00 
 41836)    185042.4  Rx         0026  6  55 19 4F 7C 0B 32 
 41837)    185042.7  Rx         0020  5  0A 00 CB 1A 03 
 41838)    185042.8  Rx         0022  5  0B 00 8F 1E 01 
 41839)    185043.1  Rx         0025  8  FD 03 FE 03 FE 03 FC 03 
 41840)    185043.3  Rx         0021  5  00 00 00 00 00 
 41841)    185043.5  Rx         0023  5  00 00 00 00 00 
 41842)    185043.7  Rx         0024  5  00 00 2F 18 03 
 41843)    185043.9  Rx         0020  5  0A 00 CB 1A 03 
 41844)    185044.0  Rx         0022  5  0B 00 8E 1E 03 
 41845)    185044.3  Rx         0031  6  24 7F 45 80 D7 80 
 41846)    185044.4  Rx         0021  5  00 00 00 00 00 
 41847)    185044.6  Rx         0023  5  00 00 00 00 00 
 41848)    185044.9  Rx         0025  8  FF 03 FF 03 FF 03 FF 03 
 41849)    185045.1  Rx         0020  5  0A 00 CB 1A 03 
 41850)    185045.3  Rx         0022  5  0B 00 8E 1E 01 
 41851)    185045.4  Rx         0024  5  00 00 2F 18 03 
 41852)    185045.6  Rx         0021  5  00 00 00 00 00 
 41853)    185045.8  Rx         0023  5  00 00 00 00 00 
 41854)    185046.0  Rx         0030  6  8E 01 D1 89 10 C9 
 41855)    185046.3  Rx         0020  5  0A 00 CB 1A 03 
 41856)    185046.4  Rx         0022  5  0B 00 8E 1E 01 
 41857)    185046.7  Rx         0025  8  FE 03 FE 03 FF 03 FE 03 
 41858)    185046.9  Rx         0021  5  00 00 00 00 00 
 41859)    185047.1  Rx         0023  5  00 00 00 00 00 
 41860)    185047.2  Rx         0024  5  00 00 2F 18 03 
 41861)    185047.4  Rx         0020  5  0A 00 CB 1A 03 
 41862)    185047.6  Rx         0022  5  0B 00 8D 1E 01 
 41863)    185047.8  Rx         0031  6  2D 7F 7D 80 D9 80 
 41864)    185048.0  Rx         0021  5  00 00 00 00 00 
 41865)    185048.2  Rx         0023  5  00 00 00 00 00 
 41866)    185048.4  Rx         0025  8  FF 03 FD 03 FF 03 FC 03 
 41867)    185048.6  Rx         0020  5  0A 00 CB 1A 03 
 41868)    185048.8  Rx         0022  5  0B 00 8C 1E 03 
 41869)    185049.0  Rx         0024  5  00 00 2F 18 03 
 41870)    185049.2  Rx         0021  5  00 00 00 00 00 
 41871)    185049.4  Rx         0023  5  00 00 00 00 00 
 41872)    185049.7  Rx         0020  5  0A 00 CB 1A 03 
 41873)    185049.9  Rx         0022  5  0B 00 8C 1E 03 
 41874)    185050.1  Rx         0025  8  FD 03 FE 03 FE 03 FC 03 
 41875)    185050.3  Rx         0021  5  00 00 00 00 00 
 41876)    185050.5  Rx         0023  5  00 00 00 00 00 
 41877)    185050.7  Rx         0024  5  00 00 2F 18 03 
 41878)    185050.9  Rx         0020  5  0A 00 CB 1A 03 
 41879)    185051.1  Rx         0030  6  8E 01 D1 89 10 C9 
 41880)    185051.4  Rx         0021  5  00 00 00 00 00 
 41881)    185051.6  Rx         0025  8  FE 03 FD 03 FE 03 FC 03 
 41882)    185051.9  Rx         0020  5  0A 00 CB 1A 03 
 41883)    185052.1  Rx         0024  5  00 00 2F 18 03 
 41884)    185052.4  Rx         0021  5  00 00 00 00 00 
 41885)    185052.9  Rx         0020  5  0A 00 CB 1A 03 
 41886)    185053.1  Rx         0025  8  FC 03 FE 03 FC 03 FB 03 
 41887)    185053.3  Rx         0026  6  6B 19 4F 7C 0B 32 
 41888)    185053.5  Rx         0021  5  00 00 00 00 00 
 41889)    185053.7  Rx         0024  5  00 00 2F 18 03 
 41890)    185053.9  Rx         0022  5  0B 00 8B 1E 01 
 41891)    185054.1  Rx         0020  5  0A 00 CB 1A 03 
 41892)    185054.3  Rx         0031  6  2D 7F 7D 80 D9 80 
 41893)    185054.5  Rx         0023  5  00 00 00 00 00 
 41894)    185054.7  Rx         0021  5  00 00 00 00 00 
 41895)    185054.9  Rx         0025  8  FF 03 FF 03 FF 03 FE 03 
 41896)    185055.1  Rx         0022  5  0B 00 8A 1E 03 
 41897)    185055.3  Rx         0020  5  0A 00 CB 1A 03 
 41898)    185055.5  Rx         0024  5  00 00 2F 18 03 
 41899)    185055.6  Rx         0023  5  00 00 00 00 00 
 41900)    185055.9  Rx         0021  5  00 00 00 00 00 
 41901)    185056.1  Rx         0022  5  0B 00 8A 1E 01 
 41902)    185056.3  Rx         0030  6  8E 01 C6 89 1B C9 
 41903)    185056.5  Rx         0020  5  0A 00 CB 1A 03 
 41904)    185056.7  Rx         0023  5  00 00 00 00 00 
 41905)    185057.0  Rx         0025  8  FF 03 FF 03 FF 03 FD 03 
 41906)    185057.1  Rx         0021  5  00 00 00 00 00 
 41907)    185057.4  Rx         0022  5  0B 00 89 1E 03 
 41908)    185057.5  Rx         0024  5  00 00 2F 18 03 
 41909)    185057.7  Rx         0020  5  0A 00 CB 1A 03 
 41910)    185057.9  Rx         0023  5  00 00 00 00 00 
 41911)    185058.1  Rx         0031  6  7A 7F 93 80 C3 80 
 41912)    185058.3  Rx         0021  5  00 00 00 00 00 
 41913)    185058.5  Rx         0022  5  0B 00 89 1E 03 
 41914)    185058.7  Rx         0025  8  FF 03 FF 03 FF 03 FE 03 
 41915)    185058.9  Rx         0020  5  0A 00 CB 1A 03 
 41916)    185059.1  Rx         0023  5  00 00 00 00 00 
 41917)    185059.3  Rx         0024  5  00 00 2F 18 03 
 41918)    185059.5  Rx         0021  5  00 00 00 00 00 
 41919)    185059.7  Rx         0022  5  0B 00 89 1E 01 
 41920)    185060.0  Rx         0020  5  0A 00 CB 1A 03 
 41921)    185060.2  Rx         0023  5  00 00 00 00 00 
 41922)    185060.4  Rx         0025  8  FE 03 FE 03 FF 03 FD 03 
 41923)    185060.6  Rx         0021  5  00 00 00 00 00 
 41924)    185060.8  Rx         0022  5  0B 00 88 1E 03 
 41925)    185061.0  Rx         0024  5  00 00 2F 18 03 
 41926)    185061.2  Rx         0020  5  0A 00 CB 1A 03 
 41927)    185061.4  Rx         0023  5  00 00 00 00 00 
 41928)    185061.6  Rx         0030  6  8E 01 C6 89 1B C9 
 41929)    185061.8  Rx         0021  5  00 00 00 00 00 
 41930)    185062.0  Rx         0025  8  FE 03 FE 03 FE 03 FD 03 
 41931)    185062.3  Rx         0020  5  0A 00 CB 1A 03 
 41932)    185062.5  Rx         0024  5  00 00 2F 18 03 
 41933)    185062.8  Rx         0021  5  00 00 00 00 00 
 41934)    185063.3  Rx         0020  5  0A 00 CB 1A 03 
 41935)    185063.5  Rx         0025  8  FC 03 FE 03 FD 03 F9 03 
 41936)    185063.8  Rx         0021  5  00 00 00 00 00 
 41937)    185064.0  Rx         0026  6  77 19 4F 7C 0B 32 
 41938)    185064.2  Rx         0024  5  00 00 2F 18 03 
 41939)    185064.4  Rx         0020  5  0A 00 CB 1A 03 
 41940)    185064.6  Rx         0022  5  0B 00 87 1E 01 
 41941)    185064.7  Rx         0031  6  7A 7F 93 80 C3 80 
 41942)    185064.9  Rx         0021  5  00 00 00 00 00 
 41943)    185065.1  Rx         0023  5  00 00 00 00 00 
 41944)    185065.4  Rx         0025  8  FF 03 FF 03 FF 03 FF 03 
 41945)    185065.5  Rx         0020  5  0A 00 CB 1A 03 
 41946)    185065.8  Rx         0022  5  0B 00 86 1E 03 
 41947)    185065.9  Rx         0024  5  00 00 2F 18 03 
 41948)    185066.1  Rx         0021  5  00 00 00 00 00 
 41949)    185066.3  Rx         0023  5  00 00 00 00 00 
 41950)    185066.5  Rx         0030  6  8E 01 AF 89 1B C9 
 41951)    185066.7  Rx         0020  5  0A 00 CB 1A 03 
 41952)    185066.9  Rx         0022  5  0B 00 86 1E 03 
 41953)    185067.1  Rx         0025  8  FF 03 FF 03 FF 03 FF 03 
 41954)    185067.3  Rx         0021  5  00 00 00 00 00 
 41955)    185067.5  Rx         0023  5  00 00 00 00 00 
 41956)    185067.7  Rx         0024  5  00 00 2F 18 03 
 41957)    185067.9  Rx         0020  5  0A 00 CB 1A 03 
 41958)    185068.1  Rx         0022  5  0B 00 86 1E 01 
 41959)    185068.3  Rx         0031  6  C0 7F A5 80 C2 80 
 41960)    185068.4  Rx         0021  5  00 00 00 00 00 
 41961)    185068.7  Rx         0023  5  00 00 00 00 00 
 41962)    185068.9  Rx         0025  8  FF 03 FE 03 FE 03 FD 03 
 41963)    185069.1  Rx         0020  5  0A 00 CB 1A 03 
 41964)    185069.3  Rx         0022  5  0B 00 85 1E 03 
 41965)    185069.4  Rx         0024  5  00 00 2F 18 03 
 41966)    185069.6  Rx         0021  5  00 00 00 00 00 
 41967)    185069.8  Rx         0023  5  00 00 00 00 00 
 41968)    185070.2  Rx         0020  5  0A 00 CB 1A 03 
 41969)    185070.3  Rx         0022  5  0B 00 85 1E 01 
 41970)    185070.6  Rx         0025  8  FF 03 FF 03 FF 03 FD 03 
 41971)    185070.8  Rx         0021  5  00 00 00 00 00 
 41972)    185071.0  Rx         0023  5  00 00 00 00 00 
 41973)    185071.1  Rx         0024  5  00 00 2F 18 03 
 41974)    185071.3  Rx         0020  5  0A 00 CB 1A 03 
 41975)    185071.5  Rx         0022  5  0B 00 84 1E 03 
 41976)    185071.7  Rx         0030  6  8E 01 AF 89 1B C9 
 41977)    185071.9  Rx         0021  5  00 00 00 00 00 
 41978)    185072.1  Rx         0023  5  00 00 00 00 00 
 41979)    185072.3  Rx         0025  8  FE 03 FD 03 FD 03 FC 03 
 41980)    185072.5  Rx         0020  5  0A 00 CB 1A 03 
 41981)    185072.7  Rx         0022  5  0B 00 84 1E 01 
 41982)    185072.9  Rx         0024  5  00 00 2F 18 03 
 41983)    185073.1  Rx         0021  5  00 00 00 00 00 
 41984)    185073.3  Rx         0023  5  00 00 00 00 00 
 41985)    185073.6  Rx         0020  5  0A 00 CB 1A 03 
 41986)    185073.9  Rx         0025  8  FF 03 FF 03 FF 03 FE 03 
 41987)    185074.1  Rx         0021  5  00 00 00 00 00 
 41988)    185074.3  Rx         0031  6  C0 7F A5 80 C2 80 
 41989)    185074.5  Rx         0024  5  00 00 2F 18 03 
 41990)    185074.7  Rx         0020  5  0A 00 CB 1A 03 
 41991)    185074.9  Rx         0026  6  A4 19 4F 7C 16 32 
 41992)    185075.2  Rx         0021  5  00 00 00 00 00 
 41993)    185075.4  Rx         0022  5  0B 00 83 1E 01 
 41994)    185075.6  Rx         0025  8  FF 03 FF 03 FF 03 FE 03 
 41995)    185075.8  Rx         0020  5  0A 00 CB 1A 03 
 41996)    185076.0  Rx         0023  5  00 00 00 00 00 
 41997)    185076.2  Rx         0024  5  00 00 2F 18 03 
 41998)    185076.4  Rx         0021  5  00 00 00 00 00 
 41999)    185076.6  Rx         0022  5  0B 00 83 1E 01 
 42000)    185076.8  Rx         0030  6  8E 01 A4 89 10 C9 
 42001)    185076.9  Rx         0020  5  0A 00 CB 1A 03 
 42002)    185077.2  Rx         0023  5  00 00 00 00 00 
 42003)    185077.4  Rx         0025  8  FF 03 FF 03 FF 03 FF 03 
 42004)    185077.6  Rx         0021  5  00 00 00 00 00 
 42005)    185077.8  Rx         0022  5  0B 00 82 1E 03 
 42006)    185077.9  Rx         0024  5  00 00 2F 18 03 
 42007)    185078.1  Rx         0020  5  0A 00 CB 1A 03 
 42008)    185078.3  Rx         0023  5  00 00 00 00 00 
 42009)    185078.5  Rx         0031  6  FB 7F 64 80 A9 80 
 42010)    185078.7  Rx         0021  5  00 00 00 00 00 
 42011)    185078.9  Rx         0022  5  0B 00 81 1E 03 
 42012)    185079.1  Rx         0025  8  FD 03 FC 03 FE 03 FD 03 
 42013)    185079.3  Rx         0020  5  0A 00 CB 1A 03 
 42014)    185079.5  Rx         0023  5  00 00 00 00 00 
 42015)    185079.7  Rx         0024  5  00 00 2F 18 03 
 42016)    185079.9  Rx         0021  5  00 00 00 00 00 
 42017)    185080.1  Rx         0022  5  0B 00 81 1E 03 
 42018)    185080.4  Rx         0020  5  0A 00 CB 1A 03 
 42019)    185080.6  Rx         0023  5  00 00 00 00 00 
 42020)    185080.8  Rx         0025  8  FE 03 FD 03 FE 03 FA 03 
 42021)    185081.0  Rx         0021  5  00 00 00 00 00 
 42022)    185081.2  Rx         0022  5  0B 00 81 1E 01 
 42023)    185081.4  Rx         0024  5  00 00 2F 18 03 
 42024)    185081.6  Rx         0020  5  0A 00 CB 1A 03 
 42025)    185081.8  Rx         0023  5  00 00 00 00 00 
 42026)    185082.0  Rx         0030  6  8E 01 A4 89 10 C9 
 42027)    185082.1  Rx         0021  5  00 00 00 00 00 
 42028)    185082.4  Rx         0022  5  0B 00 81 1E 01 
 42029)    185082.6  Rx         0025  8  FC 03 FD 03 FE 03 FC 03 
 42030)    185082.8  Rx         0020  5  0A 00 CB 1A 03 
 42031)    185083.0  Rx         0023  5  00 00 00 00 00 
 42032)    185083.2  Rx         0024  5  00 00 2F 18 03 
 42033)    185083.3  Rx         0021  5  00 00 00 00 00 
 42034)    185083.5  Rx         0022  5  0B 00 80 1E 03 
 42035)    185083.9  Rx         0020  5  0A 00 CB 1A 03 
 42036)    185084.0  Rx         0023  5  00 00 00 00 00 
 42037)    185084.3  Rx         0025  8  FF 03 FF 03 FF 03 FE 03 
 42038)    185084.5  Rx         0021  5  00 00 00 00 00 
 42039)    185084.7  Rx         0031  6  FB 7F 64 80 A9 80 
 42040)    185084.9  Rx         0024  5  00 00 2F 18 03 
 42041)    185085.1  Rx         0020  5  0A 00 CB 1A 03 
 42042)    185085.6  Rx         0021  5  00 00 00 00 00 
 42043)    185085.8  Rx         0025  8  FF 03 FD 03 FD 03 F9 03 
 42044)    185086.0  Rx         0026  6  B0 19 4F 7C 21 32 
 42045)    185086.2  Rx         0020  5  0A 00 CB 1A 03 
 42046)    185086.4  Rx         0024  5  00 00 2F 18 03 
 42047)    185086.6  Rx         0022  5  0B 00 7F 1E 03 
 42048)    185086.8  Rx         0021  5  00 00 00 00 00 
 42049)    185087.0  Rx         0030  6  82 01 99 89 10 C9 
 42050)    185087.1  Rx         0023  5  00 00 00 00 00 
 42051)    185087.4  Rx         0020  5  0A 00 CB 1A 03 
 42052)    185087.6  Rx         0025  8  FF 03 FF 03 FF 03 FF 03 
 42053)    185087.8  Rx         0022  5  0B 00 7E 1E 03 
 42054)    185088.0  Rx         0021  5  00 00 00 00 00 
 42055)    185088.2  Rx         0024  5  00 00 2F 18 03 
 42056)    185088.3  Rx         0023  5  00 00 00 00 00 
 42057)    185088.5  Rx         0020  5  0A 00 CB 1A 03 
 42058)    185088.7  Rx         0031  6  20 80 02 80 99 80 
 42059)    185088.9  Rx         0022  5  0B 00 7E 1E 03 
 42060)    185089.1  Rx         0021  5  00 00 00 00 00 
 42061)    185089.4  Rx         0025  8  FF 03 FE 03 FE 03 FD 03 
 42062)    185089.5  Rx         0023  5  00 00 00 00 00 
 42063)    185089.7  Rx         0020  5  0A 00 CB 1A 03 
 42064)    185089.9  Rx         0024  5  00 00 2F 18 03 
 42065)    185090.1  Rx         0022  5  0B 00 7E 1E 01 
 42066)    185090.3  Rx         0021  5  00 00 00 00 00 
 42067)    185090.6  Rx         0023  5  00 00 00 00 00 
 42068)    185090.9  Rx         0025  8  FD 03 FE 03 FF 03 FD 03 
 42069)    185091.1  Rx         0020  5  0A 00 CB 1A 03 
 42070)    185091.2  Rx         0022  5  0B 00 7E 1E 01 
 42071)    185091.5  Rx         0024  5  00 00 2F 18 03 
 42072)    185091.6  Rx         0021  5  00 00 00 00 00 
 42073)    185091.8  Rx         0023  5  00 00 00 00 00 
 42074)    185092.0  Rx         0030  6  82 01 99 89 10 C9 
 42075)    185092.2  Rx         0020  5  0A 00 CB 1A 03 
 42076)    185092.4  Rx         0022  5  0B 00 7D 1E 03 
 42077)    185092.6  Rx         0025  8  FC 03 FD 03 FE 03 FC 03 
 42078)    185092.8  Rx         0021  5  00 00 00 00 00 
 42079)    185093.0  Rx         0023  5  00 00 00 00 00 
 42080)    185093.2  Rx         0024  5  00 00 2F 18 03 
 42081)    185093.4  Rx         0020  5  0A 00 CB 1A 03 
 42082)    185093.5  Rx         0022  5  0B 00 7D 1E 01 
 42083)    185093.9  Rx         0021  5  00 00 00 00 00 
 42084)    185094.1  Rx         0023  5  00 00 00 00 00 
 42085)    185094.3  Rx         0025  8  FF 03 FD 03 FE 03 FD 03 
 42086)    185094.5  Rx         0020  5  0A 00 CB 1A 03 
 42087)    185094.7  Rx         0022  5  0B 00 7D 1E 01 
 42088)    185094.9  Rx         0024  5  00 00 2F 18 03 
 42089)    185095.1  Rx         0021  5  00 00 00 00 00 
 42090)    185095.3  Rx         0023  5  00 00 00 00 00 
 42091)    185095.5  Rx         0031  6  20 80 02 80 99 80 
 42092)    185095.6  Rx         0020  5  0A 00 CB 1A 03 
 42093)    185095.9  Rx         0025  8  FF 03 FF 03 FF 03 FF 03 
 42094)    185096.1  Rx         0021  5  00 00 00 00 00 
 42095)    185096.4  Rx         0024  5  00 00 2F 18 03 
 42096)    185096.7  Rx         0020  5  0A 00 CB 1A 03 
 42097)    185096.9  Rx         0026  6  BB 19 5A 7C 21 32 
 42098)    185097.1  Rx         0030  6  77 01 8D 89 04 C9 
 42099)    185097.3  Rx         0021  5  00 00 00 00 00 
 42100)    185097.5  Rx         0022  5  0B 00 7B 1E 03 
 42101)    185097.7  Rx         0025  8  FD 03 FD 03 FE 03 FC 03 
 42102)    185097.9  Rx         0020  5  0A 00 CB 1A 03 
 42103)    185098.1  Rx         0023  5  00 00 00 00 00 
 42104)    185098.3  Rx         0024  5  00 00 2F 18 03 
 42105)    185098.5  Rx         0021  5  00 00 00 00 00 
 42106)    185098.7  Rx         0022  5  0B 00 7B 1E 03 
 42107)    185098.9  Rx         0031  6  23 80 5A 80 B2 80 
 42108)    185099.0  Rx         0020  5  0A 00 CB 1A 03 
 42109)    185099.3  Rx         0023  5  00 00 00 00 00 
 42110)    185099.5  Rx         0025  8  FF 03 FE 03 FE 03 FC 03 
 42111)    185099.7  Rx         0021  5  00 00 00 00 00 
 42112)    185099.9  Rx         0022  5  0B 00 7B 1E 01 
 42113)    185100.0  Rx         0024  5  00 00 2F 18 03 
 42114)    185100.2  Rx         0020  5  0A 00 CB 1A 03 
 42115)    185100.4  Rx         0023  5  00 00 00 00 00 
 42116)    185100.7  Rx         0021  5  00 00 00 00 00 
 42117)    185100.9  Rx         0022  5  0B 00 7A 1E 03 
 42118)    185101.2  Rx         0025  8  FE 03 FE 03 FE 03 FC 03 
 42119)    185101.4  Rx         0020  5  0A 00 CB 1A 03 
 42120)    185101.5  Rx         0023  5  00 00 00 00 00 
 42121)    185101.7  Rx         0024  5  00 00 2F 18 03 
 42122)    185101.9  Rx         0021  5  00 00 00 00 00 
 42123)    185102.1  Rx         0022  5  0B 00 7A 1E 01 
 42124)    185102.3  Rx         0030  6  77 01 8D 89 04 C9 
 42125)    185102.5  Rx         0020  5  0A 00 CB 1A 03 
 42126)    185102.7  Rx         0023  5  00 00 00 00 00 
 42127)    185102.9  Rx         0025  8  FE 03 FD 03 FE 03 FC 03 
 42128)    185103.1  Rx         0021  5  00 00 00 00 00 
 42129)    185103.3  Rx         0022  5  0B 00 79 1E 03 
 42130)    185103.5  Rx         0024  5  00 00 2F 18 03 
 42131)    185103.7  Rx         0020  5  0A 00 CB 1A 03 
 42132)    185103.9  Rx         0023  5  00 00 00 00 00 
 42133)    185104.2  Rx         0021  5  00 00 00 00 00 
 42134)    185104.4  Rx         0022  5  0B 00 79 1E 01 
 42135)    185104.6  Rx         0025  8  FF 03 FF 03 FF 03 FE 03 
 42136)    185104.8  Rx         0020  5  0A 00 CB 1A 03 
 42137)    185105.0  Rx         0023  5  00 00 00 00 00 
 42138)    185105.2  Rx         0024  5  00 00 2F 18 03 
 42139)    185105.4  Rx         0021  5  00 00 00 00 00 
 42140)    185105.5  Rx         0022  5  0B 00 79 1E 01 
 42141)    185105.7  Rx         0031  6  23 80 5A 80 B2 80 
 42142)    185106.0  Rx         0020  5  0A 00 CB 1A 03 
 42143)    185106.1  Rx         0023  5  00 00 00 00 00 
 42144)    185106.3  Rx         0025  8  FF 03 FF 03 FF 03 FE 03 
 42145)    185106.6  Rx         0021  5  00 00 00 00 00 
 42146)    185106.9  Rx         0024  5  00 00 2F 18 03 
 42147)    185107.1  Rx         0020  5  0A 00 CB 1A 03 
 42148)    185107.4  Rx         0030  6  82 01 82 89 F9 C8 
 42149)    185107.6  Rx         0021  5  00 00 00 00 00 
 42150)    185107.8  Rx         0025  8  FD 03 FD 03 FC 03 FD 03 
 42151)    185108.1  Rx         0026  6  D2 19 5A 7C 2D 32 
 42152)    185108.2  Rx         0020  5  0A 00 CB 1A 03 
 42153)    185108.4  Rx         0024  5  00 00 2F 18 03 
 42154)    185108.6  Rx         0022  5  0B 00 78 1E 01 
 42155)    185108.8  Rx         0021  5  00 00 00 00 00 
 42156)    185109.1  Rx         0023  5  00 00 00 00 00 
 42157)    185109.4  Rx         0025  8  FC 03 FD 03 FE 03 FC 03 
 42158)    185109.5  Rx         0020  5  0A 00 CB 1A 03 
 42159)    185109.7  Rx         0022  5  0B 00 77 1E 03 
 42160)    185109.9  Rx         0024  5  00 00 2F 18 03 
 42161)    185110.1  Rx         0021  5  00 00 00 00 00 
 42162)    185110.3  Rx         0023  5  00 00 00 00 00 
 42163)    185110.5  Rx         0031  6  24 80 9D 80 86 80 
 42164)    185110.7  Rx         0020  5  0A 00 CB 1A 03 
 42165)    185110.9  Rx         0022  5  0B 00 77 1E 01 
 42166)    185111.1  Rx         0025  8  FC 03 FC 03 FE 03 FB 03 
 42167)    185111.3  Rx         0021  5  00 00 00 00 00 
 42168)    185111.5  Rx         0023  5  00 00 00 00 00 
 42169)    185111.7  Rx         0024  5  00 00 2F 18 03 
 42170)    185111.9  Rx         0020  5  0A 00 CB 1A 03 
 42171)    185112.0  Rx         0022  5  0B 00 76 1E 03 
 42172)    185112.4  Rx         0021  5  00 00 00 00 00 
 42173)    185112.6  Rx         0023  5  00 00 00 00 00 
 42174)    185112.8  Rx         0025  8  FF 03 FD 03 FE 03 FA 03 
 42175)    185113.0  Rx         0020  5  0A 00 CB 1A 03 
 42176)    185113.2  Rx         0022  5  0B 00 76 1E 01 
 42177)    185113.4  Rx         0024  5  00 00 2F 18 03 
 42178)    185113.6  Rx         0021  5  00 00 00 00 00 
 42179)    185113.8  Rx         0023  5  00 00 00 00 00 
 42180)    185113.9  Rx         0030  6  82 01 82 89 F9 C8 
 42181)    185114.2  Rx         0020  5  0A 00 CB 1A 03 
 42182)    185114.3  Rx         0022  5  0B 00 75 1E 03 
 42183)    185114.6  Rx         0025  8  FF 03 FF 03 FF 03 FF 03 
 42184)    185114.8  Rx         0021  5  00 00 00 00 00 
 42185)    185115.0  Rx         0023  5  00 00 00 00 00 
 42186)    185115.1  Rx         0024  5  00 00 2F 18 03 
 42187)    185115.3  Rx         0020  5  0A 00 CB 1A 03 
 42188)    185115.5  Rx         0022  5  0B 00 75 1E 03 
 42189)    185115.8  Rx         0021  5  00 00 00 00 00 
 42190)    185116.0  Rx         0023  5  00 00 00 00 00 
 42191)    185116.2  Rx         0025  8  FF 03 FF 03 FF 03 FD 03 
 42192)    185116.4  Rx         0020  5  0A 00 CB 1A 03 
 42193)    185116.6  Rx         0022  5  0B 00 75 1E 01 
 42194)    185116.8  Rx         0024  5  00 00 2F 18 03 
 42195)    185117.0  Rx         0021  5  00 00 00 00 00 
 42196)    185117.2  Rx         0023  5  00 00 00 00 00 
 42197)    185117.4  Rx         0031  6  24 80 9D 80 86 80 
 42198)    185117.6  Rx         0020  5  0A 00 CB 1A 03 
 42199)    185117.8  Rx         0025  8  FF 03 FF 03 FF 03 FF 03 
 42200)    185118.1  Rx         0021  5  00 00 00 00 00 
 42201)    185118.3  Rx         0024  5  00 00 2F 18 03 
 42202)    185118.6  Rx         0020  5  0A 00 CB 1A 03 
 42203)    185119.0  Rx         0030  6  82 01 76 89 F9 C8 
 42204)    185119.2  Rx         0021  5  00 00 00 00 00 
 42205)    185119.5  Rx         0025  8  FC 03 FD 03 FC 03 FA 03 
 42206)    185119.7  Rx         0026  6  DD 19 5A 7C 2D 32 
 42207)    185119.9  Rx         0020  5  0A 00 CB 1A 03 
 42208)    185120.0  Rx         0024  5  00 00 2F 18 03 
 42209)    185120.3  Rx         0022  5  0B 00 73 1E 03 
 42210)    185120.4  Rx         0021  5  00 00 00 00 00 
 42211)    185120.7  Rx         0023  5  00 00 00 00 00 
 42212)    185120.9  Rx         0020  5  0A 00 CB 1A 03 
 42213)    185121.2  Rx         0025  8  FE 03 FE 03 FF 03 FD 03 
 42214)    185121.4  Rx         0022  5  0B 00 73 1E 01 
 42215)    185121.5  Rx         0021  5  00 00 00 00 00 
 42216)    185121.8  Rx         0024  5  00 00 2F 18 03 
 42217)    185121.9  Rx         0023  5  00 00 00 00 00 
 42218)    185122.1  Rx         0020  5  0A 00 CB 1A 03 
 42219)    185122.4  Rx         0031  6  4A 80 58 80 59 80 
 42220)    185122.5  Rx         0022  5  0B 00 72 1E 03 
 42221)    185122.7  Rx         0021  5  00 00 00 00 00 
 42222)    185122.9  Rx         0025  8  FD 03 FD 03 FE 03 FC 03 
 42223)    185123.1  Rx         0023  5  00 00 00 00 00 
 42224)    185123.3  Rx         0020  5  0A 00 CB 1A 03 
 42225)    185123.5  Rx         0024  5  00 00 2F 18 03 
 42226)    185123.7  Rx         0022  5  0B 00 72 1E 03 
 42227)    185123.9  Rx         0021  5  00 00 00 00 00 
 42228)    185124.1  Rx         0023  5  00 00 00 00 00 
 42229)    185124.4  Rx         0025  8  FF 03 FF 03 FF 03 FF 03 
 42230)    185124.7  Rx         0020  5  0A 00 CB 1A 03 
 42231)    185124.8  Rx         0022  5  0B 00 72 1E 01 
 42232)    185125.0  Rx         0024  5  00 00 2F 18 03 
 42233)    185125.2  Rx         0021  5  00 00 00 00 00 
 42234)    185125.4  Rx         0023  5  00 00 00 00 00 
 42235)    185125.6  Rx         0030  6  82 01 76 89 F9 C8 
 42236)    185125.8  Rx         0020  5  0A 00 CB 1A 03 
 42237)    185125.9  Rx         0022  5  0B 00 71 1E 01 
 42238)    185126.2  Rx         0025  8  FF 03 FF 03 FF 03 FF 03 
 42239)    185126.4  Rx         0021  5  00 00 00 00 00 
 42240)    185126.6  Rx         0023  5  00 00 00 00 00 
 42241)    185126.8  Rx         0024  5  00 00 2F 18 03 
 42242)    185127.0  Rx         0020  5  0A 00 CB 1A 03 
 42243)    185127.1  Rx         0022  5  0B 00 70 1E 03 
 42244)    185127.3  Rx         0031  6  6E 80 37 80 27 80 
 42245)    185127.5  Rx         0021  5  00 00 00 00 00 
 42246)    185127.7  Rx         0023  5  00 00 00 00 00 
 42247)    185128.0  Rx         0025  8  FD 03 FE 03 FF 03 FE 03 
 42248)    185128.2  Rx         0020  5  0A 00 CB 1A 03 
 42249)    185128.5  Rx         0024  5  00 00 2F 18 03 
 42250)    185128.7  Rx         0021  5  00 00 00 00 00 
 42251)    185129.2  Rx         0030  6  82 01 76 89 E2 C8 
 42252)    185129.4  Rx         0020  5  0A 00 CB 1A 03 
 42253)    185129.6  Rx         0025  8  FC 03 FC 03 FB 03 F9 03 
 42254)    185129.8  Rx         0021  5  00 00 00 00 00 
 42255)    185130.1  Rx         0024  5  00 00 2F 18 03 
 42256)    185130.3  Rx         0026  6  F4 19 65 7C 2D 32 
 42257)    185130.5  Rx         0020  5  0A 00 CB 1A 03 
 42258)    185130.8  Rx         0022  5  0B 00 6F 1E 03 
 42259)    185131.0  Rx         0025  8  FE 03 FF 03 FF 03 FB 03 
 42260)    185131.2  Rx         0021  5  00 00 00 00 00 
 42261)    185131.4  Rx         0023  5  00 00 00 00 00 
 42262)    185131.6  Rx         0024  5  00 00 2F 18 03 
 42263)    185131.8  Rx         0020  5  0A 00 CB 1A 03 
 42264)    185132.0  Rx         0022  5  0B 00 6F 1E 01 
 42265)    185132.2  Rx         0031  6  6E 80 37 80 27 80 
 42266)    185132.4  Rx         0021  5  00 00 00 00 00 
 42267)    185132.6  Rx         0023  5  00 00 00 00 00 
 42268)    185132.8  Rx         0025  8  FF 03 FE 03 FE 03 FD 03 
 42269)    185133.0  Rx         0020  5  0A 00 CB 1A 03 
 42270)    185133.1  Rx         0022  5  0B 00 6E 1E 01 
 42271)    185133.4  Rx         0024  5  00 00 2F 18 03 
 42272)    185133.5  Rx         0021  5  00 00 00 00 00 
 42273)    185133.7  Rx         0023  5  00 00 00 00 00 
 42274)    185134.0  Rx         0020  5  0A 00 CB 1A 03 
 42275)    185134.2  Rx         0022  5  0B 00 6E 1E 01 
 42276)    185134.5  Rx         0025  8  FF 03 FF 03 FF 03 FE 03 
 42277)    185134.6  Rx         0021  5  00 00 00 00 00 
 42278)    185134.9  Rx         0023  5  00 00 00 00 00 
 42279)    185135.0  Rx         0024  5  00 00 2F 18 03 
 42280)    185135.2  Rx         0020  5  0A 00 CB 1A 03 
 42281)    185135.4  Rx         0022  5  0B 00 6D 1E 03 
 42282)    185135.6  Rx         0030  6  82 01 76 89 E2 C8 
 42283)    185135.8  Rx         0021  5  00 00 00 00 00 
 42284)    185136.0  Rx         0023  5  00 00 00 00 00 
 42285)    185136.2  Rx         0025  8  FE 03 FF 03 FF 03 FE 03 
 42286)    185136.4  Rx         0020  5  0A 00 CB 1A 03 
 42287)    185136.6  Rx         0022  5  0B 00 6D 1E 01 
 42288)    185136.8  Rx         0024  5  00 00 2F 18 03 
 42289)    185137.0  Rx         0021  5  00 00 00 00 00 
 42290)    185137.2  Rx         0023  5  00 00 00 00 00 
 42291)    185137.4  Rx         0031  6  8A 80 2B 80 13 80 
 42292)    185137.5  Rx         0020  5  0A 00 CB 1A 03 
 42293)    185137.8  Rx         0022  5  0B 00 6C 1E 03 
 42294)    185138.0  Rx         0025  8  FD 03 FE 03 FF 03 FF 03 
 42295)    185138.2  Rx         0021  5  00 00 00 00 00 
 42296)    185138.4  Rx         0023  5  00 00 00 00 00 
 42297)    185138.6  Rx         0024  5  00 00 2F 18 03 
 42298)    185138.7  Rx         0020  5  0A 00 CB 1A 03 
 42299)    185138.9  Rx         0022  5  0B 00 6C 1E 01 
 42300)    185139.3  Rx         0021  5  00 00 00 00 00 
 42301)    185139.5  Rx         0023  5  00 00 00 00 00 
 42302)    185139.7  Rx         0025  8  FE 03 FD 03 FE 03 FA 03 
 42303)    185139.8  Rx         0020  5  0A 00 CB 1A 03 
 42304)    185140.1  Rx         0030  6  82 01 76 89 D7 C8 
 42305)    185140.3  Rx         0024  5  00 00 2F 18 03 
 42306)    185140.4  Rx         0021  5  00 00 00 00 00 
 42307)    185141.0  Rx         0020  5  0A 00 CB 1A 03 
 42308)    185141.2  Rx         0025  8  FE 03 FE 03 FC 03 FB 03 
 42309)    185141.5  Rx         0021  5  00 00 00 00 00 
 42310)    185141.7  Rx         0024  5  00 00 2F 18 03 
 42311)    185141.9  Rx         0026  6  0B 1A 65 7C 38 32 
 42312)    185142.1  Rx         0020  5  0A 00 CB 1A 03 
 42313)    185142.4  Rx         0022  5  0B 00 6A 1E 03 
 42314)    185142.6  Rx         0031  6  8A 80 2B 80 13 80 
 42315)    185142.8  Rx         0021  5  00 00 00 00 00 
 42316)    185143.0  Rx         0023  5  00 00 00 00 00 
 42317)    185143.2  Rx         0025  8  FF 03 FE 03 FF 03 FC 03 
 42318)    185143.4  Rx         0020  5  0A 00 CB 1A 03 
 42319)    185143.6  Rx         0022  5  0B 00 6A 1E 01 
 42320)    185143.8  Rx         0024  5  00 00 2F 18 03 
 42321)    185143.9  Rx         0021  5  00 00 00 00 00 
 42322)    185144.2  Rx         0023  5  00 00 00 00 00 
 42323)    185144.5  Rx         0020  5  0A 00 CB 1A 03 
 42324)    185144.6  Rx         0022  5  0B 00 69 1E 03 
 42325)    185144.9  Rx         0025  8  FF 03 FF 03 FF 03 FC 03 
 42326)    185145.1  Rx         0021  5  00 00 00 00 00 
 42327)    185145.3  Rx         0023  5  00 00 00 00 00 
 42328)    185145.4  Rx         0024  5  00 00 2F 18 03 
 42329)    185145.7  Rx         0020  5  0A 00 CB 1A 03 
 42330)    185145.8  Rx         0022  5  0B 00 69 1E 01 
 42331)    185146.0  Rx         0030  6  82 01 76 89 D7 C8 
 42332)    185146.2  Rx         0021  5  00 00 00 00 00 
 42333)    185146.4  Rx         0023  5  00 00 00 00 00 
 42334)    185146.6  Rx         0025  8  FF 03 FD 03 FF 03 FE 03 
 42335)    185146.8  Rx         0020  5  0A 00 CB 1A 03 
 42336)    185147.0  Rx         0022  5  0B 00 68 1E 03 
 42337)    185147.2  Rx         0024  5  00 00 2F 18 03 
 42338)    185147.4  Rx         0021  5  00 00 00 00 00 
 42339)    185147.6  Rx         0023  5  00 00 00 00 00 
 42340)    185147.8  Rx         0031  6  9C 80 F8 7F 03 80 
 42341)    185148.0  Rx         0020  5  0A 00 CB 1A 03 
 42342)    185148.2  Rx         0022  5  0B 00 68 1E 01 
 42343)    185148.4  Rx         0025  8  FD 03 FE 03 FE 03 FE 03 
 42344)    185148.6  Rx         0021  5  00 00 00 00 00 
 42345)    185148.8  Rx         0023  5  00 00 00 00 00 
 42346)    185149.0  Rx         0024  5  00 00 2F 18 03 
 42347)    185149.2  Rx         0020  5  0A 00 CB 1A 03 
 42348)    185149.3  Rx         0022  5  0B 00 67 1E 03 
 42349)    185149.7  Rx         0021  5  00 00 00 00 00 
 42350)    185149.8  Rx         0023  5  00 00 00 00 00 
 42351)    185150.1  Rx         0025  8  FE 03 FD 03 FE 03 F9 03 
 42352)    185150.3  Rx         0020  5  0A 00 CB 1A 03 
 42353)    185150.5  Rx         0030  6  77 01 76 89 C0 C8 
 42354)    185150.7  Rx         0024  5  00 00 2F 18 03 
 42355)    185150.9  Rx         0021  5  00 00 00 00 00 
 42356)    185151.4  Rx         0020  5  0A 00 CB 1A 03 
 42357)    185151.6  Rx         0025  8  FF 03 FF 03 FC 03 FA 03 
 42358)    185151.9  Rx         0021  5  00 00 00 00 00 
 42359)    185152.1  Rx         0024  5  00 00 2F 18 03 
 42360)    185152.3  Rx         0026  6  22 1A 65 7C 38 32 
 42361)    185152.5  Rx         0020  5  0A 00 CB 1A 03 
 42362)    185152.8  Rx         0022  5  0B 00 66 1E 01 
 42363)    185153.0  Rx         0031  6  9C 80 F8 7F 03 80 
 42364)    185153.2  Rx         0021  5  00 00 00 00 00 
 42365)    185153.4  Rx         0023  5  00 00 00 00 00 
 42366)    185153.6  Rx         0025  8  FF 03 FF 03 FF 03 FC 03 
 42367)    185153.8  Rx         0020  5  0A 00 CB 1A 03 
 42368)    185154.0  Rx         0022  5  0B 00 65 1E 03 
 42369)    185154.2  Rx         0024  5  00 00 2F 18 03 
 42370)    185154.4  Rx         0021  5  00 00 00 00 00 
 42371)    185154.6  Rx         0023  5  00 00 00 00 00 
 42372)    185154.9  Rx         0020  5  0A 00 CB 1A 03 
 42373)    185155.1  Rx         0022  5  0B 00 65 1E 01 
 42374)    185155.3  Rx         0025  8  FF 03 FF 03 FF 03 FE 03 
 42375)    185155.6  Rx         0021  5  00 00 00 00 00 
 42376)    185155.7  Rx         0023  5  00 00 00 00 00 
 42377)    185155.9  Rx         0024  5  00 00 2F 18 03 
 42378)    185156.1  Rx         0020  5  0A 00 CB 1A 03 
 42379)    185156.3  Rx         0022  5  0B 00 64 1E 03 
 42380)    185156.5  Rx         0030  6  77 01 76 89 C0 C8 
 42381)    185156.7  Rx         0021  5  00 00 00 00 00 
 42382)    185156.9  Rx         0023  5  00 00 00 00 00 
 42383)    185157.1  Rx         0025  8  FF 03 FF 03 FF 03 FE 03 
 42384)    185157.3  Rx         0020  5  0A 00 CB 1A 03 
 42385)    185157.5  Rx         0022  5  0B 00 64 1E 01 
 42386)    185157.7  Rx         0024  5  00 00 2F 18 03 
 42387)    185157.9  Rx         0021  5  00 00 00 00 00 
 42388)    185158.1  Rx         0023  5  00 00 00 00 00 
 42389)    185158.2  Rx         0031  6  95 80 E5 7F F6 7F 
 42390)    185158.5  Rx         0020  5  0A 00 CB 1A 03 
 42391)    185158.6  Rx         0022  5  0B 00 64 1E 01 
 42392)    185158.9  Rx         0025  8  FF 03 FF 03 FF 03 FE 03 
 42393)    185159.1  Rx         0021  5  00 00 00 00 00 
 42394)    185159.3  Rx         0023  5  00 00 00 00 00 
 42395)    185159.4  Rx         0024  5  00 00 2F 18 03 
 42396)    185159.7  Rx         0020  5  0A 00 CB 1A 03 
 42397)    185159.8  Rx         0022  5  0B 00 63 1E 03 
 42398)    185160.1  Rx         0021  5  00 00 00 00 00 
 42399)    185160.3  Rx         0023  5  00 00 00 00 00 
 42400)    185160.5  Rx         0025  8  FB 03 FD 03 FE 03 FA 03 
 42401)    185160.8  Rx         0020  5  0A 00 CB 1A 03 
 42402)    185160.9  Rx         0022  5  0B 00 62 1E 03 
 42403)    185161.1  Rx         0024  5  00 00 2F 18 03 
 42404)    185161.3  Rx         0021  5  00 00 00 00 00 
 42405)    185161.5  Rx         0023  5  00 00 00 00 00 
 42406)    185161.7  Rx         0030  6  6C 01 76 89 B5 C8 
 42407)    185161.9  Rx         0020  5  0A 00 CB 1A 03 
 42408)    185162.1  Rx         0025  8  FE 03 FE 03 FE 03 FD 03 
 42409)    185162.4  Rx         0021  5  00 00 00 00 00 
 42410)    185162.6  Rx         0024  5  00 00 2F 18 03 
 42411)    185162.9  Rx         0020  5  0A 00 CB 1A 03 
 42412)    185163.4  Rx         0021  5  00 00 00 00 00 
 42413)    185163.7  Rx         0025  8  FC 03 FD 03 FD 03 FB 03 
 42414)    185163.9  Rx         0026  6  38 1A 65 7C 44 32 
 42415)    185164.0  Rx         0020  5  0A 00 CB 1A 03 
 42416)    185164.2  Rx         0024  5  00 00 2F 18 03 
 42417)    185164.4  Rx         0022  5  0B 00 61 1E 03 
 42418)    185164.6  Rx         0021  5  00 00 00 00 00 
 42419)    185164.8  Rx         0031  6  95 80 E5 7F F6 7F 
 42420)    185165.0  Rx         0023  5  00 00 00 00 00 
 42421)    185165.2  Rx         0020  5  0A 00 CB 1A 03 
 42422)    185165.5  Rx         0025  8  FF 03 FF 03 FF 03 FF 03 
 42423)    185165.6  Rx         0022  5  0B 00 61 1E 01 
 42424)    185165.8  Rx         0021  5  00 00 00 00 00 
 42425)    185166.0  Rx         0024  5  00 00 2F 18 03 
 42426)    185166.2  Rx         0023  5  00 00 00 00 00 
 42427)    185166.4  Rx         0020  5  0A 00 CB 1A 03 
 42428)    185166.6  Rx         0030  6  6C 01 76 89 A9 C8 
 42429)    185166.7  Rx         0022  5  0B 00 60 1E 01 
 42430)    185167.0  Rx         0021  5  00 00 00 00 00 
 42431)    185167.2  Rx         0025  8  FE 03 FE 03 FF 03 FD 03 
 42432)    185167.4  Rx         0023  5  00 00 00 00 00 
 42433)    185167.5  Rx         0020  5  0A 00 CB 1A 03 
 42434)    185167.8  Rx         0024  5  00 00 2F 18 03 
 42435)    185167.9  Rx         0022  5  0B 00 60 1E 01 
 42436)    185168.1  Rx         0021  5  00 00 00 00 00 
 42437)    185168.3  Rx         0031  6  7D 80 FC 7F 00 80 
 42438)    185168.5  Rx         0023  5  00 00 00 00 00 
 42439)    185168.7  Rx         0020  5  0A 00 CB 1A 03 
 42440)    185169.0  Rx         0025  8  FE 03 FE 03 FF 03 FE 03 
 42441)    185169.1  Rx         0022  5  0B 00 5F 1E 01 
 42442)    185169.3  Rx         0021  5  00 00 00 00 00 
 42443)    185169.5  Rx         0024  5  00 00 2F 18 03 
 42444)    185169.7  Rx         0023  5  00 00 00 00 00 
 42445)    185169.9  Rx         0020  5  0A 00 CB 1A 03 
 42446)    185170.2  Rx         0022  5  0B 00 5F 1E 01 
 42447)    185170.4  Rx         0025  8  FF 03 FF 03 FF 03 FC 03 
 42448)    185170.7  Rx         0021  5  00 00 00 00 00 
 42449)    185170.8  Rx         0023  5  00 00 00 00 00 
 42450)    185171.0  Rx         0024  5  00 00 2F 18 03 
 42451)    185171.2  Rx         0020  5  0A 00 CB 1A 03 
 42452)    185171.4  Rx         0022  5  0B 00 5E 1E 03 
 42453)    185171.6  Rx         0030  6  6C 01 76 89 A9 C8 
 42454)    185171.8  Rx         0021  5  00 00 00 00 00 
 42455)    185172.0  Rx         0023  5  00 00 00 00 00 
 42456)    185172.2  Rx         0025  8  FE 03 FB 03 FD 03 FB 03 
 42457)    185172.4  Rx         0020  5  0A 00 CB 1A 03 
 42458)    185172.7  Rx         0024  5  00 00 2F 18 03 
 42459)    185172.9  Rx         0021  5  00 00 00 00 00 
 42460)    185173.4  Rx         0020  5  0A 00 CB 1A 03 
 42461)    185173.7  Rx         0025  8  FF 03 FF 03 FC 03 FA 03 
 42462)    185173.9  Rx         0021  5  00 00 00 00 00 
 42463)    185174.1  Rx         0026  6  5A 1A 65 7C 44 32 
 42464)    185174.3  Rx         0024  5  00 00 2F 18 03 
 42465)    185174.5  Rx         0020  5  0A 00 CB 1A 03 
 42466)    185174.7  Rx         0022  5  0B 00 5D 1E 03 
 42467)    185174.9  Rx         0031  6  7D 80 FC 7F 00 80 
 42468)    185175.1  Rx         0021  5  00 00 00 00 00 
 42469)    185175.2  Rx         0023  5  00 00 00 00 00 
 42470)    185175.5  Rx         0025  8  FD 03 FC 03 FE 03 FD 03 
 42471)    185175.7  Rx         0020  5  0A 00 CB 1A 03 
 42472)    185175.9  Rx         0022  5  0B 00 5D 1E 01 
 42473)    185176.0  Rx         0024  5  00 00 2F 18 03 
 42474)    185176.3  Rx         0021  5  00 00 00 00 00 
 42475)    185176.4  Rx         0023  5  00 00 00 00 00 
 42476)    185176.6  Rx         0030  6  6C 01 76 89 9E C8 
 42477)    185176.8  Rx         0020  5  0A 00 CB 1A 03 
 42478)    185177.0  Rx         0022  5  0B 00 5C 1E 01 
 42479)    185177.2  Rx         0025  8  FF 03 FE 03 FF 03 FE 03 
 42480)    185177.4  Rx         0021  5  00 00 00 00 00 
 42481)    185177.6  Rx         0023  5  00 00 00 00 00 
 42482)    185177.8  Rx         0024  5  00 00 2F 18 03 
 42483)    185178.0  Rx         0020  5  0A 00 CB 1A 03 
 42484)    185178.2  Rx         0022  5  0B 00 5C 1E 01 
 42485)    185178.4  Rx         0031  6  67 80 08 80 0E 80 
 42486)    185178.6  Rx         0021  5  00 00 00 00 00 
 42487)    185178.8  Rx         0023  5  00 00 00 00 00 
 42488)    185179.0  Rx         0025  8  FF 03 FE 03 FE 03 FE 03 
 42489)    185179.2  Rx         0020  5  0A 00 CB 1A 03 
 42490)    185179.4  Rx         0022  5  0B 00 5B 1E 03 
 42491)    185179.6  Rx         0024  5  00 00 2F 18 03 
 42492)    185179.8  Rx         0021  5  00 00 00 00 00 
 42493)    185180.0  Rx         0023  5  00 00 00 00 00 
 42494)    185180.3  Rx         0020  5  0A 00 CB 1A 03 
 42495)    185180.4  Rx         0022  5  0B 00 5B 1E 01 
 42496)    185180.7  Rx         0025  8  FF 03 FF 03 FF 03 FC 03 
 42497)    185180.9  Rx         0021  5  00 00 00 00 00 
 42498)    185181.1  Rx         0023  5  00 00 00 00 00 
 42499)    185181.2  Rx         0024  5  00 00 2F 18 03 
 42500)    185181.4  Rx         0020  5  0A 00 CB 1A 03 
 42501)    185181.6  Rx         0022  5  0B 00 5A 1E 01 
 42502)    185181.8  Rx         0030  6  6C 01 76 89 9E C8 
 42503)    185182.0  Rx         0021  5  00 00 00 00 00 
 42504)    185182.2  Rx         0023  5  00 00 00 00 00 
 42505)    185182.4  Rx         0025  8  FF 03 FD 03 FE 03 FB 03 
 42506)    185182.6  Rx         0020  5  0A 00 CB 1A 03 
 42507)    185182.8  Rx         0022  5  0B 00 5A 1E 01 
 42508)    185183.0  Rx         0024  5  00 00 2F 18 03 
 42509)    185183.2  Rx         0021  5  00 00 00 00 00 
 42510)    185183.4  Rx         0023  5  00 00 00 00 00 
 42511)    185183.7  Rx         0020  5  0A 00 CB 1A 03 
 42512)    185183.9  Rx         0025  8  FF 03 FF 03 FF 03 FD 03 
 42513)    185184.2  Rx         0021  5  00 00 00 00 00 
 42514)    185184.4  Rx         0031  6  67 80 08 80 0E 80 
 42515)    185184.6  Rx         0024  5  00 00 2F 18 03 
 42516)    185184.8  Rx         0020  5  0A 00 CB 1A 03 
 42517)    185185.0  Rx         0026  6  88 1A 65 7C 4F 32 
 42518)    185185.3  Rx         0021  5  00 00 00 00 00 
 42519)    185185.6  Rx         0025  8  FF 03 FF 03 FF 03 FE 03 
 42520)    185185.7  Rx         0022  5  0B 00 59 1E 01 
 42521)    185185.9  Rx         0020  5  0A 00 CB 1A 03 
 42522)    185186.1  Rx         0024  5  00 00 2F 18 03 
 42523)    185186.3  Rx         0023  5  00 00 00 00 00 
 42524)    185186.5  Rx         0021  5  00 00 00 00 00 
 42525)    185186.7  Rx         0030  6  60 01 6B 89 93 C8 
 42526)    185186.9  Rx         0022  5  0B 00 59 1E 01 
 42527)    185187.1  Rx         0020  5  0A 00 CB 1A 03 
 42528)    185187.3  Rx         0025  8  FE 03 FF 03 FF 03 FE 03 
 42529)    185187.5  Rx         0023  5  00 00 00 00 00 
 42530)    185187.7  Rx         0021  5  00 00 00 00 00 
 42531)    185187.9  Rx         0024  5  00 00 2F 18 03 
 42532)    185188.0  Rx         0022  5  0B 00 58 1E 03 
 42533)    185188.2  Rx         0020  5  0A 00 CB 1A 03 
 42534)    185188.5  Rx         0031  6  56 80 12 80 1F 80 
 42535)    185188.6  Rx         0023  5  00 00 00 00 00 
 42536)    185188.8  Rx         0021  5  00 00 00 00 00 
 42537)    185189.1  Rx         0025  8  FD 03 FD 03 FE 03 FC 03 
 42538)    185189.3  Rx         0022  5  0B 00 57 1E 03 
 42539)    185189.4  Rx         0020  5  0A 00 CB 1A 03 
 42540)    185189.6  Rx         0024  5  00 00 2F 18 03 
 42541)    185189.8  Rx         0023  5  00 00 00 00 00 
 42542)    185190.0  Rx         0021  5  00 00 00 00 00 
 42543)    185190.3  Rx         0022  5  0B 00 57 1E 01 
 42544)    185190.6  Rx         0025  8  FE 03 FE 03 FF 03 FD 03 
 42545)    185190.8  Rx         0020  5  0A 00 CB 1A 03 
 42546)    185190.9  Rx         0023  5  00 00 00 00 00 
 42547)    185191.1  Rx         0024  5  00 00 2F 18 03 
 42548)    185191.3  Rx         0021  5  00 00 00 00 00 
 42549)    185191.5  Rx         0022  5  0B 00 57 1E 01 
 42550)    185191.7  Rx         0030  6  60 01 6B 89 93 C8 
 42551)    185191.9  Rx         0020  5  0A 00 CB 1A 03 
 42552)    185192.1  Rx         0023  5  00 00 00 00 00 
 42553)    185192.3  Rx         0025  8  FC 03 FD 03 FE 03 FB 03 
 42554)    185192.5  Rx         0021  5  00 00 00 00 00 
 42555)    185192.7  Rx         0022  5  0B 00 56 1E 03 
 42556)    185192.9  Rx         0024  5  00 00 2F 18 03 
 42557)    185193.1  Rx         0020  5  0A 00 CB 1A 03 
 42558)    185193.3  Rx         0023  5  00 00 00 00 00 
 42559)    185193.6  Rx         0021  5  00 00 00 00 00 
 42560)    185193.8  Rx         0022  5  0B 00 56 1E 01 
 42561)    185194.0  Rx         0025  8  FD 03 FD 03 FF 03 FD 03 
 42562)    185194.2  Rx         0020  5  0A 00 CB 1A 03 
 42563)    185194.4  Rx         0023  5  00 00 00 00 00 
 42564)    185194.6  Rx         0024  5  00 00 2F 18 03 
 42565)    185194.8  Rx         0021  5  00 00 00 00 00 
 42566)    185194.9  Rx         0031  6  56 80 12 80 1F 80 
 42567)    185195.2  Rx         0020  5  0A 00 CB 1A 03 
 42568)    185195.5  Rx         0025  8  FF 03 FF 03 FF 03 FD 03 
 42569)    185195.8  Rx         0021  5  00 00 00 00 00 
 42570)    185196.0  Rx         0024  5  00 00 2F 18 03 
 42571)    185196.2  Rx         0026  6  9F 1A 65 7C 5A 32 
 42572)    185196.4  Rx         0020  5  0A 00 CB 1A 03 
 42573)    185196.7  Rx         0030  6  60 01 6B 89 87 C8 
 42574)    185196.8  Rx         0022  5  0B 00 55 1E 01 
 42575)    185197.0  Rx         0021  5  00 00 00 00 00 
 42576)    185197.3  Rx         0025  8  FE 03 FF 03 FF 03 FD 03 
 42577)    185197.4  Rx         0023  5  00 00 00 00 00 
 42578)    185197.6  Rx         0020  5  0A 00 CB 1A 03 
 42579)    185197.8  Rx         0024  5  00 00 2F 18 03 
 42580)    185198.0  Rx         0022  5  0B 00 54 1E 03 
 42581)    185198.2  Rx         0021  5  00 00 00 00 00 
 42582)    185198.4  Rx         0031  6  4B 80 1E 80 27 80 
 42583)    185198.6  Rx         0023  5  00 00 00 00 00 
 42584)    185198.8  Rx         0020  5  0A 00 CB 1A 03 
 42585)    185199.0  Rx         0025  8  FE 03 FE 03 FF 03 FE 03 
 42586)    185199.2  Rx         0022  5  0B 00 54 1E 01 
 42587)    185199.4  Rx         0021  5  00 00 00 00 00 
 42588)    185199.6  Rx         0024  5  00 00 2F 18 03 
 42589)    185199.8  Rx         0023  5  00 00 00 00 00 
 42590)    185199.9  Rx         0020  5  0A 00 CB 1A 03 
 42591)    185200.2  Rx         0030  6  60 01 6B 89 87 C8 
 42592)    185200.3  Rx         0022  5  0B 00 53 1E 03 
 42593)    185200.5  Rx         0021  5  00 00 00 00 00 
 42594)    185200.8  Rx         0025  8  FE 03 FF 03 FE 03 FD 03 
 42595)    185201.0  Rx         0023  5  00 00 00 00 00 
 42596)    185201.1  Rx         0020  5  0A 00 CB 1A 03 
 42597)    185201.3  Rx         0024  5  00 00 2F 18 03 
 42598)    185201.5  Rx         0022  5  0B 00 53 1E 03 
 42599)    185201.7  Rx         0021  5  00 00 00 00 00 
 42600)    185202.0  Rx         0023  5  00 00 00 00 00 
 42601)    185202.2  Rx         0020  5  0A 00 CB 1A 03 
 42602)    185202.5  Rx         0025  8  FE 03 FF 03 FF 03 FD 03 
 42603)    185202.7  Rx         0022  5  0B 00 53 1E 01 
 42604)    185202.8  Rx         0021  5  00 00 00 00 00 
 42605)    185203.0  Rx         0024  5  00 00 2F 18 03 
 42606)    185203.2  Rx         0023  5  00 00 00 00 00 
 42607)    185203.4  Rx         0020  5  0A 00 CB 1A 03 
 42608)    185203.6  Rx         0031  6  4B 80 1E 80 27 80 
 42609)    185203.8  Rx         0022  5  0B 00 52 1E 03 
 42610)    185204.0  Rx         0021  5  00 00 00 00 00 
 42611)    185204.3  Rx         0025  8  FF 03 FF 03 FF 03 FE 03 
 42612)    185204.4  Rx         0023  5  00 00 00 00 00 
 42613)    185204.6  Rx         0020  5  0A 00 CB 1A 03 
 42614)    185204.8  Rx         0024  5  00 00 2F 18 03 
 42615)    185205.0  Rx         0022  5  0B 00 52 1E 01 
 42616)    185205.2  Rx         0021  5  00 00 00 00 00 
 42617)    185205.4  Rx         0023  5  00 00 00 00 00 
 42618)    185205.7  Rx         0020  5  0A 00 CB 1A 03 
 42619)    185205.9  Rx         0025  8  FF 03 FF 03 FF 03 FD 03 
 42620)    185206.1  Rx         0030  6  60 01 6B 89 87 C8 
 42621)    185206.3  Rx         0021  5  00 00 00 00 00 
 42622)    185206.5  Rx         0024  5  00 00 2F 18 03 
 42623)    185206.8  Rx         0020  5  0A 00 CB 1A 03 
 42624)    185207.1  Rx         0026  6  B5 1A 71 7C 5A 32 
 42625)    185207.3  Rx         0021  5  00 00 00 00 00 
 42626)    185207.6  Rx         0025  8  FC 03 FB 03 FD 03 FD 03 
 42627)    185207.8  Rx         0022  5  0B 00 51 1E 01 
 42628)    185207.9  Rx         0020  5  0A 00 CB 1A 03 
 42629)    185208.1  Rx         0024  5  00 00 2F 18 03 
 42630)    185208.3  Rx         0023  5  00 00 00 00 00 
 42631)    185208.5  Rx         0021  5  00 00 00 00 00 
 42632)    185208.7  Rx         0031  6  3D 80 21 80 28 80 
 42633)    185208.9  Rx         0022  5  0B 00 50 1E 03 
 42634)    185209.1  Rx         0020  5  0A 00 CB 1A 03 
 42635)    185209.3  Rx         0025  8  FF 03 FF 03 FF 03 FF 03 
 42636)    185209.5  Rx         0023  5  00 00 00 00 00 
 42637)    185209.7  Rx         0021  5  00 00 00 00 00 
 42638)    185209.9  Rx         0024  5  00 00 2F 18 03 
 42639)    185210.1  Rx         0022  5  0B 00 50 1E 01 
 42640)    185210.3  Rx         0020  5  0A 00 CB 1A 03 
 42641)    185210.6  Rx         0023  5  00 00 00 00 00 
 42642)    185210.8  Rx         0021  5  00 00 00 00 00 
 42643)    185211.0  Rx         0025  8  FE 03 FD 03 FE 03 FA 03 
 42644)    185211.2  Rx         0022  5  0B 00 4F 1E 03 
 42645)    185211.4  Rx         0020  5  0A 00 CB 1A 03 
 42646)    185211.5  Rx         0024  5  00 00 2F 18 03 
 42647)    185211.8  Rx         0023  5  00 00 00 00 00 
 42648)    185211.9  Rx         0021  5  00 00 00 00 00 
 42649)    185212.1  Rx         0030  6  60 01 6B 89 7C C8 
 42650)    185212.3  Rx         0022  5  0B 00 4F 1E 01 
 42651)    185212.5  Rx         0020  5  0A 00 CB 1A 03 
 42652)    185212.7  Rx         0025  8  FB 03 FC 03 FE 03 FD 03 
 42653)    185213.0  Rx         0023  5  00 00 00 00 00 
 42654)    185213.1  Rx         0021  5  00 00 00 00 00 
 42655)    185213.3  Rx         0024  5  00 00 2F 18 03 
 42656)    185213.5  Rx         0022  5  0B 00 4E 1E 03 
 42657)    185213.7  Rx         0020  5  0A 00 CB 1A 03 
 42658)    185214.0  Rx         0023  5  00 00 00 00 00 
 42659)    185214.2  Rx         0021  5  00 00 00 00 00 
 42660)    185214.5  Rx         0025  8  FF 03 FF 03 FF 03 FE 03 
 42661)    185214.6  Rx         0022  5  0B 00 4E 1E 01 
 42662)    185214.8  Rx         0020  5  0A 00 CB 1A 03 
 42663)    185215.0  Rx         0024  5  00 00 2F 18 03 
 42664)    185215.2  Rx         0023  5  00 00 00 00 00 
 42665)    185215.4  Rx         0021  5  00 00 00 00 00 
 42666)    185215.6  Rx         0031  6  3D 80 21 80 28 80 
 42667)    185215.9  Rx         0020  5  0A 00 CB 1A 03 
 42668)    185216.1  Rx         0025  8  FE 03 FF 03 FF 03 FF 03 
 42669)    185216.4  Rx         0021  5  00 00 00 00 00 
 42670)    185216.6  Rx         0024  5  00 00 2F 18 03 
 42671)    185216.8  Rx         0026  6  C1 1A 71 7C 66 32 
 42672)    185217.1  Rx         0020  5  0A 00 CB 1A 03 
 42673)    185217.3  Rx         0030  6  60 01 60 89 7C C8 
 42674)    185217.4  Rx         0022  5  0B 00 4D 1E 01 
 42675)    185217.6  Rx         0021  5  00 00 00 00 00 
 42676)    185217.9  Rx         0025  8  FB 03 FD 03 FE 03 FD 03 
 42677)    185218.1  Rx         0023  5  00 00 00 00 00 
 42678)    185218.2  Rx         0020  5  0A 00 CB 1A 03 
 42679)    185218.4  Rx         0024  5  00 00 2F 18 03 
 42680)    185218.6  Rx         0022  5  0B 00 4C 1E 03 
 42681)    185218.8  Rx         0021  5  00 00 00 00 00 
 42682)    185219.0  Rx         0031  6  2A 80 16 80 1E 80 
 42683)    185219.2  Rx         0023  5  00 00 00 00 00 
 42684)    185219.4  Rx         0020  5  0A 00 CB 1A 03 
 42685)    185219.7  Rx         0025  8  FC 03 FC 03 FF 03 FC 03 
 42686)    185219.8  Rx         0022  5  0B 00 4C 1E 01 
 42687)    185220.0  Rx         0021  5  00 00 00 00 00 
 42688)    185220.2  Rx         0024  5  00 00 2F 18 03 
 42689)    185220.4  Rx         0023  5  00 00 00 00 00 
 42690)    185220.6  Rx         0020  5  0A 00 CB 1A 03 
 42691)    185220.9  Rx         0022  5  0B 00 4B 1E 01 
 42692)    185221.1  Rx         0021  5  00 00 00 00 00 
 42693)    185221.3  Rx         0025  8  FE 03 FE 03 FF 03 FC 03 
 42694)    185221.5  Rx         0023  5  00 00 00 00 00 
 42695)    185221.7  Rx         0020  5  0A 00 CB 1A 03 
 42696)    185221.9  Rx         0024  5  00 00 2F 18 03 
 42697)    185222.1  Rx         0022  5  0B 00 4A 1E 03 
 42698)    185222.3  Rx         0021  5  00 00 00 00 00 
 42699)    185222.5  Rx         0030  6  60 01 60 89 7C C8 
 42700)    185222.7  Rx         0023  5  00 00 00 00 00 
 42701)    185222.9  Rx         0020  5  0A 00 CB 1A 03 
 42702)    185223.1  Rx         0025  8  FD 03 FD 03 FE 03 FD 03 
 42703)    185223.3  Rx         0022  5  0B 00 4A 1E 01 
 42704)    185223.5  Rx         0021  5  00 00 00 00 00 
 42705)    185223.7  Rx         0024  5  00 00 2F 18 03 
 42706)    185223.8  Rx         0023  5  00 00 00 00 00 
 42707)    185224.1  Rx         0020  5  0A 00 CB 1A 03 
 42708)    185224.3  Rx         0022  5  0B 00 4A 1E 01 
 42709)    185224.6  Rx         0021  5  00 00 00 00 00 
 42710)    185224.8  Rx         0025  8  FF 03 FF 03 FF 03 FD 03 
 42711)    185225.0  Rx         0023  5  00 00 00 00 00 
 42712)    185225.2  Rx         0020  5  0A 00 CB 1A 03 
 42713)    185225.4  Rx         0024  5  00 00 2F 18 03 
 42714)    185225.5  Rx         0022  5  0B 00 49 1E 03 
 42715)    185225.7  Rx         0021  5  00 00 00 00 00 
 42716)    185225.9  Rx         0031  6  2A 80 16 80 1E 80 
 42717)    185226.1  Rx         0023  5  00 00 00 00 00 
 42718)    185226.3  Rx         0020  5  0A 00 CB 1A 03 
 42719)    185226.6  Rx         0025  8  FF 03 FF 03 FF 03 FF 03 
 42720)    185226.7  Rx         0022  5  0B 00 49 1E 01 
 42721)    185227.0  Rx         0021  5  00 00 00 00 00 
 42722)    185227.1  Rx         0024  5  00 00 2F 18 03 
 42723)    185227.3  Rx         0023  5  00 00 00 00 00 
 42724)    185227.5  Rx         0020  5  0A 00 CB 1A 03 
 42725)    185227.7  Rx         0030  6  55 01 60 89 7C C8 
 42726)    185228.1  Rx         0025  8  FE 03 FE 03 FE 03 FD 03 
 42727)    185228.3  Rx         0021  5  00 00 00 00 00 
 42728)    185228.6  Rx         0024  5  00 00 2F 18 03 
 42729)    185228.8  Rx         0020  5  0A 00 CB 1A 03 
 42730)    185229.3  Rx         0021  5  00 00 00 00 00 
 42731)    185229.5  Rx         0025  8  FE 03 FD 03 FC 03 FA 03 
 42732)    185229.7  Rx         0031  6  0E 80 FB 7F 22 80 
 42733)    185229.9  Rx         0020  5  0A 00 CB 1A 03 
 42734)    185230.1  Rx         0024  5  00 00 2F 18 03 
 42735)    185230.3  Rx         0026  6  D8 1A 71 7C 66 32 
 42736)    185230.5  Rx         0021  5  00 00 00 00 00 
 42737)    185230.8  Rx         0022  5  0B 00 47 1E 01 
 42738)    185231.1  Rx         0025  8  FE 03 FE 03 FF 03 FC 03 
 42739)    185231.2  Rx         0020  5  0A 00 CB 1A 03 
 42740)    185231.4  Rx         0023  5  00 00 00 00 00 
 42741)    185231.6  Rx         0024  5  00 00 2F 18 03 
 42742)    185231.8  Rx         0021  5  00 00 00 00 00 
 42743)    185232.0  Rx         0022  5  0B 00 46 1E 03 
 42744)    185232.2  Rx         0030  6  55 01 60 89 7C C8 
 42745)    185232.4  Rx         0020  5  0A 00 CB 1A 03 
 42746)    185232.6  Rx         0023  5  00 00 00 00 00 
 42747)    185232.9  Rx         0025  8  FE 03 FE 03 FF 03 FC 03 
 42748)    185233.1  Rx         0021  5  00 00 00 00 00 
 42749)    185233.2  Rx         0022  5  0B 00 46 1E 01 
 42750)    185233.4  Rx         0024  5  00 00 2F 18 03 
 42751)    185233.6  Rx         0020  5  0A 00 CB 1A 03 
 42752)    185233.8  Rx         0023  5  00 00 00 00 00 
 42753)    185234.1  Rx         0021  5  00 00 00 00 00 
 42754)    185234.3  Rx         0022  5  0B 00 45 1E 03 
 42755)    185234.6  Rx         0025  8  FF 03 FF 03 FF 03 FE 03 
 42756)    185234.7  Rx         0020  5  0A 00 CB 1A 03 
 42757)    185234.9  Rx         0023  5  00 00 00 00 00 
 42758)    185235.1  Rx         0024  5  00 00 2F 18 03 
 42759)    185235.3  Rx         0021  5  00 00 00 00 00 
 42760)    185235.5  Rx         0022  5  0B 00 45 1E 01 
 42761)    185235.7  Rx         0031  6  0E 80 FB 7F 22 80 
 42762)    185235.9  Rx         0020  5  0A 00 CB 1A 03 
 42763)    185236.0  Rx         0023  5  00 00 00 00 00 
 42764)    185236.3  Rx         0025  8  FD 03 FE 03 FF 03 FE 03 
 42765)    185236.5  Rx         0021  5  00 00 00 00 00 
 42766)    185236.7  Rx         0022  5  0B 00 44 1E 01 
 42767)    185236.9  Rx         0024  5  00 00 2F 18 03 
 42768)    185237.1  Rx         0020  5  0A 00 CB 1A 03 
 42769)    185237.2  Rx         0023  5  00 00 00 00 00 
 42770)    185237.5  Rx         0030  6  49 01 54 89 7C C8 
 42771)    185237.6  Rx         0021  5  00 00 00 00 00 
 42772)    185237.8  Rx         0022  5  0B 00 43 1E 03 
 42773)    185238.1  Rx         0025  8  FE 03 FE 03 FE 03 FD 03 
 42774)    185238.2  Rx         0020  5  0A 00 CB 1A 03 
 42775)    185238.4  Rx         0023  5  00 00 00 00 00 
 42776)    185238.6  Rx         0024  5  00 00 2F 18 03 
 42777)    185238.8  Rx         0021  5  00 00 00 00 00 
 42778)    185239.1  Rx         0031  6  FB 7F EB 7F 2B 80 
 42779)    185239.3  Rx         0020  5  0A 00 CB 1A 03 
 42780)    185239.5  Rx         0025  8  FD 03 FC 03 FD 03 FB 03 
 42781)    185239.8  Rx         0021  5  00 00 00 00 00 
 42782)    185240.1  Rx         0024  5  00 00 2F 18 03 
 42783)    185240.4  Rx         0020  5  0A 00 CB 1A 03 
 42784)    185240.8  Rx         0021  5  00 00 00 00 00 
 42785)    185241.1  Rx         0025  8  FB 03 FC 03 FD 03 FA 03 
 42786)    185241.3  Rx         0026  6  E3 1A 7C 7C 66 32 
 42787)    185241.5  Rx         0020  5  0A 00 CB 1A 03 
 42788)    185241.6  Rx         0024  5  00 00 2F 18 03 
 42789)    185241.8  Rx         0022  5  0B 00 42 1E 01 
 42790)    185242.0  Rx         0021  5  00 00 00 00 00 
 42791)    185242.2  Rx         0030  6  49 01 54 89 7C C8 
 42792)    185242.4  Rx         0023  5  00 00 00 00 00 
 42793)    185242.6  Rx         0020  5  0A 00 CB 1A 03 
 42794)    185242.8  Rx         0025  8  FE 03 FE 03 FF 03 FD 03 
 42795)    185243.0  Rx         0022  5  0B 00 41 1E 01 
 42796)    185243.2  Rx         0021  5  00 00 00 00 00 
 42797)    185243.4  Rx         0024  5  00 00 2F 18 03 
 42798)    185243.6  Rx         0023  5  00 00 00 00 00 
 42799)    185243.8  Rx         0020  5  0A 00 CB 1A 03 
 42800)    185244.1  Rx         0022  5  0B 00 40 1E 03 
 42801)    185244.3  Rx         0021  5  00 00 00 00 00 
 42802)    185244.5  Rx         0025  8  FE 03 FF 03 FF 03 FD 03 
 42803)    185244.7  Rx         0023  5  00 00 00 00 00 
 42804)    185244.9  Rx         0020  5  0A 00 CB 1A 03 
 42805)    185245.1  Rx         0024  5  00 00 2F 18 03 
 42806)    185245.3  Rx         0022  5  0B 00 40 1E 01 
 42807)    185245.5  Rx         0021  5  00 00 00 00 00 
 42808)    185245.7  Rx         0031  6  FB 7F EB 7F 2B 80 
 42809)    185245.9  Rx         0023  5  00 00 00 00 00 
 42810)    185246.1  Rx         0020  5  0A 00 CB 1A 03 
 42811)    185246.3  Rx         0025  8  FF 03 FF 03 FF 03 FF 03 
 42812)    185246.5  Rx         0022  5  0B 00 3F 1E 03 
 42813)    185246.7  Rx         0021  5  00 00 00 00 00 
 42814)    185246.8  Rx         0024  5  00 00 2F 18 03 
 42815)    185247.1  Rx         0023  5  00 00 00 00 00 
 42816)    185247.2  Rx         0020  5  0A 00 CB 1A 03 
 42817)    185247.4  Rx         0030  6  49 01 54 89 7C C8 
 42818)    185247.7  Rx         0022  5  0B 00 3F 1E 01 
 42819)    185247.8  Rx         0021  5  00 00 00 00 00 
 42820)    185248.0  Rx         0025  8  FF 03 FF 03 FF 03 FD 03 
 42821)    185248.3  Rx         0023  5  00 00 00 00 00 
 42822)    185248.4  Rx         0020  5  0A 00 CB 1A 03 
 42823)    185248.6  Rx         0024  5  00 00 2F 18 03 
 42824)    185248.8  Rx         0022  5  0B 00 3E 1E 03 
 42825)    185249.0  Rx         0021  5  00 00 00 00 00 
 42826)    185249.2  Rx         0031  6  F9 7F F8 7F 36 80 
 42827)    185249.4  Rx         0023  5  00 00 00 00 00 
 42828)    185249.6  Rx         0020  5  0A 00 CB 1A 03 
 42829)    185249.8  Rx         0025  8  FE 03 FD 03 FF 03 FE 03 
 42830)    185250.1  Rx         0021  5  00 00 00 00 00 
 42831)    185250.3  Rx         0024  5  00 00 2F 18 03 
 42832)    185250.6  Rx         0020  5  0A 00 CB 1A 03 
 42833)    185251.1  Rx         0021  5  00 00 00 00 00 
 42834)    185251.4  Rx         0025  8  FD 03 FD 03 FC 03 F9 03 
 42835)    185251.6  Rx         0030  6  49 01 54 89 7C C8 
 42836)    185251.8  Rx         0020  5  0A 00 CB 1A 03 
 42837)    185251.9  Rx         0024  5  00 00 2F 18 03 
 42838)    185252.1  Rx         0026  6  FA 1A 7C 7C 66 32 
 42839)    185252.3  Rx         0021  5  00 00 00 00 00 
 42840)    185252.6  Rx         0022  5  0B 00 3C 1E 03 
 42841)    185252.9  Rx         0025  8  FC 03 FB 03 FE 03 FD 03 
 42842)    185253.1  Rx         0020  5  0A 00 CB 1A 03 
 42843)    185253.2  Rx         0023  5  00 00 00 00 00 
 42844)    185253.5  Rx         0024  5  00 00 2F 18 03 
 42845)    185253.6  Rx         0021  5  00 00 00 00 00 
 42846)    185253.8  Rx         0022  5  0B 00 3C 1E 01 
 42847)    185254.1  Rx         0031  6  F9 7F F8 7F 36 80 
 42848)    185254.2  Rx         0020  5  0A 00 CB 1A 03 
 42849)    185254.4  Rx         0023  5  00 00 00 00 00 
 42850)    185254.7  Rx         0025  8  FF 03 FF 03 FF 03 FC 03 
 42851)    185254.9  Rx         0021  5  00 00 00 00 00 
 42852)    185255.0  Rx         0022  5  0B 00 3B 1E 03 
 42853)    185255.3  Rx         0024  5  00 00 2F 18 03 
 42854)    185255.4  Rx         0020  5  0A 00 CB 1A 03 
 42855)    185255.6  Rx         0023  5  00 00 00 00 00 
 42856)    185255.9  Rx         0021  5  00 00 00 00 00 
 42857)    185256.1  Rx         0022  5  0B 00 3B 1E 01 
 42858)    185256.4  Rx         0025  8  FF 03 FE 03 FF 03 FC 03 
 42859)    185256.5  Rx         0020  5  0A 00 CB 1A 03 
 42860)    185256.7  Rx         0023  5  00 00 00 00 00 
 42861)    185256.9  Rx         0024  5  00 00 2F 18 03 
 42862)    185257.1  Rx         0021  5  00 00 00 00 00 
 42863)    185257.3  Rx         0022  5  0B 00 3A 1E 03 
 42864)    185257.5  Rx         0030  6  49 01 54 89 7C C8 
 42865)    185257.7  Rx         0020  5  0A 00 CB 1A 03 
 42866)    185257.9  Rx         0023  5  00 00 00 00 00 
 42867)    185258.1  Rx         0025  8  FF 03 FF 03 FF 03 FF 03 
 42868)    185258.3  Rx         0021  5  00 00 00 00 00 
 42869)    185258.5  Rx         0022  5  0B 00 3A 1E 01 
 42870)    185258.7  Rx         0024  5  00 00 2F 18 03 
 42871)    185258.9  Rx         0020  5  0A 00 CB 1A 03 
 42872)    185259.0  Rx         0023  5  00 00 00 00 00 
 42873)    185259.3  Rx         0031  6  03 80 16 80 48 80 
 42874)    185259.5  Rx         0021  5  00 00 00 00 00 
 42875)    185259.7  Rx         0025  8  FE 03 FE 03 FF 03 FE 03 
 42876)    185259.9  Rx         0020  5  0A 00 CB 1A 03 
 42877)    185260.2  Rx         0024  5  00 00 2F 18 03 
 42878)    185260.5  Rx         0021  5  00 00 00 00 00 
 42879)    185261.0  Rx         0020  5  0A 00 CB 1A 03 
 42880)    185261.2  Rx         0025  8  FD 03 FD 03 FE 03 FC 03 
 42881)    185261.5  Rx         0021  5  00 00 00 00 00 
 42882)    185261.7  Rx         0026  6  10 1B 7C 7C 71 32 
 42883)    185261.9  Rx         0024  5  00 00 2F 18 03 
 42884)    185262.0  Rx         0020  5  0A 00 CB 1A 03 
 42885)    185262.3  Rx         0022  5  0B 00 38 1E 01 
 42886)    185262.5  Rx         0030  6  3E 01 49 89 7C C8 
 42887)    185262.6  Rx         0021  5  00 00 00 00 00 
 42888)    185262.8  Rx         0023  5  00 00 00 00 00 
 42889)    185263.1  Rx         0025  8  FE 03 FD 03 FE 03 FD 03 
 42890)    185263.2  Rx         0020  5  0A 00 CB 1A 03 
 42891)    185263.4  Rx         0022  5  0B 00 37 1E 03 
 42892)    185263.6  Rx         0024  5  00 00 2F 18 03 
 42893)    185263.8  Rx         0021  5  00 00 00 00 00 
 42894)    185264.0  Rx         0023  5  00 00 00 00 00 
 42895)    185264.3  Rx         0020  5  0A 00 CB 1A 03 
 42896)    185264.5  Rx         0022  5  0B 00 37 1E 01 
 42897)    185264.8  Rx         0025  8  FF 03 FF 03 FF 03 FF 03 
 42898)    185264.9  Rx         0021  5  00 00 00 00 00 
 42899)    185265.2  Rx         0023  5  00 00 00 00 00 
 42900)    185265.3  Rx         0024  5  00 00 2F 18 03 
 42901)    185265.5  Rx         0020  5  0A 00 CB 1A 03 
 42902)    185265.7  Rx         0022  5  0B 00 36 1E 03 
 42903)    185265.9  Rx         0031  6  03 80 16 80 48 80 
 42904)    185266.1  Rx         0021  5  00 00 00 00 00 
 42905)    185266.3  Rx         0023  5  00 00 00 00 00 
 42906)    185266.5  Rx         0025  8  FF 03 FF 03 FF 03 FE 03 
 42907)    185266.7  Rx         0020  5  0A 00 CB 1A 03 
 42908)    185266.9  Rx         0022  5  0B 00 36 1E 01 
 42909)    185267.1  Rx         0024  5  00 00 2F 18 03 
 42910)    185267.3  Rx         0021  5  00 00 00 00 00 
 42911)    185267.5  Rx         0023  5  00 00 00 00 00 
 42912)    185267.7  Rx         0030  6  3E 01 49 89 70 C8 
 42913)    185267.8  Rx         0020  5  0A 00 CB 1A 03 
 42914)    185268.1  Rx         0022  5  0B 00 35 1E 03 
 42915)    185268.3  Rx         0025  8  FF 03 FF 03 FF 03 FE 03 
 42916)    185268.5  Rx         0021  5  00 00 00 00 00 
 42917)    185268.7  Rx         0023  5  00 00 00 00 00 
 42918)    185268.9  Rx         0024  5  00 00 2F 18 03 
 42919)    185269.0  Rx         0020  5  0A 00 CB 1A 03 
 42920)    185269.2  Rx         0022  5  0B 00 35 1E 01 
 42921)    185269.4  Rx         0031  6  1A 80 37 80 53 80 
 42922)    185269.6  Rx         0021  5  00 00 00 00 00 
 42923)    185269.8  Rx         0023  5  00 00 00 00 00 
 42924)    185270.0  Rx         0025  8  FF 03 FF 03 FE 03 FD 03 
 42925)    185270.2  Rx         0020  5  0A 00 CB 1A 03 
 42926)    185270.4  Rx         0022  5  0B 00 35 1E 01 
 42927)    185270.6  Rx         0024  5  00 00 2F 18 03 
 42928)    185270.8  Rx         0021  5  00 00 00 00 00 
 42929)    185271.0  Rx         0023  5  00 00 00 00 00 
 42930)    185271.3  Rx         0020  5  0A 00 CB 1A 03 
 42931)    185271.6  Rx         0025  8  FF 03 FE 03 FF 03 FB 03 
 42932)    185271.8  Rx         0021  5  00 00 00 00 00 
 42933)    185272.0  Rx         0030  6  3E 01 49 89 70 C8 
 42934)    185272.2  Rx         0024  5  00 00 2F 18 03 
 42935)    185272.4  Rx         0020  5  0A 00 CB 1A 03 
 42936)    185272.9  Rx         0021  5  00 00 00 00 00 
 42937)    185273.1  Rx         0025  8  FF 03 FD 03 FC 03 FA 03 
 42938)    185273.3  Rx         0026  6  27 1B 7C 7C 71 32 
 42939)    185273.5  Rx         0020  5  0A 00 CB 1A 03 
 42940)    185273.7  Rx         0024  5  00 00 2F 18 03 
 42941)    185273.9  Rx         0022  5  0B 00 33 1E 03 
 42942)    185274.1  Rx         0021  5  00 00 00 00 00 
 42943)    185274.4  Rx         0023  5  00 00 00 00 00 
 42944)    185274.6  Rx         0031  6  1A 80 37 80 53 80 
 42945)    185274.8  Rx         0020  5  0A 00 CB 1A 03 
 42946)    185275.0  Rx         0022  5  0B 00 32 1E 03 
 42947)    185275.2  Rx         0025  8  FF 03 FF 03 FF 03 FF 03 
 42948)    185275.4  Rx         0021  5  00 00 00 00 00 
 42949)    185275.6  Rx         0023  5  00 00 00 00 00 
 42950)    185275.8  Rx         0024  5  00 00 2F 18 03 
 42951)    185275.9  Rx         0020  5  0A 00 CB 1A 03 
 42952)    185276.1  Rx         0022  5  0B 00 32 1E 01 
 42953)    185276.5  Rx         0021  5  00 00 00 00 00 
 42954)    185276.7  Rx         0023  5  00 00 00 00 00 
 42955)    185276.9  Rx         0025  8  FF 03 FF 03 FF 03 FD 03 
 42956)    185277.1  Rx         0020  5  0A 00 CB 1A 03 
 42957)    185277.3  Rx         0022  5  0B 00 32 1E 01 
 42958)    185277.5  Rx         0024  5  00 00 2F 18 03 
 42959)    185277.7  Rx         0021  5  00 00 00 00 00 
 42960)    185277.8  Rx         0023  5  00 00 00 00 00 
 42961)    185278.0  Rx         0030  6  3E 01 49 89 70 C8 
 42962)    185278.2  Rx         0020  5  0A 00 CB 1A 03 
 42963)    185278.4  Rx         0022  5  0B 00 31 1E 01 
 42964)    185278.7  Rx         0025  8  FE 03 FE 03 FF 03 FE 03 
 42965)    185278.9  Rx         0021  5  00 00 00 00 00 
 42966)    185279.0  Rx         0023  5  00 00 00 00 00 
 42967)    185279.2  Rx         0024  5  00 00 2F 18 03 
 42968)    185279.4  Rx         0020  5  0A 00 CB 1A 03 
 42969)    185279.6  Rx         0022  5  0B 00 30 1E 03 
 42970)    185279.8  Rx         0031  6  2E 80 43 80 51 80 
 42971)    185280.0  Rx         0021  5  00 00 00 00 00 
 42972)    185280.2  Rx         0023  5  00 00 00 00 00 
 42973)    185280.4  Rx         0025  8  FD 03 FB 03 FE 03 FD 03 
 42974)    185280.6  Rx         0020  5  0A 00 CB 1A 03 
 42975)    185280.8  Rx         0022  5  0B 00 30 1E 03 
 42976)    185281.0  Rx         0024  5  00 00 2F 18 03 
 42977)    185281.2  Rx         0021  5  00 00 00 00 00 
 42978)    185281.4  Rx         0023  5  00 00 00 00 00 
 42979)    185281.7  Rx         0020  5  0A 00 CB 1A 03 
 42980)    185281.8  Rx         0022  5  0B 00 30 1E 01 
 42981)    185282.1  Rx         0025  8  FF 03 FE 03 FF 03 FC 03 
 42982)    185282.3  Rx         0021  5  00 00 00 00 00 
 42983)    185282.5  Rx         0023  5  00 00 00 00 00 
 42984)    185282.7  Rx         0024  5  00 00 2F 18 03 
 42985)    185282.9  Rx         0020  5  0A 00 CB 1A 03 
 42986)    185283.1  Rx         0030  6  3E 01 3E 89 65 C8 
 42987)    185283.4  Rx         0021  5  00 00 00 00 00 
 42988)    185283.6  Rx         0025  8  FE 03 FD 03 FE 03 FC 03 
 42989)    185283.9  Rx         0020  5  0A 00 CB 1A 03 
 42990)    185284.1  Rx         0024  5  00 00 2F 18 03 
 42991)    185284.3  Rx         0026  6  49 1B 88 7C 7C 32 
 42992)    185284.5  Rx         0021  5  00 00 00 00 00 
 42993)    185284.8  Rx         0022  5  0B 00 2E 1E 03 
 42994)    185285.0  Rx         0020  5  0A 00 CB 1A 03 
 42995)    185285.3  Rx         0025  8  FE 03 FF 03 FF 03 FE 03 
 42996)    185285.4  Rx         0023  5  00 00 00 00 00 
 42997)    185285.6  Rx         0021  5  00 00 00 00 00 
 42998)    185285.8  Rx         0024  5  00 00 2F 18 03 
 42999)    185286.0  Rx         0022  5  0B 00 2E 1E 01 
 43000)    185286.2  Rx         0020  5  0A 00 CB 1A 03 
 43001)    185286.4  Rx         0031  6  2E 80 43 80 51 80 
 43002)    185286.6  Rx         0023  5  00 00 00 00 00 
 43003)    185286.8  Rx         0021  5  00 00 00 00 00 
 43004)    185287.0  Rx         0025  8  FF 03 FF 03 FF 03 FE 03 
 43005)    185287.2  Rx         0022  5  0B 00 2D 1E 03 
 43006)    185287.4  Rx         0020  5  0A 00 CB 1A 03 
 43007)    185287.6  Rx         0024  5  00 00 2F 18 03 
 43008)    185287.8  Rx         0023  5  00 00 00 00 00 
 43009)    185287.9  Rx         0021  5  00 00 00 00 00 
 43010)    185288.2  Rx         0030  6  3E 01 32 89 65 C8 
 43011)    185288.3  Rx         0022  5  0B 00 2D 1E 01 
 43012)    185288.5  Rx         0020  5  0A 00 CB 1A 03 
 43013)    185288.8  Rx         0025  8  FE 03 FE 03 FF 03 FE 03 
 43014)    185289.0  Rx         0023  5  00 00 00 00 00 
 43015)    185289.1  Rx         0021  5  00 00 00 00 00 
 43016)    185289.4  Rx         0024  5  00 00 2F 18 03 
 43017)    185289.5  Rx         0022  5  0B 00 2D 1E 01 
 43018)    185289.7  Rx         0020  5  0A 00 CB 1A 03 
 43019)    185289.9  Rx         0031  6  31 80 41 80 45 80 
 43020)    185290.1  Rx         0023  5  00 00 00 00 00 
 43021)    185290.3  Rx         0021  5  00 00 00 00 00 
 43022)    185290.5  Rx         0025  8  FF 03 FF 03 FF 03 FB 03 
 43023)    185290.7  Rx         0022  5  0B 00 2C 1E 03 
 43024)    185290.9  Rx         0020  5  0A 00 CB 1A 03 
 43025)    185291.1  Rx         0024  5  00 00 2F 18 03 
 43026)    185291.3  Rx         0023  5  00 00 00 00 00 
 43027)    185291.5  Rx         0021  5  00 00 00 00 00 
 43028)    185291.7  Rx         0022  5  0B 00 2C 1E 01 
 43029)    185292.0  Rx         0025  8  FE 03 FE 03 FF 03 FE 03 
 43030)    185292.2  Rx         0020  5  0A 00 CB 1A 03 
 43031)    185292.4  Rx         0023  5  00 00 00 00 00 
 43032)    185292.6  Rx         0024  5  00 00 2F 18 03 
 43033)    185292.8  Rx         0021  5  00 00 00 00 00 
 43034)    185293.0  Rx         0022  5  0B 00 2B 1E 03 
 43035)    185293.2  Rx         0030  6  3E 01 32 89 65 C8 
 43036)    185293.4  Rx         0020  5  0A 00 CB 1A 03 
 43037)    185293.5  Rx         0023  5  00 00 00 00 00 
 43038)    185293.8  Rx         0025  8  FE 03 FC 03 FF 03 FE 03 
 43039)    185294.0  Rx         0021  5  00 00 00 00 00 
 43040)    185294.3  Rx         0024  5  00 00 2F 18 03 
 43041)    185294.5  Rx         0020  5  0A 00 CB 1A 03 
 43042)    185295.0  Rx         0021  5  00 00 00 00 00 
 43043)    185295.2  Rx         0025  8  FB 03 FD 03 FB 03 FA 03 
 43044)    185295.5  Rx         0026  6  55 1B 88 7C 7C 32 
 43045)    185295.6  Rx         0020  5  0A 00 CB 1A 03 
 43046)    185295.8  Rx         0024  5  00 00 2F 18 03 
 43047)    185296.0  Rx         0022  5  0B 00 2A 1E 01 
 43048)    185296.2  Rx         0021  5  00 00 00 00 00 
 43049)    185296.4  Rx         0031  6  31 80 41 80 45 80 
 43050)    185296.6  Rx         0023  5  00 00 00 00 00 
 43051)    185296.8  Rx         0020  5  0A 00 CB 1A 03 
 43052)    185297.0  Rx         0025  8  FF 03 FF 03 FF 03 FE 03 
 43053)    185297.2  Rx         0022  5  0B 00 2A 1E 01 
 43054)    185297.4  Rx         0021  5  00 00 00 00 00 
 43055)    185297.6  Rx         0024  5  00 00 2F 18 03 
 43056)    185297.8  Rx         0023  5  00 00 00 00 00 
 43057)    185298.0  Rx         0020  5  0A 00 CB 1A 03 
 43058)    185298.1  Rx         0030  6  3E 01 32 89 5A C8 
 43059)    185298.3  Rx         0022  5  0B 00 29 1E 03 
 43060)    185298.5  Rx         0021  5  00 00 00 00 00 
 43061)    185298.8  Rx         0025  8  FF 03 FF 03 FF 03 FE 03 
 43062)    185299.0  Rx         0023  5  00 00 00 00 00 
 43063)    185299.2  Rx         0020  5  0A 00 CB 1A 03 
 43064)    185299.3  Rx         0024  5  00 00 2F 18 03 
 43065)    185299.5  Rx         0022  5  0B 00 29 1E 01 
 43066)    185299.7  Rx         0021  5  00 00 00 00 00 
 43067)    185299.9  Rx         0031  6  2C 80 37 80 32 80 
 43068)    185300.1  Rx         0023  5  00 00 00 00 00 
 43069)    185300.3  Rx         0020  5  0A 00 CB 1A 03 
 43070)    185300.5  Rx         0025  8  FF 03 FF 03 FF 03 FE 03 
 43071)    185300.7  Rx         0022  5  0B 00 28 1E 01 
 43072)    185300.9  Rx         0021  5  00 00 00 00 00 
 43073)    185301.1  Rx         0024  5  00 00 2F 18 03 
 43074)    185301.3  Rx         0023  5  00 00 00 00 00 
 43075)    185301.5  Rx         0020  5  0A 00 CB 1A 03 
 43076)    185301.8  Rx         0022  5  0B 00 27 1E 03 
 43077)    185302.0  Rx         0021  5  00 00 00 00 00 
 43078)    185302.2  Rx         0025  8  FF 03 FF 03 FF 03 FD 03 
 43079)    185302.4  Rx         0023  5  00 00 00 00 00 
 43080)    185302.6  Rx         0020  5  0A 00 CB 1A 03 
 43081)    185302.8  Rx         0024  5  00 00 2F 18 03 
 43082)    185303.0  Rx         0022  5  0B 00 27 1E 01 
 43083)    185303.1  Rx         0021  5  00 00 00 00 00 
 43084)    185303.3  Rx         0030  6  3E 01 32 89 5A C8 
 43085)    185303.6  Rx         0023  5  00 00 00 00 00 
 43086)    185303.7  Rx         0020  5  0A 00 CB 1A 03 
 43087)    185304.0  Rx         0025  8  FE 03 FD 03 FF 03 FC 03 
 43088)    185304.2  Rx         0022  5  0B 00 26 1E 03 
 43089)    185304.3  Rx         0021  5  00 00 00 00 00 
 43090)    185304.5  Rx         0024  5  00 00 2F 18 03 
 43091)    185304.7  Rx         0023  5  00 00 00 00 00 
 43092)    185304.9  Rx         0020  5  0A 00 CB 1A 03 
 43093)    185305.4  Rx         0021  5  00 00 00 00 00 
 43094)    185305.7  Rx         0025  8  FF 03 FF 03 FF 03 FC 03 
 43095)    185305.9  Rx         0031  6  2C 80 37 80 32 80 
 43096)    185306.0  Rx         0020  5  0A 00 CB 1A 03 
 43097)    185306.3  Rx         0024  5  00 00 2F 18 03 
 43098)    185306.4  Rx         0026  6  60 1B 88 7C 88 32 
 43099)    185306.6  Rx         0021  5  00 00 00 00 00 
 43100)    185306.9  Rx         0022  5  0B 00 26 1E 01 
 43101)    185307.2  Rx         0025  8  FD 03 FE 03 FF 03 FC 03 
 43102)    185307.4  Rx         0020  5  0A 00 CB 1A 03 
 43103)    185307.6  Rx         0023  5  00 00 00 00 00 
 43104)    185307.7  Rx         0024  5  00 00 2F 18 03 
 43105)    185307.9  Rx         0021  5  00 00 00 00 00 
 43106)    185308.1  Rx         0022  5  0B 00 25 1E 01 
 43107)    185308.3  Rx         0030  6  3E 01 27 89 5A C8 
 43108)    185308.5  Rx         0020  5  0A 00 CB 1A 03 
 43109)    185308.7  Rx         0023  5  00 00 00 00 00 
 43110)    185308.9  Rx         0025  8  FF 03 FF 03 FF 03 FB 03 
 43111)    185309.1  Rx         0021  5  00 00 00 00 00 
 43112)    185309.3  Rx         0022  5  0B 00 24 1E 03 
 43113)    185309.5  Rx         0024  5  00 00 2F 18 03 
 43114)    185309.7  Rx         0020  5  0A 00 CB 1A 03 
 43115)    185309.9  Rx         0023  5  00 00 00 00 00 
 43116)    185310.1  Rx         0031  6  25 80 2C 80 2C 80 
 43117)    185310.3  Rx         0021  5  00 00 00 00 00 
 43118)    185310.5  Rx         0022  5  0B 00 24 1E 01 
 43119)    185310.7  Rx         0025  8  FE 03 FD 03 FD 03 FC 03 
 43120)    185310.9  Rx         0020  5  0A 00 CB 1A 03 
 43121)    185311.1  Rx         0023  5  00 00 00 00 00 
 43122)    185311.3  Rx         0024  5  00 00 2F 18 03 
 43123)    185311.5  Rx         0021  5  00 00 00 00 00 
 43124)    185311.6  Rx         0022  5  0B 00 23 1E 03 
 43125)    185312.0  Rx         0020  5  0A 00 CB 1A 03 
 43126)    185312.1  Rx         0023  5  00 00 00 00 00 
 43127)    185312.4  Rx         0025  8  FF 03 FF 03 FF 03 FD 03 
 43128)    185312.6  Rx         0021  5  00 00 00 00 00 
 43129)    185312.8  Rx         0022  5  0B 00 23 1E 01 
 43130)    185313.0  Rx         0024  5  00 00 2F 18 03 
 43131)    185313.2  Rx         0020  5  0A 00 CB 1A 03 
 43132)    185313.3  Rx         0023  5  00 00 00 00 00 
 43133)    185313.5  Rx         0030  6  3E 01 27 89 5A C8 
 43134)    185313.7  Rx         0021  5  00 00 00 00 00 
 43135)    185313.9  Rx         0022  5  0B 00 22 1E 03 
 43136)    185314.1  Rx         0025  8  FF 03 FE 03 FE 03 FE 03 
 43137)    185314.4  Rx         0020  5  0A 00 CB 1A 03 
 43138)    185314.5  Rx         0023  5  00 00 00 00 00 
 43139)    185314.7  Rx         0024  5  00 00 2F 18 03 
 43140)    185314.9  Rx         0021  5  00 00 00 00 00 
 43141)    185315.1  Rx         0022  5  0B 00 22 1E 01 
 43142)    185315.4  Rx         0020  5  0A 00 CB 1A 03 
 43143)    185315.6  Rx         0023  5  00 00 00 00 00 
 43144)    185315.9  Rx         0025  8  FF 03 FF 03 FF 03 FD 03 
 43145)    185316.0  Rx         0021  5  00 00 00 00 00 
 43146)    185316.2  Rx         0031  6  25 80 2C 80 2C 80 
 43147)    185316.4  Rx         0024  5  00 00 2F 18 03 
 43148)    185316.6  Rx         0020  5  0A 00 CB 1A 03 
 43149)    185317.1  Rx         0021  5  00 00 00 00 00 
 43150)    185317.3  Rx         0025  8  FF 03 FE 03 FC 03 FA 03 
 43151)    185317.6  Rx         0026  6  77 1B 88 7C 88 32 
 43152)    185317.7  Rx         0020  5  0A 00 CB 1A 03 
 43153)    185317.9  Rx         0024  5  00 00 2F 18 03 
 43154)    185318.1  Rx         0022  5  0B 00 20 1E 03 
 43155)    185318.3  Rx         0021  5  00 00 00 00 00 
 43156)    185318.5  Rx         0030  6  33 01 27 89 4E C8 
 43157)    185318.7  Rx         0023  5  00 00 00 00 00 
 43158)    185318.9  Rx         0020  5  0A 00 CB 1A 03 
 43159)    185319.1  Rx         0025  8  FE 03 FE 03 FF 03 FE 03 
 43160)    185319.3  Rx         0022  5  0B 00 20 1E 01 
 43161)    185319.5  Rx         0021  5  00 00 00 00 00 
 43162)    185319.7  Rx         0024  5  00 00 2F 18 03 
 43163)    185319.9  Rx         0023  5  00 00 00 00 00 
 43164)    185320.1  Rx         0020  5  0A 00 CB 1A 03 
 43165)    185320.3  Rx         0031  6  27 80 16 80 38 80 
 43166)    185320.5  Rx         0022  5  0B 00 1F 1E 01 
 43167)    185320.7  Rx         0021  5  00 00 00 00 00 
 43168)    185321.0  Rx         0025  8  FD 03 FE 03 FF 03 FC 03 
 43169)    185321.1  Rx         0023  5  00 00 00 00 00 
 43170)    185321.3  Rx         0020  5  0A 00 CB 1A 03 
 43171)    185321.5  Rx         0024  5  00 00 2F 18 03 
 43172)    185321.7  Rx         0022  5  0B 00 1F 1E 01 
 43173)    185321.9  Rx         0021  5  00 00 00 00 00 
 43174)    185322.2  Rx         0023  5  00 00 00 00 00 
 43175)    185322.5  Rx         0025  8  FE 03 FD 03 FF 03 FC 03 
 43176)    185322.6  Rx         0020  5  0A 00 CB 1A 03 
 43177)    185322.8  Rx         0022  5  0B 00 1E 1E 03 
 43178)    185323.0  Rx         0024  5  00 00 2F 18 03 
 43179)    185323.2  Rx         0021  5  00 00 00 00 00 
 43180)    185323.4  Rx         0023  5  00 00 00 00 00 
 43181)    185323.6  Rx         0030  6  33 01 27 89 4E C8 
 43182)    185323.8  Rx         0020  5  0A 00 CB 1A 03 
 43183)    185324.0  Rx         0022  5  0B 00 1D 1E 03 
 43184)    185324.2  Rx         0025  8  FF 03 FF 03 FF 03 FD 03 
 43185)    185324.4  Rx         0021  5  00 00 00 00 00 
 43186)    185324.6  Rx         0023  5  00 00 00 00 00 
 43187)    185324.8  Rx         0024  5  00 00 2F 18 03 
 43188)    185324.9  Rx         0020  5  0A 00 CB 1A 03 
 43189)    185325.2  Rx         0022  5  0B 00 1C 1E 03 
 43190)    185325.5  Rx         0021  5  00 00 00 00 00 
 43191)    185325.7  Rx         0023  5  00 00 00 00 00 
 43192)    185325.9  Rx         0025  8  FE 03 FF 03 FF 03 FC 03 
 43193)    185326.1  Rx         0020  5  0A 00 CB 1A 03 
 43194)    185326.3  Rx         0022  5  0B 00 1C 1E 01 
 43195)    185326.5  Rx         0024  5  00 00 2F 18 03 
 43196)    185326.7  Rx         0021  5  00 00 00 00 00 
 43197)    185326.9  Rx         0023  5  00 00 00 00 00 
 43198)    185327.1  Rx         0031  6  27 80 16 80 38 80 
 43199)    185327.2  Rx         0020  5  0A 00 CB 1A 03 
 43200)    185327.5  Rx         0025  8  FC 03 FE 03 FE 03 FD 03 
 43201)    185327.8  Rx         0021  5  00 00 00 00 00 
 43202)    185328.0  Rx         0024  5  00 00 2F 18 03 
 43203)    185328.3  Rx         0020  5  0A 00 CB 1A 03 
 43204)    185328.7  Rx         0030  6  27 01 1B 89 43 C8 
 43205)    185328.9  Rx         0021  5  00 00 00 00 00 
 43206)    185329.1  Rx         0025  8  FB 03 FC 03 FC 03 F8 03 
 43207)    185329.3  Rx         0026  6  77 1B 93 7C 88 32 
 43208)    185329.6  Rx         0020  5  0A 00 CB 1A 03 
 43209)    185329.7  Rx         0024  5  00 00 2F 18 03 
 43210)    185329.9  Rx         0022  5  0B 00 1A 1E 03 
 43211)    185330.1  Rx         0021  5  00 00 00 00 00 
 43212)    185330.3  Rx         0031  6  2F 80 FD 7F 4A 80 
 43213)    185330.5  Rx         0023  5  00 00 00 00 00 
 43214)    185330.7  Rx         0020  5  0A 00 CB 1A 03 
 43215)    185331.0  Rx         0025  8  FE 03 FF 03 FF 03 FD 03 
 43216)    185331.2  Rx         0022  5  0B 00 1A 1E 01 
 43217)    185331.3  Rx         0021  5  00 00 00 00 00 
 43218)    185331.6  Rx         0024  5  00 00 2F 18 03 
 43219)    185331.7  Rx         0023  5  00 00 00 00 00 
 43220)    185331.9  Rx         0020  5  0A 00 CB 1A 03 
 43221)    185332.2  Rx         0022  5  0B 00 19 1E 01 
 43222)    185332.4  Rx         0021  5  00 00 00 00 00 
 43223)    185332.7  Rx         0025  8  FE 03 FF 03 FF 03 FD 03 
 43224)    185332.8  Rx         0023  5  00 00 00 00 00 
 43225)    185333.1  Rx         0020  5  0A 00 CB 1A 03 
 43226)    185333.2  Rx         0024  5  00 00 2F 18 03 
 43227)    185333.4  Rx         0022  5  0B 00 18 1E 03 
 43228)    185333.6  Rx         0021  5  00 00 00 00 00 
 43229)    185333.8  Rx         0030  6  27 01 1B 89 43 C8 
 43230)    185334.0  Rx         0023  5  00 00 00 00 00 
 43231)    185334.2  Rx         0020  5  0A 00 CB 1A 03 
 43232)    185334.4  Rx         0025  8  FE 03 FE 03 FF 03 FF 03 
 43233)    185334.6  Rx         0022  5  0B 00 18 1E 01 
 43234)    185334.8  Rx         0021  5  00 00 00 00 00 
 43235)    185335.0  Rx         0024  5  00 00 2F 18 03 
 43236)    185335.2  Rx         0023  5  00 00 00 00 00 
 43237)    185335.4  Rx         0020  5  0A 00 CB 1A 03 
 43238)    185335.7  Rx         0022  5  0B 00 18 1E 01 
 43239)    185336.0  Rx         0025  8  FF 03 FF 03 FF 03 FB 03 
 43240)    185336.1  Rx         0021  5  00 00 00 00 00 
 43241)    185336.3  Rx         0023  5  00 00 00 00 00 
 43242)    185336.5  Rx         0024  5  00 00 2F 18 03 
 43243)    185336.7  Rx         0020  5  0A 00 CB 1A 03 
 43244)    185336.9  Rx         0022  5  0B 00 17 1E 01 
 43245)    185337.1  Rx         0031  6  2F 80 FD 7F 4A 80 
 43246)    185337.3  Rx         0021  5  00 00 00 00 00 
 43247)    185337.5  Rx         0023  5  00 00 00 00 00 
 43248)    185337.7  Rx         0025  8  FF 03 FF 03 FE 03 FD 03 
 43249)    185337.9  Rx         0020  5  0A 00 CB 1A 03 
 43250)    185338.2  Rx         0024  5  00 00 2F 18 03 
 43251)    185338.4  Rx         0021  5  00 00 00 00 00 
 43252)    185338.7  Rx         0030  6  1C 01 10 89 43 C8 
 43253)    185338.9  Rx         0020  5  0A 00 CB 1A 03 
 43254)    185339.2  Rx         0025  8  FE 03 FD 03 FD 03 FC 03 
 43255)    185339.4  Rx         0021  5  00 00 00 00 00 
 43256)    185339.6  Rx         0024  5  00 00 2F 18 03 
 43257)    185339.9  Rx         0020  5  0A 00 CB 1A 03 
 43258)    185340.1  Rx         0026  6  8E 1B 93 7C 88 32 
 43259)    185340.4  Rx         0031  6  2E 80 02 80 5B 80 
 43260)    185340.6  Rx         0021  5  00 00 00 00 00 
 43261)    185340.7  Rx         0022  5  0B 00 15 1E 01 
 43262)    185341.0  Rx         0025  8  FB 03 FC 03 FD 03 FD 03 
 43263)    185341.2  Rx         0020  5  0A 00 CB 1A 03 
 43264)    185341.4  Rx         0023  5  00 00 00 00 00 
 43265)    185341.5  Rx         0024  5  00 00 2F 18 03 
 43266)    185341.8  Rx         0021  5  00 00 00 00 00 
 43267)    185341.9  Rx         0022  5  0B 00 14 1E 03 
 43268)    185342.2  Rx         0020  5  0A 00 CB 1A 03 
 43269)    185342.4  Rx         0023  5  00 00 00 00 00 
 43270)    185342.7  Rx         0025  8  FF 03 FF 03 FF 03 FD 03 
 43271)    185342.9  Rx         0021  5  00 00 00 00 00 
 43272)    185343.0  Rx         0022  5  0B 00 14 1E 01 
 43273)    185343.3  Rx         0024  5  00 00 2F 18 03 
 43274)    185343.4  Rx         0020  5  0A 00 CB 1A 03 
 43275)    185343.6  Rx         0023  5  00 00 00 00 00 
 43276)    185343.8  Rx         0030  6  1C 01 10 89 43 C8 
 43277)    185344.0  Rx         0021  5  00 00 00 00 00 
 43278)    185344.2  Rx         0022  5  0B 00 13 1E 03 
 43279)    185344.4  Rx         0025  8  FF 03 FF 03 FF 03 FF 03 
 43280)    185344.6  Rx         0020  5  0A 00 CB 1A 03 
 43281)    185344.8  Rx         0023  5  00 00 00 00 00 
 43282)    185345.0  Rx         0024  5  00 00 2F 18 03 
 43283)    185345.2  Rx         0021  5  00 00 00 00 00 
 43284)    185345.4  Rx         0022  5  0B 00 12 1E 03 
 43285)    185345.7  Rx         0020  5  0A 00 CB 1A 03 
 43286)    185345.9  Rx         0023  5  00 00 00 00 00 
 43287)    185346.2  Rx         0025  8  FF 03 FF 03 FF 03 FE 03 
 43288)    185346.4  Rx         0021  5  00 00 00 00 00 
 43289)    185346.5  Rx         0022  5  0B 00 12 1E 01 
 43290)    185346.7  Rx         0024  5  00 00 2F 18 03 
 43291)    185346.9  Rx         0020  5  0A 00 CB 1A 03 
 43292)    185347.1  Rx         0023  5  00 00 00 00 00 
 43293)    185347.3  Rx         0031  6  2E 80 02 80 5B 80 
 43294)    185347.5  Rx         0021  5  00 00 00 00 00 
 43295)    185347.7  Rx         0022  5  0B 00 11 1E 01 
 43296)    185347.9  Rx         0025  8  FE 03 FE 03 FF 03 FB 03 
 43297)    185348.1  Rx         0020  5  0A 00 CB 1A 03 
 43298)    185348.3  Rx         0023  5  00 00 00 00 00 
 43299)    185348.5  Rx         0024  5  00 00 2F 18 03 
 43300)    185348.7  Rx         0021  5  00 00 00 00 00 
 43301)    185348.9  Rx         0030  6  11 01 05 89 43 C8 
 43302)    185349.1  Rx         0020  5  0A 00 CB 1A 03 
 43303)    185349.4  Rx         0025  8  FE 03 FD 03 FE 03 FC 03 
 43304)    185349.7  Rx         0021  5  00 00 00 00 00 
 43305)    185349.9  Rx         0024  5  00 00 2F 18 03 
 43306)    185350.2  Rx         0020  5  0A 00 CB 1A 03 
 43307)    185350.7  Rx         0031  6  1C 80 2F 80 67 80 
 43308)    185350.9  Rx         0021  5  00 00 00 00 00 
 43309)    185351.1  Rx         0025  8  FD 03 FC 03 FC 03 F9 03 
 43310)    185351.4  Rx         0026  6  A4 1B 93 7C 93 32 
 43311)    185351.5  Rx         0020  5  0A 00 CB 1A 03 
 43312)    185351.7  Rx         0024  5  00 00 2F 18 03 
 43313)    185351.9  Rx         0022  5  0B 00 0F 1E 01 
 43314)    185352.1  Rx         0021  5  00 00 00 00 00 
 43315)    185352.3  Rx         0023  5  00 00 00 00 00 
 43316)    185352.6  Rx         0025  8  FC 03 FD 03 FF 03 FE 03 
 43317)    185352.8  Rx         0020  5  0A 00 CB 1A 03 
 43318)    185353.0  Rx         0022  5  0B 00 0E 1E 03 
 43319)    185353.2  Rx         0024  5  00 00 2F 18 03 
 43320)    185353.4  Rx         0021  5  00 00 00 00 00 
 43321)    185353.6  Rx         0023  5  00 00 00 00 00 
 43322)    185353.8  Rx         0030  6  11 01 05 89 43 C8 
 43323)    185354.0  Rx         0020  5  0A 00 CB 1A 03 
 43324)    185354.1  Rx         0022  5  0B 00 0E 1E 01 
 43325)    185354.4  Rx         0025  8  FF 03 FF 03 FF 03 FF 03 
 43326)    185354.6  Rx         0021  5  00 00 00 00 00 
 43327)    185354.8  Rx         0023  5  00 00 00 00 00 
 43328)    185354.9  Rx         0024  5  00 00 2F 18 03 
 43329)    185355.2  Rx         0020  5  0A 00 CB 1A 03 
 43330)    185355.3  Rx         0022  5  0B 00 0D 1E 03 
 43331)    185355.7  Rx         0021  5  00 00 00 00 00 
 43332)    185355.9  Rx         0023  5  00 00 00 00 00 
 43333)    185356.1  Rx         0025  8  FF 03 FE 03 FF 03 FC 03 
 43334)    185356.3  Rx         0020  5  0A 00 CB 1A 03 
 43335)    185356.5  Rx         0022  5  0B 00 0D 1E 01 
 43336)    185356.7  Rx         0024  5  00 00 2F 18 03 
 43337)    185356.9  Rx         0021  5  00 00 00 00 00 
