;$FILEVERSION=1.1
;$STARTTIME=45805.7650581597
;
;   Start time: 2025/5/28 18:21:41.025.0
;   Generated by PCAN-View v5.3.2.952
;
;   Message Number
;   |         Time Offset (ms)
;   |         |        Type
;   |         |        |        ID (hex)
;   |         |        |        |     Data Length
;   |         |        |        |     |   Data Bytes (hex) ...
;   |         |        |        |     |   |
;---+--   ----+----  --+--  ----+---  +  -+ -- -- -- -- -- -- --
     1)         0.1  Rx         0020  5  0A 00 5C 19 03 
     2)         0.3  Rx         0022  5  0B 00 01 1D 01 
     3)         0.7  Rx         0021  5  00 00 00 00 00 
     4)         1.0  Rx         0023  5  00 00 00 00 00 
     5)         1.4  Rx         0020  5  0A 00 5C 19 03 
     6)         1.6  Rx         0022  5  0B 00 01 1D 01 
     7)         3.8  Rx         0020  5  0A 00 5C 19 03 
     8)         3.9  Rx         0022  5  0B 00 01 1D 01 
     9)         7.9  Rx         0021  5  00 00 00 00 00 
    10)         8.1  Rx         0023  5  00 00 00 00 00 
    11)         8.5  Rx         0020  5  0A 00 5C 19 03 
    12)         9.7  Rx         0020  5  0A 00 5C 19 03 
    13)        10.2  Rx         0021  5  00 00 00 00 00 
    14)        10.6  Rx         0026  6  71 00 65 80 AA 3A 
    15)        10.7  Rx         0020  5  0A 00 5C 19 03 
    16)        11.0  Rx         0022  5  0B 00 01 1D 01 
    17)        11.3  Rx         0021  5  00 00 00 00 00 
    18)        11.7  Rx         0023  5  00 00 00 00 00 
    19)        11.9  Rx         0020  5  0A 00 5C 19 03 
    20)        12.3  Rx         0022  5  0B 00 01 1D 01 
    21)        12.5  Rx         0021  5  00 00 00 00 00 
    22)        12.9  Rx         0023  5  00 00 00 00 00 
    23)        13.1  Rx         0020  5  0A 00 5C 19 03 
    24)        13.5  Rx         0022  5  0B 00 01 1D 01 
    25)        13.7  Rx         0021  5  00 00 00 00 00 
    26)        14.1  Rx         0023  5  00 00 00 00 00 
    27)        14.3  Rx         0020  5  0A 00 5C 19 03 
    28)        14.7  Rx         0022  5  0B 00 01 1D 01 
    29)        14.9  Rx         0021  5  00 00 00 00 00 
    30)        15.3  Rx         0023  5  00 00 00 00 00 
    31)        15.5  Rx         0020  5  0A 00 5C 19 03 
    32)        15.9  Rx         0022  5  0B 00 01 1D 01 
    33)        16.1  Rx         0021  5  00 00 00 00 00 
    34)        16.4  Rx         0023  5  00 00 00 00 00 
    35)        16.7  Rx         0020  5  0A 00 5C 19 03 
    36)        16.9  Rx         0022  5  0B 00 01 1D 01 
    37)        17.1  Rx         0021  5  00 00 00 00 00 
    38)        17.4  Rx         0023  5  00 00 00 00 00 
    39)        17.6  Rx         0020  5  0A 00 5C 19 03 
    40)        17.8  Rx         0022  5  0B 00 01 1D 01 
    41)        18.1  Rx         0021  5  00 00 00 00 00 
    42)        18.4  Rx         0023  5  00 00 00 00 00 
    43)        18.7  Rx         0020  5  0A 00 5C 19 03 
    44)        19.2  Rx         0021  5  00 00 00 00 00 
    45)        19.9  Rx         0020  5  0A 00 5C 19 03 
    46)        22.8  Rx         0023  5  00 00 00 00 00 
    47)        23.0  Rx         0021  5  00 00 00 00 00 
    48)        23.4  Rx         0022  5  0B 00 01 1D 01 
    49)        23.6  Rx         0020  5  0A 00 5C 19 03 
    50)        24.1  Rx         0023  5  00 00 00 00 00 
    51)        24.2  Rx         0021  5  00 00 00 00 00 
    52)        24.7  Rx         0022  5  0B 00 01 1D 01 
    53)        24.9  Rx         0020  5  0A 00 5C 19 03 
    54)        25.4  Rx         0023  5  00 00 00 00 00 
    55)        25.5  Rx         0021  5  00 00 00 00 00 
    56)        25.9  Rx         0022  5  0B 00 01 1D 01 
    57)        26.1  Rx         0020  5  0A 00 5C 19 03 
    58)        26.5  Rx         0023  5  00 00 00 00 00 
    59)        26.7  Rx         0021  5  00 00 00 00 00 
    60)        27.1  Rx         0022  5  0B 00 01 1D 01 
    61)        27.3  Rx         0020  5  0A 00 5C 19 03 
    62)        27.7  Rx         0023  5  00 00 00 00 00 
    63)        27.9  Rx         0021  5  00 00 00 00 00 
    64)        28.4  Rx         0022  5  0B 00 01 1D 01 
    65)        28.6  Rx         0020  5  0A 00 5C 19 03 
    66)        29.0  Rx         0023  5  00 00 00 00 00 
    67)        29.2  Rx         0021  5  00 00 00 00 00 
    68)        31.0  Rx         0020  5  0A 00 5C 19 03 
    69)        31.5  Rx         0021  5  00 00 00 00 00 
    70)        41.9  Rx         0021  5  00 00 00 00 00 
    71)        49.1  Rx         0021  5  00 00 00 00 00 
    72)        49.2  Rx         0022  5  0B 00 01 1D 01 
    73)        49.7  Rx         0020  5  0A 00 5C 19 03 
    74)        49.9  Rx         0023  5  00 00 00 00 00 
    75)        53.2  Rx         0020  5  0A 00 5C 19 03 
    76)        58.6  Rx         0021  5  00 00 00 00 00 
    77)        58.8  Rx         0023  5  00 00 00 00 00 
    78)        61.0  Rx         0021  5  00 00 00 00 00 
    79)        61.1  Rx         0023  5  00 00 00 00 00 
    80)        61.6  Rx         0020  5  0A 00 5C 19 03 
    81)        61.8  Rx         0022  5  0B 00 01 1D 01 
    82)        63.4  Rx         0021  5  00 00 00 00 00 
    83)        63.9  Rx         0020  5  0A 00 5C 19 03 
    84)        64.1  Rx         0026  6  71 00 5A 80 AA 3A 
    85)        68.0  Rx         0021  5  00 00 00 00 00 
    86)        68.2  Rx         0022  5  0B 00 01 1D 01 
    87)        70.3  Rx         0021  5  00 00 00 00 00 
    88)        70.6  Rx         0022  5  0B 00 01 1D 01 
    89)        71.0  Rx         0020  5  0A 00 5C 19 03 
    90)        71.2  Rx         0023  5  00 00 00 00 00 
    91)        73.3  Rx         0020  5  0A 00 5C 19 03 
    92)        73.5  Rx         0023  5  00 00 00 00 00 
    93)        74.0  Rx         0021  5  00 00 00 00 00 
    94)        75.8  Rx         0020  5  0A 00 5C 19 03 
    95)        75.9  Rx         0022  5  0B 00 01 1D 01 
    96)        78.1  Rx         0020  5  0A 00 5C 19 03 
    97)        78.3  Rx         0022  5  0B 00 01 1D 01 
    98)        80.5  Rx         0020  5  0A 00 5C 19 03 
    99)        80.6  Rx         0022  5  0B 00 01 1D 01 
   100)        81.1  Rx         0021  5  00 00 00 00 00 
   101)        81.3  Rx         0023  5  00 00 00 00 00 
   102)        83.4  Rx         0021  5  00 00 00 00 00 
   103)        83.6  Rx         0023  5  00 00 00 00 00 
   104)        84.1  Rx         0020  5  0A 00 5D 19 01 
   105)        84.2  Rx         0022  5  0B 00 01 1D 01 
   106)        85.9  Rx         0021  5  00 00 00 00 00 
   107)        86.4  Rx         0020  5  0A 00 5D 19 01 
   108)        87.4  Rx         0026  6  71 00 5A 80 AA 3A 
   109)        87.8  Rx         0020  5  0A 00 5D 19 01 
   110)        88.0  Rx         0022  5  0B 00 01 1D 01 
   111)        88.3  Rx         0021  5  00 00 00 00 00 
   112)        88.6  Rx         0023  5  00 00 00 00 00 
   113)        88.9  Rx         0020  5  0A 00 5D 19 01 
   114)        89.2  Rx         0022  5  0B 00 01 1D 01 
   115)        90.1  Rx         0020  5  0A 00 5D 19 01 
   116)        90.3  Rx         0022  5  0B 00 01 1D 01 
   117)        90.6  Rx         0021  5  00 00 00 00 00 
   118)        90.8  Rx         0023  5  00 00 00 00 00 
   119)        91.1  Rx         0020  5  0A 00 5D 19 01 
   120)        91.3  Rx         0022  5  0B 00 01 1D 01 
   121)        91.6  Rx         0021  5  00 00 00 00 00 
   122)        91.8  Rx         0023  5  00 00 00 00 00 
   123)        92.2  Rx         0020  5  0A 00 5D 19 01 
   124)        92.4  Rx         0022  5  0B 00 01 1D 01 
   125)        92.9  Rx         0021  5  00 00 00 00 00 
   126)        93.0  Rx         0023  5  00 00 00 00 00 
   127)        93.5  Rx         0020  5  0A 00 5D 19 01 
   128)        93.6  Rx         0022  5  0B 00 01 1D 01 
   129)        94.1  Rx         0021  5  00 00 00 00 00 
   130)        94.3  Rx         0023  5  00 00 00 00 00 
   131)        94.7  Rx         0020  5  0A 00 5D 19 01 
   132)        94.9  Rx         0022  5  0B 00 01 1D 01 
   133)        95.3  Rx         0021  5  00 00 00 00 00 
   134)        95.5  Rx         0023  5  00 00 00 00 00 
   135)        95.9  Rx         0020  5  0A 00 5D 19 01 
   136)        97.0  Rx         0020  5  0A 00 5D 19 03 
   137)        97.5  Rx         0021  5  00 00 00 00 00 
   138)        98.0  Rx         0026  6  71 00 5A 80 AA 3A 
   139)        98.2  Rx         0020  5  0A 00 5D 19 03 
   140)        98.4  Rx         0022  5  0B 00 01 1D 01 
   141)        98.8  Rx         0021  5  00 00 00 00 00 
   142)        99.0  Rx         0023  5  00 00 00 00 00 
   143)        99.5  Rx         0020  5  0A 00 5D 19 03 
   144)        99.6  Rx         0022  5  0B 00 01 1D 01 
   145)       100.1  Rx         0021  5  00 00 00 00 00 
   146)       100.2  Rx         0023  5  00 00 00 00 00 
   147)       100.7  Rx         0020  5  0A 00 5D 19 03 
   148)       100.9  Rx         0022  5  0B 00 01 1D 01 
   149)       101.3  Rx         0021  5  00 00 00 00 00 
   150)       101.5  Rx         0023  5  00 00 00 00 00 
   151)       101.9  Rx         0020  5  0A 00 5D 19 03 
   152)       102.1  Rx         0022  5  0B 00 01 1D 01 
   153)       102.5  Rx         0021  5  00 00 00 00 00 
   154)       102.7  Rx         0023  5  00 00 00 00 00 
   155)       103.1  Rx         0020  5  0A 00 5D 19 03 
   156)       103.3  Rx         0022  5  0B 00 01 1D 01 
   157)       103.7  Rx         0021  5  00 00 00 00 00 
   158)       103.9  Rx         0023  5  00 00 00 00 00 
   159)       104.3  Rx         0020  5  0A 00 5D 19 03 
   160)       104.5  Rx         0022  5  0B 00 01 1D 01 
   161)       104.9  Rx         0021  5  00 00 00 00 00 
   162)       105.1  Rx         0023  5  00 00 00 00 00 
   163)       111.8  Rx         0022  5  0B 00 01 1D 01 
   164)       112.0  Rx         0021  5  00 00 00 00 00 
   165)       112.5  Rx         0023  5  00 00 00 00 00 
   166)       112.7  Rx         0020  5  0A 00 5D 19 03 
   167)       119.2  Rx         0021  5  00 00 00 00 00 
   168)       122.8  Rx         0021  5  00 00 00 00 00 
   169)       122.9  Rx         0022  5  0B 00 01 1D 01 
   170)       123.4  Rx         0020  5  0A 00 5E 19 01 
   171)       123.6  Rx         0023  5  00 00 00 00 00 
   172)       128.7  Rx         0021  5  00 00 00 00 00 
   173)       130.5  Rx         0020  5  0A 00 5E 19 01 
   174)       134.0  Rx         0020  5  0A 00 5E 19 03 
   175)       134.2  Rx         0022  5  0B 00 01 1D 01 
   176)       134.7  Rx         0021  5  00 00 00 00 00 
   177)       134.9  Rx         0023  5  00 00 00 00 00 
   178)       140.0  Rx         0020  5  0A 00 5E 19 03 
   179)       141.8  Rx         0021  5  00 00 00 00 00 
   180)       143.4  Rx         0023  5  00 00 00 00 00 
   181)       143.7  Rx         0020  5  0A 00 5F 19 01 
   182)       144.0  Rx         0022  5  0B 00 01 1D 01 
   183)       149.1  Rx         0021  5  00 00 00 00 00 
   184)       149.3  Rx         0023  5  00 00 00 00 00 
   185)       149.8  Rx         0020  5  0A 00 5F 19 01 
   186)       149.9  Rx         0022  5  0B 00 01 1D 01 
   187)       151.5  Rx         0021  5  00 00 00 00 00 
   188)       153.3  Rx         0020  5  0A 00 5F 19 01 
   189)       153.5  Rx         0023  5  00 00 00 00 00 
   190)       160.4  Rx         0020  5  0A 00 5F 19 03 
   191)       160.5  Rx         0023  5  00 00 00 00 00 
   192)       161.0  Rx         0021  5  00 00 00 00 00 
   193)       161.2  Rx         0022  5  0B 00 01 1D 01 
   194)       162.8  Rx         0020  5  0A 00 60 19 01 
   195)       164.6  Rx         0021  5  00 00 00 00 00 
   196)       164.8  Rx         0023  5  00 00 00 00 00 
   197)       169.9  Rx         0020  5  0A 00 60 19 01 
   198)       170.1  Rx         0022  5  0B 00 01 1D 01 
   199)       170.6  Rx         0021  5  00 00 00 00 00 
   200)       170.7  Rx         0023  5  00 00 00 00 00 
   201)       174.1  Rx         0021  5  00 00 00 00 00 
   202)       179.4  Rx         0020  5  0A 00 60 19 03 
   203)       179.6  Rx         0023  5  00 00 00 00 00 
   204)       180.1  Rx         0021  5  00 00 00 00 00 
   205)       180.3  Rx         0022  5  0B 00 01 1D 01 
   206)       182.4  Rx         0021  5  00 00 00 00 00 
   207)       182.6  Rx         0022  5  0B 00 01 1D 01 
   208)       183.1  Rx         0020  5  0A 00 61 19 01 
   209)       183.3  Rx         0023  5  00 00 00 00 00 
   210)       186.0  Rx         0021  5  00 00 00 00 00 
   211)       186.4  Rx         0026  6  7D 00 5A 80 B5 3A 
   212)       186.6  Rx         0020  5  0A 00 61 19 01 
   213)       187.0  Rx         0022  5  0B 00 01 1D 01 
   214)       187.2  Rx         0021  5  00 00 00 00 00 
   215)       188.7  Rx         0023  5  00 00 00 00 00 
   216)       189.2  Rx         0020  5  0A 00 61 19 03 
   217)       189.3  Rx         0022  5  0B 00 01 1D 01 
   218)       189.8  Rx         0021  5  00 00 00 00 00 
   219)       190.0  Rx         0023  5  00 00 00 00 00 
   220)       192.1  Rx         0021  5  00 00 00 00 00 
   221)       192.4  Rx         0023  5  00 00 00 00 00 
   222)       192.8  Rx         0020  5  0A 00 62 19 01 
   223)       193.0  Rx         0022  5  0B 00 01 1D 01 
   224)       195.1  Rx         0020  5  0A 00 62 19 01 
   225)       195.3  Rx         0022  5  0B 00 01 1D 01 
   226)       196.9  Rx         0021  5  00 00 00 00 00 
   227)       197.5  Rx         0020  5  0A 00 62 19 01 
   228)       198.5  Rx         0026  6  7D 00 5A 80 B5 3A 
   229)       198.8  Rx         0020  5  0A 00 62 19 01 
   230)       199.0  Rx         0022  5  0B 00 01 1D 01 
   231)       199.4  Rx         0021  5  00 00 00 00 00 
   232)       199.6  Rx         0023  5  00 00 00 00 00 
   233)       200.0  Rx         0020  5  0A 00 62 19 01 
   234)       200.2  Rx         0022  5  0B 00 01 1D 01 
   235)       202.9  Rx         0021  5  00 00 00 00 00 
   236)       203.1  Rx         0023  5  00 00 00 00 00 
   237)       207.8  Rx         0021  5  00 00 00 00 00 
   238)       208.9  Rx         0021  5  00 00 00 00 00 
   239)       212.4  Rx         0021  5  00 00 00 00 00 
   240)       212.6  Rx         0022  5  0B 00 01 1D 01 
   241)       213.0  Rx         0020  5  0A 00 63 19 03 
   242)       213.2  Rx         0023  5  00 00 00 00 00 
   243)       214.2  Rx         0020  5  0A 00 63 19 03 
   244)       214.4  Rx         0023  5  00 00 00 00 00 
   245)       214.7  Rx         0021  5  00 00 00 00 00 
   246)       214.9  Rx         0022  5  0B 00 01 1D 01 
   247)       215.2  Rx         0020  5  0A 00 63 19 03 
   248)       215.4  Rx         0023  5  00 00 00 00 00 
   249)       215.8  Rx         0021  5  00 00 00 00 00 
   250)       216.0  Rx         0022  5  0B 00 01 1D 01 
   251)       216.4  Rx         0020  5  0A 00 63 19 03 
   252)       216.6  Rx         0023  5  00 00 00 00 00 
   253)       217.0  Rx         0021  5  00 00 00 00 00 
   254)       217.2  Rx         0022  5  0B 00 01 1D 01 
   255)       217.6  Rx         0020  5  0A 00 63 19 03 
   256)       217.8  Rx         0023  5  00 00 00 00 00 
   257)       218.2  Rx         0021  5  00 00 00 00 00 
   258)       218.4  Rx         0022  5  0B 00 01 1D 01 
   259)       218.8  Rx         0020  5  0A 00 63 19 03 
   260)       219.0  Rx         0023  5  00 00 00 00 00 
   261)       219.4  Rx         0021  5  00 00 00 00 00 
   262)       220.5  Rx         0021  5  00 00 00 00 00 
   263)       221.1  Rx         0020  5  0A 00 64 19 01 
   264)       221.4  Rx         0026  6  7D 00 5A 80 B5 3A 
   265)       221.6  Rx         0021  5  00 00 00 00 00 
   266)       221.8  Rx         0022  5  0B 00 01 1D 01 
   267)       222.1  Rx         0020  5  0A 00 64 19 01 
   268)       222.3  Rx         0023  5  00 00 00 00 00 
   269)       222.7  Rx         0021  5  00 00 00 00 00 
   270)       222.9  Rx         0022  5  0B 00 01 1D 01 
   271)       223.3  Rx         0020  5  0A 00 64 19 01 
   272)       223.5  Rx         0023  5  00 00 00 00 00 
   273)       224.0  Rx         0021  5  00 00 00 00 00 
   274)       224.1  Rx         0022  5  0B 00 01 1D 01 
   275)       224.5  Rx         0020  5  0A 00 64 19 01 
   276)       224.7  Rx         0023  5  00 00 00 00 00 
   277)       225.2  Rx         0021  5  00 00 00 00 00 
   278)       225.3  Rx         0022  5  0B 00 01 1D 01 
   279)       225.8  Rx         0020  5  0A 00 64 19 03 
   280)       226.0  Rx         0023  5  00 00 00 00 00 
   281)       226.3  Rx         0021  5  00 00 00 00 00 
   282)       226.6  Rx         0022  5  0B 00 01 1D 01 
   283)       226.9  Rx         0020  5  0A 00 64 19 03 
   284)       227.1  Rx         0023  5  00 00 00 00 00 
   285)       227.4  Rx         0021  5  00 00 00 00 00 
   286)       227.6  Rx         0022  5  0B 00 01 1D 01 
   287)       227.9  Rx         0020  5  0A 00 64 19 03 
   288)       228.1  Rx         0023  5  00 00 00 00 00 
   289)       228.6  Rx         0021  5  00 00 00 00 00 
   290)       228.7  Rx         0022  5  0B 00 01 1D 01 
   291)       229.2  Rx         0020  5  0A 00 64 19 03 
   292)       229.6  Rx         0023  5  00 00 00 00 00 
   293)       229.8  Rx         0021  5  00 00 00 00 00 
   294)       232.2  Rx         0021  5  00 00 00 00 00 
   295)       232.4  Rx         0022  5  0B 00 01 1D 01 
   296)       232.9  Rx         0020  5  0A 00 65 19 01 
   297)       233.0  Rx         0023  5  00 00 00 00 00 
   298)       233.5  Rx         0021  5  00 00 00 00 00 
   299)       233.7  Rx         0022  5  0B 00 01 1D 01 
   300)       234.2  Rx         0020  5  0A 00 65 19 01 
   301)       234.3  Rx         0023  5  00 00 00 00 00 
   302)       234.8  Rx         0021  5  00 00 00 00 00 
   303)       235.0  Rx         0022  5  0B 00 01 1D 01 
   304)       235.4  Rx         0020  5  0A 00 65 19 03 
   305)       235.6  Rx         0023  5  00 00 00 00 00 
   306)       236.0  Rx         0021  5  00 00 00 00 00 
   307)       236.2  Rx         0022  5  0B 00 01 1D 01 
   308)       236.6  Rx         0020  5  0A 00 65 19 03 
   309)       236.8  Rx         0023  5  00 00 00 00 00 
   310)       237.2  Rx         0021  5  00 00 00 00 00 
   311)       237.4  Rx         0022  5  0B 00 01 1D 01 
   312)       237.8  Rx         0020  5  0A 00 65 19 03 
   313)       238.0  Rx         0023  5  00 00 00 00 00 
   314)       238.5  Rx         0021  5  00 00 00 00 00 
   315)       238.6  Rx         0022  5  0B 00 01 1D 01 
   316)       239.1  Rx         0020  5  0A 00 65 19 03 
   317)       239.3  Rx         0023  5  00 00 00 00 00 
   318)       239.7  Rx         0021  5  00 00 00 00 00 
   319)       240.0  Rx         0022  5  0B 00 01 1D 01 
   320)       240.4  Rx         0020  5  0A 00 65 19 03 
   321)       240.6  Rx         0023  5  00 00 00 00 00 
   322)       241.0  Rx         0021  5  00 00 00 00 00 
   323)       244.4  Rx         0022  5  0B 00 01 1D 01 
   324)       244.9  Rx         0021  5  00 00 00 00 00 
   325)       245.1  Rx         0023  5  00 00 00 00 00 
   326)       245.6  Rx         0020  5  0A 00 66 19 03 
   327)       245.8  Rx         0022  5  0B 00 01 1D 01 
   328)       246.2  Rx         0021  5  00 00 00 00 00 
   329)       246.4  Rx         0023  5  00 00 00 00 00 
   330)       246.9  Rx         0020  5  0A 00 66 19 03 
   331)       247.1  Rx         0022  5  0B 00 01 1D 01 
   332)       247.5  Rx         0021  5  00 00 00 00 00 
   333)       247.6  Rx         0023  5  00 00 00 00 00 
   334)       248.1  Rx         0020  5  0A 00 66 19 03 
   335)       248.2  Rx         0022  5  0B 00 01 1D 01 
   336)       259.9  Rx         0020  5  0A 00 67 19 03 
   337)       260.1  Rx         0023  5  00 00 00 00 00 
   338)       262.2  Rx         0020  5  0A 00 67 19 03 
   339)       262.4  Rx         0023  5  00 00 00 00 00 
   340)       262.9  Rx         0021  5  00 00 00 00 00 
   341)       263.1  Rx         0022  5  0B 00 01 1D 01 
   342)       265.2  Rx         0021  5  00 00 00 00 00 
   343)       266.9  Rx         0020  5  0A 00 68 19 01 
   344)       267.2  Rx         0023  5  00 00 00 00 00 
   345)       269.3  Rx         0020  5  0A 00 68 19 01 
   346)       269.5  Rx         0023  5  00 00 00 00 00 
   347)       271.7  Rx         0020  5  0A 00 68 19 01 
   348)       271.9  Rx         0023  5  00 00 00 00 00 
   349)       272.3  Rx         0021  5  00 00 00 00 00 
   350)       272.5  Rx         0022  5  0B 00 01 1D 01 
   351)       274.7  Rx         0021  5  00 00 00 00 00 
   352)       275.8  Rx         0021  5  00 00 00 00 00 
   353)       280.4  Rx         0023  5  00 00 00 00 00 
   354)       280.6  Rx         0021  5  00 00 00 00 00 
   355)       281.1  Rx         0022  5  0B 00 01 1D 01 
   356)       281.3  Rx         0020  5  0A 00 68 19 03 
   357)       283.4  Rx         0022  5  0B 00 01 1D 01 
   358)       283.9  Rx         0020  5  0A 00 68 19 03 
   359)       284.1  Rx         0023  5  00 00 00 00 00 
   360)       284.5  Rx         0021  5  00 00 00 00 00 
   361)       284.7  Rx         0022  5  0B 00 01 1D 01 
   362)       285.1  Rx         0020  5  0A 00 68 19 03 
   363)       285.3  Rx         0023  5  00 00 00 00 00 
   364)       285.8  Rx         0021  5  00 00 00 00 00 
   365)       285.9  Rx         0022  5  0B 00 01 1D 01 
   366)       286.4  Rx         0020  5  0A 00 68 19 03 
   367)       286.5  Rx         0023  5  00 00 00 00 00 
   368)       287.0  Rx         0021  5  00 00 00 00 00 
   369)       288.1  Rx         0021  5  00 00 00 00 00 
   370)       288.6  Rx         0020  5  0A 00 69 19 01 
   371)       289.0  Rx         0026  6  7D 00 4F 80 B5 3A 
   372)       289.3  Rx         0021  5  00 00 00 00 00 
   373)       289.7  Rx         0022  5  0B 00 01 1D 01 
   374)       289.8  Rx         0020  5  0A 00 69 19 01 
   375)       290.3  Rx         0023  5  00 00 00 00 00 
   376)       290.5  Rx         0021  5  00 00 00 00 00 
   377)       290.9  Rx         0022  5  0B 00 01 1D 01 
   378)       291.1  Rx         0020  5  0A 00 69 19 01 
   379)       291.5  Rx         0023  5  00 00 00 00 00 
   380)       291.7  Rx         0021  5  00 00 00 00 00 
   381)       292.1  Rx         0022  5  0B 00 01 1D 01 
   382)       292.3  Rx         0020  5  0A 00 69 19 01 
   383)       292.7  Rx         0023  5  00 00 00 00 00 
   384)       292.9  Rx         0021  5  00 00 00 00 00 
   385)       293.3  Rx         0022  5  0B 00 01 1D 01 
   386)       293.5  Rx         0020  5  0A 00 69 19 01 
   387)       293.9  Rx         0023  5  00 00 00 00 00 
   388)       294.1  Rx         0021  5  00 00 00 00 00 
   389)       294.5  Rx         0022  5  0B 00 01 1D 01 
   390)       294.7  Rx         0020  5  0A 00 69 19 01 
   391)       295.1  Rx         0023  5  00 00 00 00 00 
   392)       295.3  Rx         0021  5  00 00 00 00 00 
   393)       295.7  Rx         0022  5  0B 00 01 1D 01 
   394)       295.9  Rx         0020  5  0A 00 69 19 01 
   395)       296.3  Rx         0023  5  00 00 00 00 00 
   396)       296.5  Rx         0021  5  00 00 00 00 00 
   397)       296.9  Rx         0022  5  0B 00 01 1D 01 
   398)       297.1  Rx         0020  5  0A 00 69 19 03 
   399)       297.6  Rx         0023  5  00 00 00 00 00 
   400)       297.7  Rx         0021  5  00 00 00 00 00 
   401)       298.2  Rx         0022  5  0B 00 01 1D 01 
   402)       298.3  Rx         0020  5  0A 00 69 19 03 
   403)       298.8  Rx         0023  5  00 00 00 00 00 
   404)       299.0  Rx         0021  5  00 00 00 00 00 
   405)       300.7  Rx         0020  5  0A 00 69 19 03 
   406)       301.2  Rx         0026  6  7D 00 4F 80 B5 3A 
   407)       301.4  Rx         0021  5  00 00 00 00 00 
   408)       301.8  Rx         0022  5  0B 00 01 1D 01 
   409)       302.0  Rx         0020  5  0A 00 69 19 03 
   410)       302.5  Rx         0023  5  00 00 00 00 00 
   411)       302.7  Rx         0021  5  00 00 00 00 00 
   412)       303.1  Rx         0022  5  0B 00 01 1D 01 
   413)       303.3  Rx         0020  5  0A 00 69 19 03 
   414)       315.3  Rx         0020  5  0A 00 69 19 03 
   415)       315.4  Rx         0022  5  0B 00 01 1D 01 
   416)       320.6  Rx         0021  5  00 00 00 00 00 
   417)       320.8  Rx         0023  5  00 00 00 00 00 
   418)       321.2  Rx         0020  5  0A 00 69 19 03 
   419)       322.4  Rx         0026  6  71 00 4F 80 B5 3A 
   420)       322.6  Rx         0020  5  0A 00 69 19 03 
   421)       322.9  Rx         0022  5  0B 00 01 1D 01 
   422)       323.3  Rx         0021  5  00 00 00 00 00 
   423)       323.5  Rx         0023  5  00 00 00 00 00 
   424)       324.0  Rx         0020  5  0A 00 69 19 03 
   425)       324.2  Rx         0022  5  0B 00 01 1D 01 
   426)       331.0  Rx         0020  5  0A 00 69 19 03 
   427)       331.2  Rx         0022  5  0B 00 01 1D 01 
   428)       331.7  Rx         0021  5  00 00 00 00 00 
   429)       331.9  Rx         0023  5  00 00 00 00 00 
   430)       333.5  Rx         0020  5  0A 00 69 19 03 
   431)       333.7  Rx         0026  6  66 00 4F 80 B5 3A 
   432)       334.2  Rx         0021  5  00 00 00 00 00 
   433)       334.3  Rx         0022  5  0B 00 01 1D 01 
   434)       334.8  Rx         0020  5  0A 00 69 19 03 
   435)       335.0  Rx         0023  5  00 00 00 00 00 
   436)       340.1  Rx         0021  5  00 00 00 00 00 
   437)       340.3  Rx         0022  5  0B 00 01 1D 01 
   438)       340.7  Rx         0020  5  0A 00 69 19 03 
   439)       340.9  Rx         0023  5  00 00 00 00 00 
   440)       344.2  Rx         0020  5  0A 00 69 19 03 
   441)       344.8  Rx         0021  5  00 00 00 00 00 
   442)       349.9  Rx         0023  5  00 00 00 00 00 
   443)       350.1  Rx         0020  5  0A 00 69 19 03 
   444)       350.4  Rx         0022  5  0B 00 01 1D 01 
   445)       350.6  Rx         0021  5  00 00 00 00 00 
   446)       350.9  Rx         0023  5  00 00 00 00 00 
   447)       353.1  Rx         0021  5  00 00 00 00 00 
   448)       353.2  Rx         0023  5  00 00 00 00 00 
   449)       353.7  Rx         0020  5  0A 00 69 19 03 
   450)       353.9  Rx         0022  5  0B 00 01 1D 01 
   451)       355.5  Rx         0021  5  00 00 00 00 00 
   452)       356.0  Rx         0020  5  0A 00 69 19 03 
   453)       357.0  Rx         0026  6  5B 00 43 80 C1 3A 
   454)       357.4  Rx         0020  5  0A 00 69 19 03 
   455)       357.6  Rx         0022  5  0B 00 01 1D 01 
   456)       358.0  Rx         0021  5  00 00 00 00 00 
   457)       358.2  Rx         0023  5  00 00 00 00 00 
   458)       362.7  Rx         0021  5  00 00 00 00 00 
   459)       362.9  Rx         0023  5  00 00 00 00 00 
   460)       363.3  Rx         0020  5  0A 00 69 19 03 
   461)       363.5  Rx         0022  5  0B 00 01 1D 01 
   462)       365.7  Rx         0020  5  0A 00 69 19 03 
   463)       367.5  Rx         0021  5  00 00 00 00 00 
   464)       367.9  Rx         0026  6  4F 00 43 80 C1 3A 
   465)       368.1  Rx         0020  5  0A 00 69 19 03 
   466)       370.2  Rx         0023  5  00 00 00 00 00 
   467)       370.5  Rx         0020  5  0A 00 69 19 01 
   468)       370.7  Rx         0022  5  0B 00 01 1D 01 
   469)       371.0  Rx         0021  5  00 00 00 00 00 
   470)       371.3  Rx         0023  5  00 00 00 00 00 
   471)       371.5  Rx         0020  5  0A 00 69 19 01 
   472)       371.8  Rx         0022  5  0B 00 01 1D 01 
   473)       373.9  Rx         0020  5  0A 00 69 19 01 
   474)       374.1  Rx         0022  5  0B 00 01 1D 01 
   475)       374.5  Rx         0021  5  00 00 00 00 00 
   476)       374.8  Rx         0023  5  00 00 00 00 00 
   477)       375.7  Rx         0021  5  00 00 00 00 00 
   478)       375.9  Rx         0023  5  00 00 00 00 00 
   479)       376.3  Rx         0020  5  0A 00 69 19 01 
   480)       376.4  Rx         0022  5  0B 00 01 1D 01 
   481)       376.9  Rx         0021  5  00 00 00 00 00 
   482)       377.1  Rx         0023  5  00 00 00 00 00 
   483)       377.5  Rx         0020  5  0A 00 69 19 01 
   484)       378.7  Rx         0020  5  0A 00 68 19 03 
   485)       379.2  Rx         0021  5  00 00 00 00 00 
   486)       379.6  Rx         0026  6  44 00 43 80 C1 3A 
   487)       379.8  Rx         0020  5  0A 00 68 19 03 
   488)       380.0  Rx         0022  5  0B 00 01 1D 01 
   489)       380.5  Rx         0021  5  00 00 00 00 00 
   490)       380.7  Rx         0023  5  00 00 00 00 00 
   491)       381.1  Rx         0020  5  0A 00 68 19 03 
   492)       381.3  Rx         0022  5  0B 00 01 1D 01 
   493)       381.7  Rx         0021  5  00 00 00 00 00 
   494)       381.9  Rx         0023  5  00 00 00 00 00 
   495)       382.3  Rx         0020  5  0A 00 68 19 03 
   496)       382.5  Rx         0022  5  0B 00 01 1D 01 
   497)       382.9  Rx         0021  5  00 00 00 00 00 
   498)       383.1  Rx         0023  5  00 00 00 00 00 
   499)       383.5  Rx         0020  5  0A 00 68 19 03 
   500)       383.7  Rx         0022  5  0B 00 01 1D 01 
   501)       384.1  Rx         0021  5  00 00 00 00 00 
   502)       384.3  Rx         0023  5  00 00 00 00 00 
   503)       384.7  Rx         0020  5  0A 00 68 19 03 
   504)       384.9  Rx         0022  5  0B 00 01 1D 01 
   505)       385.3  Rx         0021  5  00 00 00 00 00 
   506)       385.5  Rx         0023  5  00 00 00 00 00 
   507)       385.9  Rx         0020  5  0A 00 68 19 03 
   508)       386.1  Rx         0022  5  0B 00 01 1D 01 
   509)       386.4  Rx         0021  5  00 00 00 00 00 
   510)       386.7  Rx         0023  5  00 00 00 00 00 
   511)       387.0  Rx         0020  5  0A 00 68 19 01 
   512)       387.1  Rx         0022  5  0B 00 01 1D 01 
   513)       387.5  Rx         0021  5  00 00 00 00 00 
   514)       387.6  Rx         0023  5  00 00 00 00 00 
   515)       388.1  Rx         0020  5  0A 00 68 19 01 
   516)       390.6  Rx         0020  5  0A 00 68 19 01 
   517)       390.8  Rx         0022  5  0B 00 01 1D 01 
   518)       391.2  Rx         0021  5  00 00 00 00 00 
   519)       391.4  Rx         0023  5  00 00 00 00 00 
   520)       391.9  Rx         0020  5  0A 00 68 19 01 
   521)       392.0  Rx         0022  5  0B 00 01 1D 01 
   522)       392.5  Rx         0021  5  00 00 00 00 00 
   523)       392.7  Rx         0023  5  00 00 00 00 00 
   524)       393.1  Rx         0020  5  0A 00 67 19 03 
   525)       393.4  Rx         0022  5  0B 00 01 1D 01 
   526)       393.7  Rx         0021  5  00 00 00 00 00 
   527)       394.0  Rx         0023  5  00 00 00 00 00 
   528)       394.3  Rx         0020  5  0A 00 67 19 03 
   529)       394.5  Rx         0022  5  0B 00 01 1D 01 
   530)       394.9  Rx         0021  5  00 00 00 00 00 
   531)       395.1  Rx         0023  5  00 00 00 00 00 
   532)       395.5  Rx         0020  5  0A 00 67 19 03 
   533)       395.7  Rx         0022  5  0B 00 01 1D 01 
   534)       396.2  Rx         0021  5  00 00 00 00 00 
   535)       396.3  Rx         0023  5  00 00 00 00 00 
   536)       396.8  Rx         0020  5  0A 00 67 19 01 
   537)       397.0  Rx         0022  5  0B 00 01 1D 01 
   538)       397.4  Rx         0021  5  00 00 00 00 00 
   539)       397.7  Rx         0023  5  00 00 00 00 00 
   540)       398.1  Rx         0020  5  0A 00 67 19 01 
   541)       398.3  Rx         0022  5  0B 00 01 1D 01 
   542)       398.8  Rx         0021  5  00 00 00 00 00 
   543)       398.9  Rx         0023  5  00 00 00 00 00 
   544)       399.4  Rx         0020  5  0A 00 67 19 01 
   545)       402.8  Rx         0022  5  0B 00 01 1D 01 
   546)       403.0  Rx         0020  5  0A 00 67 19 01 
   547)       403.5  Rx         0023  5  00 00 00 00 00 
   548)       403.7  Rx         0021  5  00 00 00 00 00 
   549)       404.1  Rx         0022  5  0B 00 01 1D 01 
   550)       404.3  Rx         0020  5  0A 00 67 19 01 
   551)       404.8  Rx         0023  5  00 00 00 00 00 
   552)       405.0  Rx         0021  5  00 00 00 00 00 
   553)       405.4  Rx         0022  5  0B 00 01 1D 01 
   554)       405.6  Rx         0020  5  0A 00 67 19 01 
   555)       406.0  Rx         0023  5  00 00 00 00 00 
   556)       406.2  Rx         0021  5  00 00 00 00 00 
   557)       406.6  Rx         0022  5  0B 00 01 1D 01 
   558)       406.8  Rx         0020  5  0A 00 66 19 03 
   559)       407.2  Rx         0023  5  00 00 00 00 00 
   560)       407.4  Rx         0021  5  00 00 00 00 00 
   561)       407.9  Rx         0022  5  0B 00 01 1D 01 
   562)       408.0  Rx         0020  5  0A 00 66 19 03 
   563)       416.1  Rx         0023  5  00 00 00 00 00 
   564)       416.5  Rx         0020  5  0A 00 66 19 01 
   565)       416.7  Rx         0022  5  0B 00 01 1D 01 
   566)       420.6  Rx         0021  5  00 00 00 00 00 
   567)       420.8  Rx         0023  5  00 00 00 00 00 
   568)       423.0  Rx         0021  5  00 00 00 00 00 
   569)       431.8  Rx         0020  5  0A 00 64 19 03 
   570)       432.0  Rx         0023  5  00 00 00 00 00 
   571)       432.5  Rx         0021  5  00 00 00 00 00 
   572)       432.7  Rx         0022  5  0B 00 01 1D 01 
   573)       434.8  Rx         0021  5  00 00 00 00 00 
   574)       435.3  Rx         0026  6  0B 00 38 80 D7 3A 
   575)       435.5  Rx         0020  5  0A 00 64 19 03 
   576)       441.1  Rx         0023  5  00 00 00 00 00 
   577)       441.3  Rx         0020  5  0A 00 63 19 03 
   578)       441.8  Rx         0022  5  0B 00 01 1D 01 
   579)       442.0  Rx         0021  5  00 00 00 00 00 
   580)       444.3  Rx         0021  5  00 00 00 00 00 
   581)       445.5  Rx         0021  5  00 00 00 00 00 
   582)       445.9  Rx         0026  6  00 00 38 80 E3 3A 
   583)       446.1  Rx         0020  5  0A 00 63 19 03 
   584)       446.5  Rx         0022  5  0B 00 01 1D 01 
   585)       446.7  Rx         0021  5  00 00 00 00 00 
   586)       447.1  Rx         0023  5  00 00 00 00 00 
   587)       447.3  Rx         0020  5  0A 00 63 19 03 
   588)       447.7  Rx         0022  5  0B 00 01 1D 01 
   589)       447.9  Rx         0021  5  00 00 00 00 00 
   590)       448.3  Rx         0023  5  00 00 00 00 00 
   591)       448.5  Rx         0020  5  0A 00 63 19 01 
   592)       448.9  Rx         0022  5  0B 00 01 1D 01 
   593)       449.1  Rx         0021  5  00 00 00 00 00 
   594)       449.6  Rx         0023  5  00 00 00 00 00 
   595)       449.7  Rx         0020  5  0A 00 63 19 01 
   596)       450.2  Rx         0022  5  0B 00 01 1D 01 
   597)       450.3  Rx         0021  5  00 00 00 00 00 
   598)       450.8  Rx         0023  5  00 00 00 00 00 
   599)       450.9  Rx         0020  5  0A 00 63 19 01 
   600)       451.4  Rx         0022  5  0B 00 01 1D 01 
   601)       451.6  Rx         0021  5  00 00 00 00 00 
   602)       452.0  Rx         0023  5  00 00 00 00 00 
   603)       452.2  Rx         0020  5  0A 00 62 19 03 
   604)       452.5  Rx         0022  5  0B 00 01 1D 01 
   605)       452.8  Rx         0021  5  00 00 00 00 00 
   606)       453.2  Rx         0023  5  00 00 00 00 00 
   607)       453.4  Rx         0020  5  0A 00 62 19 03 
   608)       453.8  Rx         0022  5  0B 00 01 1D 01 
   609)       454.0  Rx         0021  5  00 00 00 00 00 
   610)       454.4  Rx         0023  5  00 00 00 00 00 
   611)       454.6  Rx         0020  5  0A 00 62 19 03 
   612)       456.3  Rx         0021  5  00 00 00 00 00 
   613)       456.9  Rx         0020  5  0A 00 62 19 03 
   614)       457.1  Rx         0026  6  E8 FF 38 80 E3 3A 
   615)       457.5  Rx         0021  5  00 00 00 00 00 
   616)       457.7  Rx         0022  5  0B 00 01 1D 01 
   617)       458.1  Rx         0020  5  0A 00 62 19 03 
   618)       458.3  Rx         0023  5  00 00 00 00 00 
   619)       458.7  Rx         0021  5  00 00 00 00 00 
   620)       458.9  Rx         0022  5  0B 00 01 1D 01 
   621)       459.3  Rx         0020  5  0A 00 62 19 03 
   622)       459.5  Rx         0023  5  00 00 00 00 00 
   623)       459.9  Rx         0021  5  00 00 00 00 00 
   624)       460.1  Rx         0022  5  0B 00 01 1D 01 
   625)       460.5  Rx         0020  5  0A 00 62 19 01 
   626)       460.7  Rx         0023  5  00 00 00 00 00 
   627)       461.1  Rx         0021  5  00 00 00 00 00 
   628)       461.3  Rx         0022  5  0B 00 01 1D 01 
   629)       461.7  Rx         0020  5  0A 00 62 19 01 
   630)       461.9  Rx         0023  5  00 00 00 00 00 
   631)       462.3  Rx         0021  5  00 00 00 00 00 
   632)       462.5  Rx         0022  5  0B 00 01 1D 01 
   633)       462.9  Rx         0020  5  0A 00 62 19 01 
   634)       463.1  Rx         0023  5  00 00 00 00 00 
   635)       463.6  Rx         0021  5  00 00 00 00 00 
   636)       463.7  Rx         0022  5  0B 00 01 1D 01 
   637)       464.1  Rx         0020  5  0A 00 62 19 01 
   638)       464.3  Rx         0023  5  00 00 00 00 00 
   639)       464.7  Rx         0021  5  00 00 00 00 00 
   640)       464.9  Rx         0022  5  0B 00 01 1D 01 
   641)       465.3  Rx         0020  5  0A 00 62 19 01 
   642)       465.5  Rx         0023  5  00 00 00 00 00 
   643)       465.9  Rx         0021  5  00 00 00 00 00 
   644)       467.7  Rx         0020  5  0A 00 61 19 03 
   645)       471.8  Rx         0021  5  00 00 00 00 00 
   646)       472.0  Rx         0023  5  00 00 00 00 00 
   647)       472.5  Rx         0020  5  0A 00 61 19 03 
   648)       472.6  Rx         0022  5  0B 00 01 1D 01 
   649)       476.0  Rx         0020  5  0A 00 61 19 01 
   650)       476.1  Rx         0022  5  0B 00 01 1D 01 
   651)       477.7  Rx         0021  5  00 00 00 00 00 
   652)       481.0  Rx         0022  5  0B 00 01 1D 01 
   653)       481.2  Rx         0021  5  00 00 00 00 00 
   654)       481.7  Rx         0023  5  00 00 00 00 00 
   655)       481.9  Rx         0020  5  0A 00 60 19 03 
   656)       482.1  Rx         0023  5  0B 00 01 1D 01 
   657)       488.5  Rx         0021  5  00 00 00 00 00 
   658)       489.1  Rx         0020  5  0A 00 60 19 01 
   659)       490.6  Rx         0022  5  0B 00 01 1D 01 
   660)       490.8  Rx         0021  5  00 00 00 00 00 
   661)       491.3  Rx         0023  5  00 00 00 00 00 
   662)       491.5  Rx         0020  5  0A 00 60 19 01 
   663)       492.0  Rx         0022  5  0B 00 01 1D 01 
   664)       492.1  Rx         0021  5  00 00 00 00 00 
   665)       495.5  Rx         0022  5  0B 00 01 1D 01 
   666)       495.7  Rx         0021  5  00 00 00 00 00 
   667)       496.1  Rx         0023  5  00 00 00 00 00 
   668)       496.3  Rx         0020  5  0A 00 5F 19 03 
   669)       500.7  Rx         0021  5  00 00 00 00 00 
   670)       500.8  Rx         0026  6  AF FF 38 80 EE 3A 
   671)       501.1  Rx         0020  5  0A 00 5F 19 01 
   672)       501.3  Rx         0022  5  0B 00 01 1D 01 
   673)       501.8  Rx         0021  5  00 00 00 00 00 
   674)       502.0  Rx         0023  5  00 00 00 00 00 
   675)       505.3  Rx         0021  5  00 00 00 00 00 
   676)       505.5  Rx         0023  5  00 00 00 00 00 
   677)       511.2  Rx         0021  5  00 00 00 00 00 
   678)       512.3  Rx         0021  5  00 00 00 00 00 
   679)       512.5  Rx         0022  5  0B 00 01 1D 01 
   680)       512.9  Rx         0020  5  0A 00 5E 19 01 
   681)       513.1  Rx         0023  5  00 00 00 00 00 
   682)       521.8  Rx         0021  5  00 00 00 00 00 
   683)       523.6  Rx         0020  5  0A 00 5D 19 03 
   684)       523.9  Rx         0022  5  0B 00 01 1D 01 
   685)       524.3  Rx         0021  5  00 00 00 00 00 
   686)       524.5  Rx         0023  5  00 00 00 00 00 
   687)       524.9  Rx         0020  5  0A 00 5D 19 01 
   688)       525.1  Rx         0022  5  0B 00 01 1D 01 
   689)       532.0  Rx         0020  5  0A 00 5C 19 03 
   690)       533.8  Rx         0021  5  00 00 00 00 00 
   691)       534.0  Rx         0022  5  0B 00 01 1D 01 
   692)       534.5  Rx         0020  5  0A 00 5C 19 03 
   693)       534.7  Rx         0023  5  00 00 00 00 00 
   694)       535.1  Rx         0021  5  00 00 00 00 00 
   695)       535.3  Rx         0022  5  0B 00 01 1D 01 
   696)       541.0  Rx         0021  5  00 00 00 00 00 
   697)       541.2  Rx         0022  5  0B 00 01 1D 01 
   698)       543.3  Rx         0021  5  00 00 00 00 00 
   699)       545.2  Rx         0020  5  0A 00 5B 19 03 
   700)       545.3  Rx         0022  5  0B 00 01 1D 01 
   701)       545.8  Rx         0021  5  00 00 00 00 00 
   702)       546.0  Rx         0023  5  00 00 00 00 00 
   703)       546.5  Rx         0020  5  0A 00 5B 19 01 
   704)       546.6  Rx         0022  5  0B 00 01 1D 01 
   705)       552.3  Rx         0020  5  0A 00 5A 19 03 
   706)       552.5  Rx         0022  5  0B 00 01 1D 01 
   707)       553.0  Rx         0021  5  00 00 00 00 00 
   708)       553.2  Rx         0023  5  00 00 00 00 00 
   709)       555.3  Rx         0021  5  00 00 00 00 00 
   710)       557.0  Rx         0026  6  6B FF 2D 80 FA 3A 
   711)       557.2  Rx         0020  5  0A 00 5A 19 01 
   712)       557.6  Rx         0022  5  0B 00 01 1D 01 
   713)       557.8  Rx         0021  5  00 00 00 00 00 
   714)       561.7  Rx         0023  5  00 00 00 00 00 
   715)       562.2  Rx         0020  5  0A 00 5A 19 01 
   716)       562.4  Rx         0022  5  0B 00 01 1D 01 
   717)       564.5  Rx         0020  5  0A 00 59 19 03 
   718)       564.7  Rx         0022  5  0B 00 01 1D 01 
   719)       565.2  Rx         0021  5  00 00 00 00 00 
   720)       565.3  Rx         0023  5  00 00 00 00 00 
   721)       567.5  Rx         0021  5  00 00 00 00 00 
   722)       568.0  Rx         0020  5  0A 00 59 19 01 
   723)       569.8  Rx         0021  5  00 00 00 00 00 
   724)       570.0  Rx         0022  5  0B 00 01 1D 01 
   725)       570.5  Rx         0020  5  0A 00 59 19 01 
   726)       570.7  Rx         0023  5  00 00 00 00 00 
   727)       571.1  Rx         0021  5  00 00 00 00 00 
   728)       571.3  Rx         0022  5  0B 00 01 1D 01 
   729)       571.7  Rx         0020  5  0A 00 59 19 01 
   730)       571.9  Rx         0023  5  00 00 00 00 00 
   731)       572.3  Rx         0021  5  00 00 00 00 00 
   732)       572.5  Rx         0022  5  0B 00 01 1D 01 
   733)       572.9  Rx         0020  5  0A 00 59 19 01 
   734)       573.1  Rx         0023  5  00 00 00 00 00 
   735)       573.5  Rx         0021  5  00 00 00 00 00 
   736)       573.7  Rx         0022  5  0B 00 01 1D 01 
   737)       574.1  Rx         0020  5  0A 00 58 19 03 
   738)       574.3  Rx         0023  5  00 00 00 00 00 
   739)       574.7  Rx         0021  5  00 00 00 00 00 
   740)       574.9  Rx         0022  5  0B 00 01 1D 01 
   741)       575.2  Rx         0020  5  0A 00 58 19 03 
   742)       575.5  Rx         0023  5  00 00 00 00 00 
   743)       575.8  Rx         0021  5  00 00 00 00 00 
   744)       575.9  Rx         0022  5  0B 00 01 1D 01 
   745)       576.3  Rx         0020  5  0A 00 58 19 01 
   746)       576.4  Rx         0023  5  00 00 00 00 00 
   747)       576.8  Rx         0021  5  00 00 00 00 00 
   748)       576.9  Rx         0022  5  0B 00 01 1D 01 
   749)       577.3  Rx         0020  5  0A 00 58 19 01 
   750)       577.5  Rx         0023  5  00 00 00 00 00 
   751)       577.8  Rx         0021  5  00 00 00 00 00 
   752)       578.3  Rx         0020  5  0A 00 58 19 01 
   753)       578.8  Rx         0021  5  00 00 00 00 00 
   754)       579.3  Rx         0020  5  0A 00 58 19 01 
   755)       579.8  Rx         0021  5  00 00 00 00 00 
   756)       580.0  Rx         0026  6  54 FF 2D 80 FA 3A 
   757)       580.6  Rx         0020  5  0A 00 58 19 01 
   758)       580.8  Rx         0022  5  0B 00 01 1D 01 
   759)       581.3  Rx         0021  5  00 00 00 00 00 
   760)       581.4  Rx         0023  5  00 00 00 00 00 
   761)       581.9  Rx         0020  5  0A 00 58 19 01 
   762)       582.1  Rx         0022  5  0B 00 01 1D 01 
   763)       582.5  Rx         0021  5  00 00 00 00 00 
   764)       582.7  Rx         0023  5  00 00 00 00 00 
   765)       583.2  Rx         0020  5  0A 00 57 19 03 
   766)       583.3  Rx         0022  5  0B 00 01 1D 01 
   767)       583.8  Rx         0021  5  00 00 00 00 00 
   768)       584.0  Rx         0023  5  00 00 00 00 00 
   769)       594.8  Rx         0022  5  0B 00 01 1D 01 
   770)       595.1  Rx         0020  5  0A 00 56 19 01 
   771)       595.5  Rx         0023  5  00 00 00 00 00 
   772)       595.7  Rx         0021  5  00 00 00 00 00 
   773)       601.5  Rx         0021  5  00 00 00 00 00 
   774)       602.6  Rx         0021  5  00 00 00 00 00 
   775)       602.8  Rx         0022  5  0B 00 01 1D 01 
   776)       603.3  Rx         0020  5  0A 00 54 19 03 
   777)       603.4  Rx         0023  5  00 00 00 00 00 
   778)       606.8  Rx         0020  5  0A 00 54 19 03 
   779)       607.0  Rx         0023  5  00 00 00 00 00 
   780)       611.5  Rx         0020  5  0A 00 53 19 03 
   781)       612.0  Rx         0021  5  00 00 00 00 00 
   782)       615.3  Rx         0022  5  0B 00 01 1D 01 
   783)       615.5  Rx         0021  5  00 00 00 00 00 
   784)       616.0  Rx         0023  5  00 00 00 00 00 
   785)       616.2  Rx         0020  5  0A 00 53 19 01 
   786)       621.3  Rx         0022  5  0B 00 01 1D 01 
   787)       621.8  Rx         0021  5  00 00 00 00 00 
   788)       622.0  Rx         0023  5  00 00 00 00 00 
   789)       623.6  Rx         0020  5  0A 00 52 19 01 
   790)       623.8  Rx         0026  6  26 FF 21 80 05 3B 
   791)       624.2  Rx         0021  5  00 00 00 00 00 
   792)       624.4  Rx         0022  5  0B 00 01 1D 01 
   793)       624.8  Rx         0020  5  0A 00 52 19 01 
   794)       625.1  Rx         0023  5  00 00 00 00 00 
   795)       631.9  Rx         0020  5  0A 00 50 19 03 
   796)       632.1  Rx         0023  5  00 00 00 00 00 
   797)       632.6  Rx         0021  5  00 00 00 00 00 
   798)       632.8  Rx         0022  5  0B 00 01 1D 01 
   799)       634.4  Rx         0020  5  0A 00 50 19 01 
   800)       634.9  Rx         0021  5  00 00 00 00 00 
   801)       636.7  Rx         0020  5  0A 00 50 19 01 
   802)       636.9  Rx         0022  5  0B 00 01 1D 01 
   803)       637.3  Rx         0021  5  00 00 00 00 00 
   804)       637.5  Rx         0023  5  00 00 00 00 00 
   805)       641.4  Rx         0020  5  0A 00 4F 19 03 
   806)       641.6  Rx         0022  5  0B 00 01 1D 01 
   807)       643.8  Rx         0020  5  0A 00 4E 19 03 
   808)       643.9  Rx         0022  5  0B 00 01 1D 01 
   809)       644.4  Rx         0021  5  00 00 00 00 00 
   810)       644.6  Rx         0023  5  00 00 00 00 00 
   811)       645.6  Rx         0021  5  00 00 00 00 00 
   812)       646.7  Rx         0021  5  00 00 00 00 00 
   813)       647.2  Rx         0026  6  10 FF 21 80 05 3B 
   814)       647.4  Rx         0020  5  0A 00 4E 19 01 
   815)       653.1  Rx         0023  5  00 00 00 00 00 
   816)       653.3  Rx         0020  5  0A 00 4D 19 01 
   817)       653.7  Rx         0022  5  0B 00 01 1D 01 
   818)       653.9  Rx         0021  5  00 00 00 00 00 
   819)       655.1  Rx         0021  5  00 00 00 00 00 
   820)       656.2  Rx         0021  5  00 00 00 00 00 
   821)       663.7  Rx         0022  5  0B 00 01 1D 01 
   822)       664.2  Rx         0020  5  0A 00 4B 19 03 
   823)       664.4  Rx         0023  5  00 00 00 00 00 
   824)       666.6  Rx         0020  5  0A 00 4B 19 01 
   825)       667.7  Rx         0020  5  0A 00 4B 19 01 
   826)       668.2  Rx         0026  6  04 FF 16 80 10 3B 
   827)       668.4  Rx         0021  5  00 00 00 00 00 
   828)       668.8  Rx         0022  5  0B 00 01 1D 01 
   829)       669.0  Rx         0020  5  0A 00 4B 19 01 
   830)       670.5  Rx         0023  5  00 00 00 00 00 
   831)       670.9  Rx         0021  5  00 00 00 00 00 
   832)       671.2  Rx         0022  5  0B 00 01 1D 01 
   833)       671.5  Rx         0020  5  0A 00 4A 19 03 
   834)       671.8  Rx         0023  5  00 00 00 00 00 
   835)       672.2  Rx         0021  5  00 00 00 00 00 
   836)       672.4  Rx         0022  5  0B 00 01 1D 01 
   837)       672.8  Rx         0020  5  0A 00 4A 19 03 
   838)       672.9  Rx         0023  5  00 00 00 00 00 
   839)       673.4  Rx         0021  5  00 00 00 00 00 
   840)       673.6  Rx         0022  5  0B 00 01 1D 01 
   841)       674.0  Rx         0020  5  0A 00 4A 19 01 
   842)       674.2  Rx         0023  5  00 00 00 00 00 
   843)       674.6  Rx         0021  5  00 00 00 00 00 
   844)       674.8  Rx         0022  5  0B 00 01 1D 01 
   845)       675.2  Rx         0020  5  0A 00 4A 19 01 
   846)       675.4  Rx         0023  5  00 00 00 00 00 
   847)       675.8  Rx         0021  5  00 00 00 00 00 
   848)       676.0  Rx         0022  5  0B 00 01 1D 01 
   849)       676.4  Rx         0020  5  0A 00 49 19 03 
   850)       676.6  Rx         0023  5  00 00 00 00 00 
   851)       677.0  Rx         0021  5  00 00 00 00 00 
   852)       677.2  Rx         0022  5  0B 00 01 1D 01 
   853)       677.6  Rx         0020  5  0A 00 49 19 03 
   854)       677.8  Rx         0023  5  00 00 00 00 00 
   855)       678.2  Rx         0021  5  00 00 00 00 00 
   856)       680.0  Rx         0020  5  0A 00 49 19 01 
   857)       680.2  Rx         0026  6  F9 FE 16 80 10 3B 
   858)       680.6  Rx         0021  5  00 00 00 00 00 
   859)       680.8  Rx         0022  5  0B 00 01 1D 01 
   860)       681.2  Rx         0020  5  0A 00 49 19 01 
   861)       681.4  Rx         0023  5  00 00 00 00 00 
   862)       681.8  Rx         0021  5  00 00 00 00 00 
   863)       682.0  Rx         0022  5  0B 00 01 1D 01 
   864)       682.4  Rx         0020  5  0A 00 49 19 01 
   865)       682.6  Rx         0023  5  00 00 00 00 00 
   866)       683.0  Rx         0021  5  00 00 00 00 00 
   867)       683.2  Rx         0022  5  0B 00 01 1D 01 
   868)       683.6  Rx         0020  5  0A 00 49 19 01 
   869)       683.8  Rx         0023  5  00 00 00 00 00 
   870)       684.2  Rx         0021  5  00 00 00 00 00 
   871)       684.4  Rx         0022  5  0B 00 01 1D 01 
   872)       684.8  Rx         0020  5  0A 00 48 19 03 
   873)       685.0  Rx         0023  5  00 00 00 00 00 
   874)       685.4  Rx         0021  5  00 00 00 00 00 
   875)       685.6  Rx         0022  5  0B 00 01 1D 01 
   876)       686.0  Rx         0020  5  0A 00 48 19 01 
   877)       686.3  Rx         0023  5  00 00 00 00 00 
   878)       686.7  Rx         0021  5  00 00 00 00 00 
   879)       686.8  Rx         0022  5  0B 00 01 1D 01 
   880)       687.2  Rx         0020  5  0A 00 48 19 01 
   881)       687.4  Rx         0023  5  00 00 00 00 00 
   882)       687.9  Rx         0021  5  00 00 00 00 00 
   883)       688.0  Rx         0022  5  0B 00 01 1D 01 
   884)       688.5  Rx         0020  5  0A 00 48 19 01 
   885)       688.6  Rx         0023  5  00 00 00 00 00 
   886)       689.1  Rx         0021  5  00 00 00 00 00 
   887)       690.6  Rx         0026  6  ED FE 16 80 10 3B 
   888)       691.0  Rx         0020  5  0A 00 47 19 03 
   889)       691.2  Rx         0022  5  0B 00 01 1D 01 
   890)       691.6  Rx         0021  5  00 00 00 00 00 
   891)       691.8  Rx         0023  5  00 00 00 00 00 
   892)       692.2  Rx         0020  5  0A 00 47 19 03 
   893)       692.4  Rx         0022  5  0B 00 01 1D 01 
   894)       692.8  Rx         0021  5  00 00 00 00 00 
   895)       693.0  Rx         0023  5  00 00 00 00 00 
   896)       693.5  Rx         0020  5  0A 00 47 19 03 
   897)       693.7  Rx         0022  5  0B 00 01 1D 01 
   898)       694.1  Rx         0021  5  00 00 00 00 00 
   899)       694.3  Rx         0023  5  00 00 00 00 00 
   900)       694.8  Rx         0020  5  0A 00 47 19 01 
   901)       695.0  Rx         0022  5  0B 00 01 1D 01 
   902)       695.4  Rx         0021  5  00 00 00 00 00 
   903)       695.6  Rx         0023  5  00 00 00 00 00 
   904)       696.1  Rx         0020  5  0A 00 46 19 03 
   905)       696.2  Rx         0022  5  0B 00 01 1D 01 
   906)       696.7  Rx         0021  5  00 00 00 00 00 
   907)       696.9  Rx         0023  5  00 00 00 00 00 
   908)       697.3  Rx         0020  5  0A 00 46 19 03 
   909)       697.5  Rx         0022  5  0B 00 01 1D 01 
   910)       698.0  Rx         0021  5  00 00 00 00 00 
   911)       698.2  Rx         0023  5  00 00 00 00 00 
   912)       698.6  Rx         0020  5  0A 00 46 19 01 
   913)       698.8  Rx         0022  5  0B 00 01 1D 01 
   914)       699.3  Rx         0021  5  00 00 00 00 00 
   915)       699.5  Rx         0023  5  00 00 00 00 00 
   916)       699.9  Rx         0020  5  0A 00 46 19 01 
   917)       702.4  Rx         0020  5  0A 00 46 19 01 
   918)       702.5  Rx         0022  5  0B 00 01 1D 01 
   919)       703.0  Rx         0021  5  00 00 00 00 00 
   920)       703.2  Rx         0023  5  00 00 00 00 00 
   921)       703.7  Rx         0020  5  0A 00 45 19 03 
   922)       703.9  Rx         0022  5  0B 00 01 1D 01 
   923)       704.3  Rx         0021  5  00 00 00 00 00 
   924)       704.5  Rx         0023  5  00 00 00 00 00 
   925)       705.0  Rx         0020  5  0A 00 45 19 03 
   926)       705.1  Rx         0022  5  0B 00 01 1D 01 
   927)       705.6  Rx         0021  5  00 00 00 00 00 
   928)       705.7  Rx         0023  5  00 00 00 00 00 
   929)       706.1  Rx         0020  5  0A 00 45 19 03 
   930)       706.3  Rx         0022  5  0B 00 01 1D 01 
   931)       706.7  Rx         0021  5  00 00 00 00 00 
   932)       706.9  Rx         0023  5  00 00 00 00 00 
   933)       707.3  Rx         0020  5  0A 00 45 19 01 
   934)       707.5  Rx         0022  5  0B 00 01 1D 01 
   935)       708.0  Rx         0021  5  00 00 00 00 00 
   936)       708.2  Rx         0023  5  00 00 00 00 00 
   937)       708.6  Rx         0020  5  0A 00 45 19 01 
   938)       708.8  Rx         0022  5  0B 00 01 1D 01 
   939)       709.2  Rx         0021  5  00 00 00 00 00 
   940)       709.5  Rx         0023  5  00 00 00 00 00 
   941)       709.9  Rx         0020  5  0A 00 45 19 01 
   942)       710.1  Rx         0022  5  0B 00 01 1D 01 
   943)       710.5  Rx         0021  5  00 00 00 00 00 
   944)       710.7  Rx         0023  5  00 00 00 00 00 
   945)       711.2  Rx         0020  5  0A 00 44 19 03 
   946)       714.6  Rx         0022  5  0B 00 01 1D 01 
   947)       714.8  Rx         0020  5  0A 00 44 19 01 
   948)       715.3  Rx         0023  5  00 00 00 00 00 
   949)       715.4  Rx         0021  5  00 00 00 00 00 
   950)       715.9  Rx         0022  5  0B 00 01 1D 01 
   951)       716.1  Rx         0020  5  0A 00 44 19 01 
   952)       716.5  Rx         0023  5  00 00 00 00 00 
   953)       716.7  Rx         0021  5  00 00 00 00 00 
   954)       717.2  Rx         0022  5  0B 00 01 1D 01 
   955)       717.3  Rx         0020  5  0A 00 44 19 01 
   956)       717.8  Rx         0023  5  00 00 00 00 00 
   957)       717.9  Rx         0021  5  00 00 00 00 00 
   958)       724.8  Rx         0022  5  0B 00 01 1D 01 
   959)       725.0  Rx         0021  5  00 00 00 00 00 
   960)       725.5  Rx         0023  5  00 00 00 00 00 
   961)       725.7  Rx         0020  5  0A 00 43 19 01 
   962)       726.6  Rx         0023  5  00 00 00 00 00 
   963)       726.9  Rx         0020  5  0A 00 43 19 01 
   964)       727.1  Rx         0022  5  0B 00 01 1D 01 
   965)       727.4  Rx         0021  5  00 00 00 00 00 
   966)       727.6  Rx         0023  5  00 00 00 00 00 
   967)       728.0  Rx         0020  5  0A 00 42 19 03 
   968)       728.2  Rx         0022  5  0B 00 01 1D 01 
   969)       728.6  Rx         0021  5  00 00 00 00 00 
   970)       728.8  Rx         0023  5  00 00 00 00 00 
   971)       729.2  Rx         0020  5  0A 00 42 19 03 
   972)       729.4  Rx         0022  5  0B 00 01 1D 01 
   973)       729.8  Rx         0021  5  00 00 00 00 00 
   974)       730.0  Rx         0023  5  00 00 00 00 00 
   975)       730.4  Rx         0020  5  0A 00 42 19 03 
   976)       730.6  Rx         0022  5  0B 00 01 1D 01 
   977)       731.0  Rx         0021  5  00 00 00 00 00 
   978)       731.2  Rx         0023  5  00 00 00 00 00 
   979)       731.6  Rx         0020  5  0A 00 42 19 03 
   980)       731.8  Rx         0022  5  0B 00 01 1D 01 
   981)       732.2  Rx         0021  5  00 00 00 00 00 
   982)       732.4  Rx         0023  5  00 00 00 00 00 
   983)       732.8  Rx         0020  5  0A 00 42 19 01 
   984)       733.0  Rx         0022  5  0B 00 01 1D 01 
   985)       733.5  Rx         0021  5  00 00 00 00 00 
   986)       733.6  Rx         0023  5  00 00 00 00 00 
   987)       734.1  Rx         0020  5  0A 00 42 19 01 
   988)       735.8  Rx         0021  5  00 00 00 00 00 
   989)       736.1  Rx         0026  6  CB FE FF 7F 27 3B 
   990)       736.3  Rx         0020  5  0A 00 41 19 03 
   991)       736.6  Rx         0022  5  0B 00 01 1D 01 
   992)       736.8  Rx         0021  5  00 00 00 00 00 
   993)       737.0  Rx         0023  5  00 00 00 00 00 
   994)       737.5  Rx         0020  5  0A 00 41 19 03 
   995)       737.6  Rx         0022  5  0B 00 01 1D 01 
   996)       738.1  Rx         0021  5  00 00 00 00 00 
   997)       738.3  Rx         0023  5  00 00 00 00 00 
   998)       738.7  Rx         0020  5  0A 00 41 19 01 
   999)       738.9  Rx         0022  5  0B 00 01 1D 01 
  1000)       739.3  Rx         0021  5  00 00 00 00 00 
  1001)       739.5  Rx         0023  5  00 00 00 00 00 
  1002)       739.9  Rx         0020  5  0A 00 41 19 01 
  1003)       740.1  Rx         0022  5  0B 00 01 1D 01 
  1004)       740.5  Rx         0021  5  00 00 00 00 00 
  1005)       740.7  Rx         0023  5  00 00 00 00 00 
  1006)       741.1  Rx         0020  5  0A 00 41 19 01 
  1007)       741.3  Rx         0022  5  0B 00 01 1D 01 
  1008)       741.7  Rx         0021  5  00 00 00 00 00 
  1009)       741.9  Rx         0023  5  00 00 00 00 00 
  1010)       742.4  Rx         0020  5  0A 00 41 19 01 
  1011)       742.5  Rx         0022  5  0B 00 01 1D 01 
  1012)       743.0  Rx         0021  5  00 00 00 00 00 
  1013)       743.1  Rx         0023  5  00 00 00 00 00 
  1014)       743.6  Rx         0020  5  0A 00 40 19 03 
  1015)       743.8  Rx         0022  5  0B 00 01 1D 01 
  1016)       744.2  Rx         0021  5  00 00 00 00 00 
  1017)       744.4  Rx         0023  5  00 00 00 00 00 
  1018)       744.8  Rx         0020  5  0A 00 40 19 03 
  1019)       757.2  Rx         0021  5  00 00 00 00 00 
  1020)       758.4  Rx         0021  5  00 00 00 00 00 
  1021)       758.9  Rx         0020  5  0A 00 3E 19 03 
  1022)       764.0  Rx         0021  5  00 00 00 00 00 
  1023)       764.2  Rx         0023  5  00 00 00 00 00 
  1024)       764.7  Rx         0020  5  0A 00 3E 19 01 
  1025)       764.9  Rx         0022  5  0B 00 01 1D 01 
  1026)       768.8  Rx         0021  5  00 00 00 00 00 
  1027)       773.4  Rx         0021  5  00 00 00 00 00 
  1028)       773.6  Rx         0023  5  00 00 00 00 00 
  1029)       774.1  Rx         0020  5  0A 00 3D 19 01 
  1030)       774.2  Rx         0022  5  0B 00 01 1D 01 
  1031)       777.6  Rx         0020  5  0A 00 3C 19 03 
  1032)       777.7  Rx         0022  5  0B 00 01 1D 01 
  1033)       781.1  Rx         0020  5  0A 00 3C 19 03 
  1034)       782.6  Rx         0023  5  00 00 00 00 00 
  1035)       782.8  Rx         0021  5  00 00 00 00 00 
  1036)       783.3  Rx         0022  5  0B 00 01 1D 01 
  1037)       783.4  Rx         0020  5  0A 00 3C 19 03 
  1038)       786.8  Rx         0020  5  0A 00 3B 19 03 
  1039)       787.0  Rx         0022  5  0B 00 01 1D 01 
  1040)       787.5  Rx         0021  5  00 00 00 00 00 
  1041)       787.7  Rx         0023  5  00 00 00 00 00 
  1042)       791.0  Rx         0021  5  00 00 00 00 00 
  1043)       792.8  Rx         0020  5  0A 00 3B 19 01 
  1044)       793.0  Rx         0023  5  00 00 00 00 00 
  1045)       793.4  Rx         0021  5  00 00 00 00 00 
  1046)       793.6  Rx         0022  5  0B 00 01 1D 01 
  1047)       797.0  Rx         0021  5  00 00 00 00 00 
  1048)       797.1  Rx         0022  5  0B 00 01 1D 01 
  1049)       802.3  Rx         0020  5  0A 00 39 19 03 
  1050)       805.8  Rx         0020  5  0A 00 39 19 01 
  1051)       806.0  Rx         0022  5  0B 00 01 1D 01 
  1052)       806.5  Rx         0021  5  00 00 00 00 00 
  1053)       806.6  Rx         0023  5  00 00 00 00 00 
  1054)       811.7  Rx         0020  5  0A 00 39 19 01 
  1055)       811.9  Rx         0022  5  0B 00 01 1D 01 
  1056)       813.5  Rx         0021  5  00 00 00 00 00 
  1057)       814.7  Rx         0026  6  70 FE FF 7F 32 3B 
  1058)       814.9  Rx         0021  5  00 00 00 00 00 
  1059)       815.2  Rx         0022  5  0B 00 01 1D 01 
  1060)       815.7  Rx         0020  5  0A 00 38 19 01 
  1061)       815.9  Rx         0023  5  00 00 00 00 00 
  1062)       818.0  Rx         0020  5  0A 00 37 19 03 
  1063)       818.2  Rx         0023  5  00 00 00 00 00 
  1064)       823.9  Rx         0020  5  0A 00 37 19 01 
  1065)       825.5  Rx         0026  6  70 FE FF 7F 32 3B 
  1066)       825.7  Rx         0021  5  00 00 00 00 00 
  1067)       826.2  Rx         0022  5  0B 00 01 1D 01 
  1068)       826.4  Rx         0020  5  0A 00 36 19 03 
  1069)       826.8  Rx         0023  5  00 00 00 00 00 
  1070)       827.0  Rx         0021  5  00 00 00 00 00 
  1071)       827.5  Rx         0022  5  0B 00 01 1D 01 
  1072)       827.7  Rx         0020  5  0A 00 36 19 03 
  1073)       832.7  Rx         0023  5  00 00 00 00 00 
  1074)       833.3  Rx         0021  5  00 00 00 00 00 
  1075)       833.4  Rx         0022  5  0B 00 01 1D 01 
  1076)       835.6  Rx         0021  5  00 00 00 00 00 
  1077)       837.4  Rx         0020  5  0A 00 35 19 01 
  1078)       837.9  Rx         0026  6  65 FE FF 7F 3E 3B 
  1079)       838.1  Rx         0021  5  00 00 00 00 00 
  1080)       842.0  Rx         0022  5  0B 00 01 1D 01 
  1081)       842.4  Rx         0020  5  0A 00 34 19 01 
  1082)       842.6  Rx         0023  5  00 00 00 00 00 
  1083)       844.8  Rx         0020  5  0A 00 33 19 03 
  1084)       845.0  Rx         0023  5  00 00 00 00 00 
  1085)       845.5  Rx         0021  5  00 00 00 00 00 
  1086)       845.6  Rx         0022  5  0B 00 01 1D 01 
  1087)       847.8  Rx         0021  5  00 00 00 00 00 
  1088)       849.0  Rx         0021  5  00 00 00 00 00 
  1089)       853.6  Rx         0021  5  00 00 00 00 00 
  1090)       853.8  Rx         0022  5  0B 00 01 1D 01 
  1091)       854.3  Rx         0020  5  0A 00 32 19 03 
  1092)       854.5  Rx         0023  5  00 00 00 00 00 
  1093)       856.6  Rx         0020  5  0A 00 31 19 03 
  1094)       856.8  Rx         0023  5  00 00 00 00 00 
  1095)       857.3  Rx         0021  5  00 00 00 00 00 
  1096)       857.5  Rx         0022  5  0B 00 01 1D 01 
  1097)       859.1  Rx         0020  5  0A 00 31 19 03 
  1098)       859.6  Rx         0021  5  00 00 00 00 00 
  1099)       860.6  Rx         0022  5  0B 00 01 1D 01 
  1100)       860.8  Rx         0021  5  00 00 00 00 00 
  1101)       861.0  Rx         0023  5  00 00 00 00 00 
  1102)       861.3  Rx         0020  5  0A 00 31 19 01 
  1103)       861.5  Rx         0022  5  0B 00 01 1D 01 
  1104)       861.9  Rx         0021  5  00 00 00 00 00 
  1105)       862.1  Rx         0023  5  00 00 00 00 00 
  1106)       862.6  Rx         0020  5  0A 00 30 19 03 
  1107)       862.7  Rx         0022  5  0B 00 01 1D 01 
  1108)       863.2  Rx         0021  5  00 00 00 00 00 
  1109)       863.3  Rx         0023  5  00 00 00 00 00 
  1110)       863.7  Rx         0020  5  0A 00 30 19 03 
  1111)       864.0  Rx         0022  5  0B 00 01 1D 01 
  1112)       864.3  Rx         0021  5  00 00 00 00 00 
  1113)       864.6  Rx         0023  5  00 00 00 00 00 
  1114)       865.0  Rx         0020  5  0A 00 30 19 03 
  1115)       865.2  Rx         0022  5  0B 00 01 1D 01 
  1116)       865.6  Rx         0021  5  00 00 00 00 00 
  1117)       865.8  Rx         0023  5  00 00 00 00 00 
  1118)       866.2  Rx         0020  5  0A 00 30 19 01 
  1119)       866.4  Rx         0022  5  0B 00 01 1D 01 
  1120)       866.8  Rx         0021  5  00 00 00 00 00 
  1121)       867.0  Rx         0023  5  00 00 00 00 00 
  1122)       867.4  Rx         0020  5  0A 00 30 19 01 
  1123)       867.6  Rx         0022  5  0B 00 01 1D 01 
  1124)       868.0  Rx         0021  5  00 00 00 00 00 
  1125)       868.2  Rx         0023  5  00 00 00 00 00 
  1126)       868.5  Rx         0020  5  0A 00 2F 19 03 
  1127)       869.0  Rx         0021  5  00 00 00 00 00 
  1128)       869.5  Rx         0020  5  0A 00 2F 19 03 
  1129)       870.0  Rx         0021  5  00 00 00 00 00 
  1130)       870.2  Rx         0026  6  4E FE F4 7F 3E 3B 
  1131)       870.5  Rx         0020  5  0A 00 2F 19 01 
  1132)       870.7  Rx         0022  5  0B 00 01 1D 01 
  1133)       871.0  Rx         0021  5  00 00 00 00 00 
  1134)       871.2  Rx         0023  5  00 00 00 00 00 
  1135)       871.6  Rx         0020  5  0A 00 2F 19 01 
  1136)       871.7  Rx         0022  5  0B 00 01 1D 01 
  1137)       872.2  Rx         0021  5  00 00 00 00 00 
  1138)       872.4  Rx         0023  5  00 00 00 00 00 
  1139)       872.9  Rx         0020  5  0A 00 2F 19 01 
  1140)       873.1  Rx         0022  5  0B 00 01 1D 01 
  1141)       873.6  Rx         0021  5  00 00 00 00 00 
  1142)       873.7  Rx         0023  5  00 00 00 00 00 
  1143)       874.2  Rx         0020  5  0A 00 2F 19 01 
  1144)       874.4  Rx         0022  5  0B 00 01 1D 01 
  1145)       874.8  Rx         0021  5  00 00 00 00 00 
  1146)       875.1  Rx         0023  5  00 00 00 00 00 
  1147)       875.5  Rx         0020  5  0A 00 2E 19 03 
  1148)       875.7  Rx         0022  5  0B 00 01 1D 01 
  1149)       876.1  Rx         0021  5  00 00 00 00 00 
  1150)       876.3  Rx         0023  5  00 00 00 00 00 
  1151)       876.8  Rx         0020  5  0A 00 2E 19 03 
  1152)       877.0  Rx         0022  5  0B 00 01 1D 01 
  1153)       877.4  Rx         0021  5  00 00 00 00 00 
  1154)       877.6  Rx         0023  5  00 00 00 00 00 
  1155)       878.1  Rx         0020  5  0A 00 2E 19 01 
  1156)       878.2  Rx         0022  5  0B 00 01 1D 01 
  1157)       878.7  Rx         0021  5  00 00 00 00 00 
  1158)       878.9  Rx         0023  5  00 00 00 00 00 
  1159)       879.4  Rx         0020  5  0A 00 2E 19 01 
  1160)       879.5  Rx         0022  5  0B 00 01 1D 01 
  1161)       880.0  Rx         0021  5  00 00 00 00 00 
  1162)       880.2  Rx         0023  5  00 00 00 00 00 
  1163)       880.7  Rx         0020  5  0A 00 2D 19 03 
  1164)       891.9  Rx         0021  5  00 00 00 00 00 
  1165)       893.0  Rx         0021  5  00 00 00 00 00 
  1166)       893.2  Rx         0022  5  0B 00 01 1D 01 
  1167)       893.6  Rx         0020  5  0A 00 2B 19 03 
  1168)       893.9  Rx         0023  5  00 00 00 00 00 
  1169)       896.0  Rx         0020  5  0A 00 2B 19 01 
  1170)       896.2  Rx         0023  5  00 00 00 00 00 
  1171)       896.7  Rx         0021  5  00 00 00 00 00 
  1172)       896.8  Rx         0022  5  0B 00 01 1D 01 
  1173)       902.5  Rx         0021  5  00 00 00 00 00 
  1174)       904.3  Rx         0020  5  0A 00 2A 19 01 
  1175)       904.5  Rx         0026  6  37 FE F4 7F 3E 3B 
  1176)       905.0  Rx         0021  5  00 00 00 00 00 
  1177)       905.2  Rx         0022  5  0B 00 01 1D 01 
  1178)       905.6  Rx         0020  5  0A 00 2A 19 01 
  1179)       905.8  Rx         0023  5  00 00 00 00 00 
  1180)       912.7  Rx         0020  5  0A 00 29 19 01 
  1181)       912.9  Rx         0023  5  00 00 00 00 00 
  1182)       913.9  Rx         0020  5  0A 00 28 19 03 
  1183)       915.0  Rx         0020  5  0A 00 28 19 03 
  1184)       915.5  Rx         0026  6  2C FE E8 7F 3E 3B 
  1185)       915.7  Rx         0021  5  00 00 00 00 00 
  1186)       917.8  Rx         0023  5  00 00 00 00 00 
  1187)       918.0  Rx         0021  5  00 00 00 00 00 
  1188)       918.3  Rx         0022  5  0B 00 01 1D 01 
  1189)       918.6  Rx         0020  5  0A 00 27 19 03 
  1190)       918.8  Rx         0023  5  00 00 00 00 00 
  1191)       919.1  Rx         0021  5  00 00 00 00 00 
  1192)       919.3  Rx         0022  5  0B 00 01 1D 01 
  1193)       923.3  Rx         0020  5  0A 00 27 19 01 
  1194)       923.5  Rx         0023  5  00 00 00 00 00 
  1195)       923.9  Rx         0021  5  00 00 00 00 00 
  1196)       925.6  Rx         0020  5  0A 00 27 19 01 
  1197)       926.1  Rx         0026  6  2C FE E8 7F 3E 3B 
  1198)       926.3  Rx         0021  5  00 00 00 00 00 
  1199)       926.7  Rx         0022  5  0B 00 01 1D 01 
  1200)       927.0  Rx         0020  5  0A 00 27 19 01 
  1201)       927.4  Rx         0023  5  00 00 00 00 00 
  1202)       927.5  Rx         0021  5  00 00 00 00 00 
  1203)       928.0  Rx         0022  5  0B 00 01 1D 01 
  1204)       928.1  Rx         0020  5  0A 00 26 19 03 
  1205)       928.6  Rx         0023  5  00 00 00 00 00 
  1206)       928.8  Rx         0021  5  00 00 00 00 00 
  1207)       929.2  Rx         0022  5  0B 00 01 1D 01 
  1208)       929.3  Rx         0020  5  0A 00 26 19 03 
  1209)       929.8  Rx         0023  5  00 00 00 00 00 
  1210)       930.0  Rx         0021  5  00 00 00 00 00 
  1211)       930.4  Rx         0022  5  0B 00 01 1D 01 
  1212)       930.6  Rx         0020  5  0A 00 26 19 03 
  1213)       931.0  Rx         0023  5  00 00 00 00 00 
  1214)       931.2  Rx         0021  5  00 00 00 00 00 
  1215)       931.6  Rx         0022  5  0B 00 01 1D 01 
  1216)       931.8  Rx         0020  5  0A 00 26 19 01 
  1217)       932.2  Rx         0023  5  00 00 00 00 00 
  1218)       932.4  Rx         0021  5  00 00 00 00 00 
  1219)       932.8  Rx         0022  5  0B 00 01 1D 01 
  1220)       933.0  Rx         0020  5  0A 00 26 19 01 
  1221)       933.4  Rx         0023  5  00 00 00 00 00 
  1222)       933.6  Rx         0021  5  00 00 00 00 00 
  1223)       934.0  Rx         0022  5  0B 00 01 1D 01 
  1224)       934.2  Rx         0020  5  0A 00 25 19 03 
  1225)       934.6  Rx         0023  5  00 00 00 00 00 
  1226)       934.8  Rx         0021  5  00 00 00 00 00 
  1227)       936.5  Rx         0020  5  0A 00 25 19 03 
  1228)       937.0  Rx         0021  5  00 00 00 00 00 
  1229)       937.2  Rx         0026  6  21 FE E8 7F 3E 3B 
  1230)       937.5  Rx         0020  5  0A 00 25 19 03 
  1231)       937.9  Rx         0022  5  0B 00 01 1D 01 
  1232)       938.1  Rx         0021  5  00 00 00 00 00 
  1233)       938.6  Rx         0023  5  00 00 00 00 00 
  1234)       938.7  Rx         0020  5  0A 00 25 19 01 
  1235)       939.1  Rx         0022  5  0B 00 01 1D 01 
  1236)       939.3  Rx         0021  5  00 00 00 00 00 
  1237)       939.7  Rx         0023  5  00 00 00 00 00 
  1238)       940.0  Rx         0020  5  0A 00 24 19 03 
  1239)       940.3  Rx         0022  5  0B 00 01 1D 01 
  1240)       940.6  Rx         0021  5  00 00 00 00 00 
  1241)       940.9  Rx         0023  5  00 00 00 00 00 
  1242)       941.2  Rx         0020  5  0A 00 24 19 03 
  1243)       941.5  Rx         0022  5  0B 00 01 1D 01 
  1244)       941.8  Rx         0021  5  00 00 00 00 00 
  1245)       942.2  Rx         0023  5  00 00 00 00 00 
  1246)       942.3  Rx         0020  5  0A 00 24 19 03 
  1247)       942.8  Rx         0022  5  0B 00 01 1D 01 
  1248)       942.9  Rx         0021  5  00 00 00 00 00 
  1249)       943.4  Rx         0023  5  00 00 00 00 00 
  1250)       943.5  Rx         0020  5  0A 00 24 19 03 
  1251)       944.0  Rx         0022  5  0B 00 01 1D 01 
  1252)       944.2  Rx         0021  5  00 00 00 00 00 
  1253)       944.6  Rx         0023  5  00 00 00 00 00 
  1254)       944.8  Rx         0020  5  0A 00 24 19 01 
  1255)       945.2  Rx         0022  5  0B 00 01 1D 01 
  1256)       945.4  Rx         0021  5  00 00 00 00 00 
  1257)       945.8  Rx         0023  5  00 00 00 00 00 
  1258)       946.0  Rx         0020  5  0A 00 24 19 01 
  1259)       953.4  Rx         0023  5  00 00 00 00 00 
  1260)       953.7  Rx         0021  5  00 00 00 00 00 
  1261)       954.2  Rx         0022  5  0B 00 01 1D 01 
  1262)       954.3  Rx         0020  5  0A 00 22 19 03 
  1263)       957.6  Rx         0020  5  0A 00 22 19 03 
  1264)       959.4  Rx         0021  5  00 00 00 00 00 
  1265)       959.6  Rx         0022  5  0B 00 01 1D 01 
  1266)       960.1  Rx         0020  5  0A 00 22 19 03 
  1267)       960.3  Rx         0023  5  00 00 00 00 00 
  1268)       965.5  Rx         0021  5  00 00 00 00 00 
  1269)       965.7  Rx         0022  5  0B 00 01 1D 01 
  1270)       966.1  Rx         0020  5  0A 00 21 19 03 
  1271)       966.3  Rx         0023  5  00 00 00 00 00 
  1272)       968.5  Rx         0020  5  0A 00 21 19 01 
  1273)       969.6  Rx         0020  5  0A 00 21 19 01 
  1274)       973.0  Rx         0022  5  0B 00 01 1D 01 
  1275)       973.4  Rx         0020  5  0A 00 20 19 01 
  1276)       973.6  Rx         0023  5  00 00 00 00 00 
  1277)       976.9  Rx         0020  5  0A 00 20 19 01 
  1278)       977.1  Rx         0023  5  00 00 00 00 00 
  1279)       979.3  Rx         0020  5  0A 00 1F 19 01 
  1280)       984.0  Rx         0020  5  0A 00 1F 19 01 
  1281)       984.2  Rx         0022  5  0B 00 01 1D 01 
  1282)       984.7  Rx         0021  5  00 00 00 00 00 
  1283)       984.8  Rx         0023  5  00 00 00 00 00 
  1284)       988.2  Rx         0021  5  00 00 00 00 00 
  1285)       988.4  Rx         0023  5  00 00 00 00 00 
  1286)       990.5  Rx         0021  5  00 00 00 00 00 
  1287)       993.4  Rx         0020  5  0A 00 1D 19 01 
  1288)       993.7  Rx         0023  5  00 00 00 00 00 
  1289)       994.1  Rx         0021  5  00 00 00 00 00 
  1290)       994.3  Rx         0022  5  0B 00 01 1D 01 
  1291)       997.6  Rx         0021  5  00 00 00 00 00 
  1292)       997.8  Rx         0022  5  0B 00 01 1D 01 
  1293)       998.3  Rx         0020  5  0A 00 1D 19 01 
  1294)       998.5  Rx         0023  5  00 00 00 00 00 
  1295)      1001.8  Rx         0020  5  0A 00 1C 19 01 
  1296)      1003.6  Rx         0021  5  00 00 00 00 00 
  1297)      1003.8  Rx         0023  5  00 00 00 00 00 
  1298)      1004.2  Rx         0020  5  0A 00 1C 19 01 
  1299)      1004.4  Rx         0022  5  0B 00 01 1D 01 
  1300)      1006.6  Rx         0020  5  0A 00 1B 19 03 
  1301)      1006.8  Rx         0022  5  0B 00 01 1D 01 
  1302)      1007.3  Rx         0021  5  00 00 00 00 00 
  1303)      1007.4  Rx         0023  5  00 00 00 00 00 
  1304)      1013.2  Rx         0021  5  00 00 00 00 00 
  1305)      1014.3  Rx         0021  5  00 00 00 00 00 
  1306)      1014.8  Rx         0026  6  2C FE DD 7F 3E 3B 
  1307)      1015.0  Rx         0020  5  0A 00 1A 19 01 
  1308)      1015.4  Rx         0022  5  0B 00 01 1D 01 
  1309)      1015.6  Rx         0021  5  00 00 00 00 00 
  1310)      1016.0  Rx         0023  5  00 00 00 00 00 
  1311)      1016.2  Rx         0020  5  0A 00 1A 19 01 
  1312)      1024.1  Rx         0023  5  00 00 00 00 00 
  1313)      1024.4  Rx         0020  5  0A 00 19 19 01 
  1314)      1025.6  Rx         0020  5  0A 00 19 19 01 
  1315)      1026.7  Rx         0026  6  2C FE DD 7F 3E 3B 
  1316)      1026.8  Rx         0020  5  0A 00 18 19 03 
  1317)      1027.3  Rx         0022  5  0B 00 01 1D 01 
  1318)      1027.5  Rx         0021  5  00 00 00 00 00 
  1319)      1033.2  Rx         0022  5  0B 00 01 1D 01 
  1320)      1033.6  Rx         0021  5  00 00 00 00 00 
  1321)      1033.8  Rx         0023  5  00 00 00 00 00 
  1322)      1035.9  Rx         0021  5  00 00 00 00 00 
  1323)      1037.5  Rx         0026  6  2C FE DD 7F 3E 3B 
  1324)      1037.7  Rx         0020  5  0A 00 17 19 01 
  1325)      1038.2  Rx         0022  5  0B 00 01 1D 01 
  1326)      1038.4  Rx         0021  5  00 00 00 00 00 
  1327)      1038.8  Rx         0023  5  00 00 00 00 00 
  1328)      1039.0  Rx         0020  5  0A 00 17 19 01 
  1329)      1042.9  Rx         0022  5  0B 00 01 1D 01 
  1330)      1043.3  Rx         0021  5  00 00 00 00 00 
  1331)      1043.5  Rx         0023  5  00 00 00 00 00 
  1332)      1045.7  Rx         0021  5  00 00 00 00 00 
  1333)      1047.3  Rx         0026  6  2C FE D1 7F 3E 3B 
  1334)      1047.5  Rx         0020  5  0A 00 15 19 03 
  1335)      1048.0  Rx         0022  5  0B 00 01 1D 01 
  1336)      1048.2  Rx         0021  5  00 00 00 00 00 
  1337)      1048.6  Rx         0023  5  00 00 00 00 00 
  1338)      1048.8  Rx         0020  5  0A 00 15 19 03 
  1339)      1049.7  Rx         0023  5  00 00 00 00 00 
  1340)      1049.9  Rx         0020  5  0A 00 15 19 03 
  1341)      1050.2  Rx         0022  5  0B 00 01 1D 01 
  1342)      1050.5  Rx         0021  5  00 00 00 00 00 
  1343)      1050.7  Rx         0023  5  00 00 00 00 00 
  1344)      1051.1  Rx         0020  5  0A 00 15 19 03 
  1345)      1051.3  Rx         0022  5  0B 00 01 1D 01 
  1346)      1051.7  Rx         0021  5  00 00 00 00 00 
  1347)      1051.9  Rx         0023  5  00 00 00 00 00 
  1348)      1052.3  Rx         0020  5  0A 00 15 19 01 
  1349)      1052.5  Rx         0022  5  0B 00 01 1D 01 
  1350)      1052.9  Rx         0021  5  00 00 00 00 00 
  1351)      1053.1  Rx         0023  5  00 00 00 00 00 
  1352)      1053.5  Rx         0020  5  0A 00 15 19 01 
  1353)      1053.7  Rx         0022  5  0B 00 01 1D 01 
  1354)      1054.1  Rx         0021  5  00 00 00 00 00 
  1355)      1054.3  Rx         0023  5  00 00 00 00 00 
  1356)      1054.6  Rx         0020  5  0A 00 15 19 01 
  1357)      1054.8  Rx         0022  5  0B 00 01 1D 01 
  1358)      1055.1  Rx         0021  5  00 00 00 00 00 
  1359)      1055.3  Rx         0023  5  00 00 00 00 00 
  1360)      1055.6  Rx         0020  5  0A 00 15 19 01 
  1361)      1055.8  Rx         0022  5  0B 00 01 1D 01 
  1362)      1056.1  Rx         0021  5  00 00 00 00 00 
  1363)      1056.3  Rx         0023  5  00 00 00 00 00 
  1364)      1056.6  Rx         0020  5  0A 00 15 19 01 
  1365)      1057.2  Rx         0021  5  00 00 00 00 00 
  1366)      1057.7  Rx         0020  5  0A 00 15 19 01 
  1367)      1058.2  Rx         0021  5  00 00 00 00 00 
  1368)      1058.8  Rx         0020  5  0A 00 15 19 01 
  1369)      1062.0  Rx         0022  5  0B 00 01 1D 01 
  1370)      1062.5  Rx         0020  5  0A 00 15 19 01 
  1371)      1062.7  Rx         0023  5  00 00 00 00 00 
  1372)      1063.1  Rx         0021  5  00 00 00 00 00 
  1373)      1063.3  Rx         0022  5  0B 00 01 1D 01 
  1374)      1063.8  Rx         0020  5  0A 00 15 19 01 
  1375)      1064.0  Rx         0023  5  00 00 00 00 00 
  1376)      1064.4  Rx         0021  5  00 00 00 00 00 
  1377)      1064.6  Rx         0022  5  0B 00 01 1D 01 
  1378)      1074.3  Rx         0023  5  00 00 00 00 00 
  1379)      1074.8  Rx         0020  5  0A 00 15 19 01 
  1380)      1075.0  Rx         0022  5  0B 00 01 1D 01 
  1381)      1078.3  Rx         0020  5  0A 00 15 19 01 
  1382)      1078.5  Rx         0022  5  0B 00 01 1D 01 
  1383)      1078.9  Rx         0021  5  00 00 00 00 00 
  1384)      1079.2  Rx         0023  5  00 00 00 00 00 
  1385)      1080.7  Rx         0020  5  0A 00 15 19 01 
  1386)      1084.1  Rx         0022  5  0B 00 01 1D 01 
  1387)      1084.5  Rx         0020  5  0A 00 15 19 01 
  1388)      1084.7  Rx         0023  5  00 00 00 00 00 
  1389)      1088.1  Rx         0020  5  0A 00 15 19 01 
  1390)      1088.3  Rx         0023  5  00 00 00 00 00 
  1391)      1088.8  Rx         0021  5  00 00 00 00 00 
  1392)      1088.9  Rx         0022  5  0B 00 01 1D 01 
  1393)      1092.2  Rx         0021  5  00 00 00 00 00 
  1394)      1093.8  Rx         0023  5  00 00 00 00 00 
  1395)      1094.3  Rx         0020  5  0A 00 15 19 01 
  1396)      1094.5  Rx         0022  5  0B 00 01 1D 01 
  1397)      1097.8  Rx         0020  5  0A 00 15 19 01 
  1398)      1098.0  Rx         0022  5  0B 00 01 1D 01 
  1399)      1098.4  Rx         0021  5  00 00 00 00 00 
  1400)      1098.6  Rx         0023  5  00 00 00 00 00 
  1401)      1103.2  Rx         0021  5  00 00 00 00 00 
  1402)      1103.7  Rx         0020  5  0A 00 15 19 01 
  1403)      1105.5  Rx         0021  5  00 00 00 00 00 
  1404)      1105.7  Rx         0022  5  0B 00 01 1D 01 
  1405)      1106.1  Rx         0020  5  0A 00 15 19 01 
  1406)      1106.3  Rx         0023  5  00 00 00 00 00 
  1407)      1106.8  Rx         0021  5  00 00 00 00 00 
  1408)      1107.0  Rx         0022  5  0B 00 01 1D 01 
  1409)      1109.1  Rx         0021  5  00 00 00 00 00 
  1410)      1109.3  Rx         0022  5  0B 00 01 1D 01 
  1411)      1114.9  Rx         0021  5  00 00 00 00 00 
  1412)      1116.7  Rx         0020  5  0A 00 15 19 01 
  1413)      1116.9  Rx         0022  5  0B 00 01 1D 01 
  1414)      1117.4  Rx         0021  5  00 00 00 00 00 
  1415)      1117.5  Rx         0023  5  00 00 00 00 00 
  1416)      1118.0  Rx         0020  5  0A 00 15 19 01 
  1417)      1118.2  Rx         0022  5  0B 00 01 1D 01 
  1418)      1123.9  Rx         0020  5  0A 00 15 19 01 
  1419)      1125.0  Rx         0020  5  0A 00 15 19 01 
  1420)      1126.0  Rx         0026  6  43 FE D1 7F 3E 3B 
  1421)      1126.2  Rx         0020  5  0A 00 15 19 01 
  1422)      1126.7  Rx         0022  5  0B 00 01 1D 01 
  1423)      1126.9  Rx         0021  5  00 00 00 00 00 
  1424)      1129.0  Rx         0022  5  0B 00 01 1D 01 
  1425)      1129.2  Rx         0021  5  00 00 00 00 00 
  1426)      1129.5  Rx         0023  5  00 00 00 00 00 
  1427)      1129.7  Rx         0020  5  0A 00 15 19 01 
  1428)      1130.0  Rx         0022  5  0B 00 01 1D 01 
  1429)      1133.9  Rx         0021  5  00 00 00 00 00 
  1430)      1134.1  Rx         0023  5  00 00 00 00 00 
  1431)      1134.6  Rx         0020  5  0A 00 15 19 01 
  1432)      1134.8  Rx         0022  5  0B 00 01 1D 01 
  1433)      1136.4  Rx         0021  5  00 00 00 00 00 
  1434)      1136.9  Rx         0020  5  0A 00 15 19 01 
  1435)      1138.7  Rx         0021  5  00 00 00 00 00 
  1436)      1138.9  Rx         0022  5  0B 00 01 1D 01 
  1437)      1139.3  Rx         0020  5  0A 00 15 19 01 
  1438)      1139.5  Rx         0023  5  00 00 00 00 00 
  1439)      1139.9  Rx         0021  5  00 00 00 00 00 
  1440)      1140.1  Rx         0022  5  0B 00 01 1D 01 
  1441)      1140.5  Rx         0020  5  0A 00 15 19 01 
  1442)      1140.7  Rx         0023  5  00 00 00 00 00 
  1443)      1141.2  Rx         0021  5  00 00 00 00 00 
  1444)      1141.3  Rx         0022  5  0B 00 01 1D 01 
  1445)      1141.8  Rx         0020  5  0A 00 15 19 01 
  1446)      1141.9  Rx         0023  5  00 00 00 00 00 
  1447)      1142.4  Rx         0021  5  00 00 00 00 00 
  1448)      1142.6  Rx         0022  5  0B 00 01 1D 01 
  1449)      1143.0  Rx         0020  5  0A 00 15 19 01 
  1450)      1143.2  Rx         0023  5  00 00 00 00 00 
  1451)      1143.6  Rx         0021  5  00 00 00 00 00 
  1452)      1143.8  Rx         0022  5  0B 00 01 1D 01 
  1453)      1144.2  Rx         0020  5  0A 00 15 19 01 
  1454)      1144.4  Rx         0023  5  00 00 00 00 00 
  1455)      1144.8  Rx         0021  5  00 00 00 00 00 
  1456)      1145.0  Rx         0022  5  0B 00 01 1D 01 
  1457)      1145.4  Rx         0020  5  0A 00 15 19 01 
  1458)      1145.6  Rx         0023  5  00 00 00 00 00 
  1459)      1146.0  Rx         0021  5  00 00 00 00 00 
  1460)      1146.2  Rx         0022  5  0B 00 01 1D 01 
  1461)      1146.6  Rx         0020  5  0A 00 15 19 01 
  1462)      1146.8  Rx         0023  5  00 00 00 00 00 
  1463)      1147.2  Rx         0021  5  00 00 00 00 00 
  1464)      1148.9  Rx         0020  5  0A 00 15 19 01 
  1465)      1149.1  Rx         0026  6  4E FE D1 7F 3E 3B 
  1466)      1149.4  Rx         0021  5  00 00 00 00 00 
  1467)      1149.6  Rx         0022  5  0B 00 01 1D 01 
  1468)      1150.0  Rx         0020  5  0A 00 15 19 01 
  1469)      1150.2  Rx         0023  5  00 00 00 00 00 
  1470)      1150.6  Rx         0021  5  00 00 00 00 00 
  1471)      1150.8  Rx         0022  5  0B 00 01 1D 01 
  1472)      1151.2  Rx         0020  5  0A 00 15 19 01 
  1473)      1151.4  Rx         0023  5  00 00 00 00 00 
  1474)      1151.8  Rx         0021  5  00 00 00 00 00 
  1475)      1152.0  Rx         0022  5  0B 00 01 1D 01 
  1476)      1152.4  Rx         0020  5  0A 00 15 19 01 
  1477)      1152.6  Rx         0023  5  00 00 00 00 00 
  1478)      1153.1  Rx         0021  5  00 00 00 00 00 
  1479)      1153.2  Rx         0022  5  0B 00 01 1D 01 
  1480)      1153.7  Rx         0020  5  0A 00 15 19 01 
  1481)      1153.8  Rx         0023  5  00 00 00 00 00 
  1482)      1154.3  Rx         0021  5  00 00 00 00 00 
  1483)      1154.5  Rx         0022  5  0B 00 01 1D 01 
  1484)      1154.9  Rx         0020  5  0A 00 15 19 01 
  1485)      1155.1  Rx         0023  5  00 00 00 00 00 
  1486)      1155.5  Rx         0021  5  00 00 00 00 00 
  1487)      1155.7  Rx         0022  5  0B 00 01 1D 01 
  1488)      1156.1  Rx         0020  5  0A 00 15 19 01 
  1489)      1156.3  Rx         0023  5  00 00 00 00 00 
  1490)      1156.7  Rx         0021  5  00 00 00 00 00 
  1491)      1156.9  Rx         0022  5  0B 00 01 1D 01 
  1492)      1157.3  Rx         0020  5  0A 00 15 19 01 
  1493)      1157.5  Rx         0023  5  00 00 00 00 00 
  1494)      1157.9  Rx         0021  5  00 00 00 00 00 
  1495)      1159.4  Rx         0026  6  4E FE D1 7F 32 3B 
  1496)      1159.6  Rx         0020  5  0A 00 15 19 01 
  1497)      1160.1  Rx         0022  5  0B 00 01 1D 01 
  1498)      1160.3  Rx         0021  5  00 00 00 00 00 
  1499)      1168.9  Rx         0020  5  0A 00 15 19 03 
  1500)      1174.3  Rx         0021  5  00 00 00 00 00 
  1501)      1174.5  Rx         0023  5  00 00 00 00 00 
  1502)      1174.9  Rx         0020  5  0A 00 15 19 03 
  1503)      1175.1  Rx         0022  5  0B 00 01 1D 01 
  1504)      1178.5  Rx         0020  5  0A 00 15 19 03 
  1505)      1178.7  Rx         0022  5  0B 00 01 1D 01 
  1506)      1180.2  Rx         0021  5  00 00 00 00 00 
  1507)      1183.8  Rx         0021  5  00 00 00 00 00 
  1508)      1184.0  Rx         0022  5  0B 00 01 1D 01 
  1509)      1187.4  Rx         0021  5  00 00 00 00 00 
  1510)      1187.5  Rx         0022  5  0B 00 01 1D 01 
  1511)      1188.0  Rx         0020  5  0A 00 15 19 03 
  1512)      1188.2  Rx         0023  5  00 00 00 00 00 
  1513)      1191.5  Rx         0020  5  0A 00 15 19 03 
  1514)      1195.1  Rx         0020  5  0A 00 15 19 03 
  1515)      1195.3  Rx         0022  5  0B 00 01 1D 01 
  1516)      1195.7  Rx         0021  5  00 00 00 00 00 
  1517)      1195.9  Rx         0023  5  00 00 00 00 00 
  1518)      1199.3  Rx         0021  5  00 00 00 00 00 
  1519)      1199.5  Rx         0023  5  00 00 00 00 00 
  1520)      1202.8  Rx         0021  5  00 00 00 00 00 
  1521)      1204.4  Rx         0026  6  5A FE D1 7F 32 3B 
  1522)      1204.5  Rx         0020  5  0A 00 16 19 01 
  1523)      1205.0  Rx         0022  5  0B 00 01 1D 01 
  1524)      1205.2  Rx         0021  5  00 00 00 00 00 
  1525)      1208.5  Rx         0022  5  0B 00 01 1D 01 
  1526)      1209.0  Rx         0021  5  00 00 00 00 00 
  1527)      1209.2  Rx         0023  5  00 00 00 00 00 
  1528)      1212.6  Rx         0021  5  00 00 00 00 00 
  1529)      1214.1  Rx         0026  6  5A FE D1 7F 32 3B 
  1530)      1214.3  Rx         0020  5  0A 00 16 19 01 
  1531)      1214.7  Rx         0022  5  0B 00 01 1D 01 
  1532)      1214.9  Rx         0021  5  00 00 00 00 00 
  1533)      1218.5  Rx         0021  5  00 00 00 00 00 
  1534)      1218.7  Rx         0023  5  00 00 00 00 00 
  1535)      1224.4  Rx         0021  5  00 00 00 00 00 
  1536)      1225.5  Rx         0021  5  00 00 00 00 00 
  1537)      1229.1  Rx         0021  5  00 00 00 00 00 
  1538)      1229.3  Rx         0022  5  0B 00 01 1D 01 
  1539)      1229.7  Rx         0020  5  0A 00 16 19 03 
  1540)      1229.9  Rx         0023  5  00 00 00 00 00 
  1541)      1233.9  Rx         0021  5  00 00 00 00 00 
  1542)      1234.1  Rx         0022  5  0B 00 01 1D 01 
  1543)      1235.7  Rx         0020  5  0A 00 17 19 01 
  1544)      1236.2  Rx         0021  5  00 00 00 00 00 
  1545)      1238.0  Rx         0020  5  0A 00 17 19 01 
  1546)      1238.2  Rx         0022  5  0B 00 01 1D 01 
  1547)      1238.7  Rx         0021  5  00 00 00 00 00 
  1548)      1238.8  Rx         0023  5  00 00 00 00 00 
  1549)      1239.3  Rx         0020  5  0A 00 17 19 01 
  1550)      1239.5  Rx         0022  5  0B 00 01 1D 01 
  1551)      1245.2  Rx         0020  5  0A 00 17 19 01 
  1552)      1245.4  Rx         0022  5  0B 00 01 1D 01 
  1553)      1245.8  Rx         0021  5  00 00 00 00 00 
  1554)      1246.0  Rx         0023  5  00 00 00 00 00 
  1555)      1247.0  Rx         0021  5  00 00 00 00 00 
  1556)      1248.1  Rx         0021  5  00 00 00 00 00 
  1557)      1248.6  Rx         0026  6  5A FE D1 7F 32 3B 
  1558)      1248.8  Rx         0020  5  0A 00 17 19 01 
  1559)      1254.4  Rx         0023  5  00 00 00 00 00 
  1560)      1254.9  Rx         0020  5  0A 00 17 19 01 
  1561)      1255.1  Rx         0022  5  0B 00 01 1D 01 
  1562)      1256.7  Rx         0021  5  00 00 00 00 00 
  1563)      1257.2  Rx         0020  5  0A 00 17 19 03 
  1564)      1259.0  Rx         0021  5  00 00 00 00 00 
  1565)      1259.2  Rx         0022  5  0B 00 01 1D 01 
  1566)      1259.7  Rx         0020  5  0A 00 17 19 03 
  1567)      1259.9  Rx         0023  5  00 00 00 00 00 
  1568)      1265.6  Rx         0020  5  0A 00 18 19 01 
  1569)      1265.8  Rx         0023  5  00 00 00 00 00 
  1570)      1266.3  Rx         0021  5  00 00 00 00 00 
  1571)      1266.4  Rx         0022  5  0B 00 01 1D 01 
  1572)      1268.1  Rx         0020  5  0A 00 18 19 03 
  1573)      1268.6  Rx         0021  5  00 00 00 00 00 
  1574)      1269.1  Rx         0026  6  4E FE D1 7F 32 3B 
  1575)      1269.2  Rx         0020  5  0A 00 18 19 03 
  1576)      1274.9  Rx         0023  5  00 00 00 00 00 
  1577)      1275.1  Rx         0020  5  0A 00 18 19 03 
  1578)      1275.6  Rx         0022  5  0B 00 01 1D 01 
  1579)      1275.8  Rx         0021  5  00 00 00 00 00 
  1580)      1276.2  Rx         0023  5  00 00 00 00 00 
  1581)      1276.4  Rx         0020  5  0A 00 18 19 03 
  1582)      1276.8  Rx         0022  5  0B 00 01 1D 01 
  1583)      1277.0  Rx         0021  5  00 00 00 00 00 
  1584)      1277.4  Rx         0023  5  00 00 00 00 00 
  1585)      1277.6  Rx         0020  5  0A 00 18 19 03 
  1586)      1278.0  Rx         0022  5  0B 00 01 1D 01 
  1587)      1278.2  Rx         0021  5  00 00 00 00 00 
  1588)      1278.6  Rx         0023  5  00 00 00 00 00 
  1589)      1278.8  Rx         0020  5  0A 00 18 19 03 
  1590)      1280.0  Rx         0020  5  0A 00 18 19 03 
  1591)      1280.3  Rx         0026  6  4E FE D1 7F 32 3B 
  1592)      1280.5  Rx         0021  5  00 00 00 00 00 
  1593)      1280.7  Rx         0022  5  0B 00 01 1D 01 
  1594)      1281.0  Rx         0020  5  0A 00 19 19 01 
  1595)      1281.2  Rx         0023  5  00 00 00 00 00 
  1596)      1281.6  Rx         0021  5  00 00 00 00 00 
  1597)      1281.8  Rx         0022  5  0B 00 01 1D 01 
  1598)      1282.2  Rx         0020  5  0A 00 19 19 01 
  1599)      1282.4  Rx         0023  5  00 00 00 00 00 
  1600)      1282.8  Rx         0021  5  00 00 00 00 00 
  1601)      1283.0  Rx         0022  5  0B 00 01 1D 01 
  1602)      1283.3  Rx         0020  5  0A 00 19 19 01 
  1603)      1283.5  Rx         0023  5  00 00 00 00 00 
  1604)      1283.8  Rx         0021  5  00 00 00 00 00 
  1605)      1284.0  Rx         0022  5  0B 00 01 1D 01 
  1606)      1284.3  Rx         0020  5  0A 00 19 19 01 
  1607)      1284.5  Rx         0023  5  00 00 00 00 00 
  1608)      1284.8  Rx         0021  5  00 00 00 00 00 
  1609)      1285.1  Rx         0022  5  0B 00 01 1D 01 
  1610)      1285.4  Rx         0020  5  0A 00 19 19 01 
  1611)      1285.5  Rx         0023  5  00 00 00 00 00 
  1612)      1285.9  Rx         0021  5  00 00 00 00 00 
  1613)      1286.0  Rx         0022  5  0B 00 01 1D 01 
  1614)      1286.4  Rx         0020  5  0A 00 19 19 01 
  1615)      1286.6  Rx         0023  5  00 00 00 00 00 
  1616)      1286.9  Rx         0021  5  00 00 00 00 00 
  1617)      1287.1  Rx         0022  5  0B 00 01 1D 01 
  1618)      1287.4  Rx         0020  5  0A 00 19 19 01 
  1619)      1287.6  Rx         0023  5  00 00 00 00 00 
  1620)      1287.9  Rx         0021  5  00 00 00 00 00 
  1621)      1288.1  Rx         0022  5  0B 00 01 1D 01 
  1622)      1288.6  Rx         0020  5  0A 00 19 19 01 
  1623)      1288.8  Rx         0023  5  00 00 00 00 00 
  1624)      1289.2  Rx         0021  5  00 00 00 00 00 
  1625)      1289.4  Rx         0022  5  0B 00 01 1D 01 
  1626)      1289.9  Rx         0020  5  0A 00 19 19 01 
  1627)      1290.0  Rx         0023  5  00 00 00 00 00 
  1628)      1290.5  Rx         0021  5  00 00 00 00 00 
  1629)      1293.0  Rx         0021  5  00 00 00 00 00 
  1630)      1293.2  Rx         0022  5  0B 00 01 1D 01 
  1631)      1293.6  Rx         0020  5  0A 00 19 19 03 
  1632)      1293.8  Rx         0023  5  00 00 00 00 00 
  1633)      1294.3  Rx         0021  5  00 00 00 00 00 
  1634)      1294.4  Rx         0022  5  0B 00 01 1D 01 
  1635)      1294.9  Rx         0020  5  0A 00 19 19 03 
  1636)      1295.1  Rx         0023  5  00 00 00 00 00 
  1637)      1295.6  Rx         0021  5  00 00 00 00 00 
  1638)      1295.8  Rx         0022  5  0B 00 01 1D 01 
  1639)      1296.1  Rx         0020  5  0A 00 19 19 03 
  1640)      1296.3  Rx         0023  5  00 00 00 00 00 
  1641)      1296.7  Rx         0021  5  00 00 00 00 00 
  1642)      1296.9  Rx         0022  5  0B 00 01 1D 01 
  1643)      1297.3  Rx         0020  5  0A 00 19 19 03 
  1644)      1297.5  Rx         0023  5  00 00 00 00 00 
  1645)      1297.9  Rx         0021  5  00 00 00 00 00 
  1646)      1298.0  Rx         0022  5  0B 00 01 1D 01 
  1647)      1304.8  Rx         0023  5  00 00 00 00 00 
  1648)      1305.2  Rx         0021  5  00 00 00 00 00 
  1649)      1305.4  Rx         0022  5  0B 00 01 1D 01 
  1650)      1308.7  Rx         0021  5  00 00 00 00 00 
  1651)      1308.9  Rx         0022  5  0B 00 01 1D 01 
  1652)      1312.8  Rx         0020  5  0A 00 1A 19 03 
  1653)      1315.6  Rx         0023  5  00 00 00 00 00 
  1654)      1315.9  Rx         0021  5  00 00 00 00 00 
  1655)      1316.3  Rx         0022  5  0B 00 01 1D 01 
  1656)      1316.5  Rx         0020  5  0A 00 1A 19 03 
  1657)      1318.6  Rx         0022  5  0B 00 01 1D 01 
  1658)      1318.8  Rx         0020  5  0A 00 1A 19 03 
  1659)      1319.3  Rx         0023  5  00 00 00 00 00 
  1660)      1319.5  Rx         0021  5  00 00 00 00 00 
  1661)      1324.9  Rx         0020  5  0A 00 1A 19 03 
  1662)      1325.4  Rx         0021  5  00 00 00 00 00 
  1663)      1325.7  Rx         0026  6  37 FE D1 7F 3E 3B 
  1664)      1326.0  Rx         0020  5  0A 00 1A 19 03 
  1665)      1326.2  Rx         0022  5  0B 00 01 1D 01 
  1666)      1326.5  Rx         0021  5  00 00 00 00 00 
  1667)      1326.7  Rx         0023  5  00 00 00 00 00 
  1668)      1327.0  Rx         0020  5  0A 00 1A 19 03 
  1669)      1327.2  Rx         0022  5  0B 00 01 1D 01 
  1670)      1335.9  Rx         0021  5  00 00 00 00 00 
  1671)      1337.5  Rx         0026  6  37 FE D1 7F 3E 3B 
  1672)      1337.7  Rx         0020  5  0A 00 1B 19 03 
  1673)      1338.2  Rx         0022  5  0B 00 01 1D 01 
  1674)      1338.4  Rx         0021  5  00 00 00 00 00 
  1675)      1338.9  Rx         0023  5  00 00 00 00 00 
  1676)      1339.1  Rx         0020  5  0A 00 1B 19 03 
  1677)      1339.5  Rx         0022  5  0B 00 01 1D 01 
  1678)      1339.7  Rx         0021  5  00 00 00 00 00 
  1679)      1344.8  Rx         0023  5  00 00 00 00 00 
  1680)      1345.2  Rx         0020  5  0A 00 1B 19 03 
  1681)      1345.4  Rx         0022  5  0B 00 01 1D 01 
  1682)      1347.6  Rx         0020  5  0A 00 1B 19 03 
  1683)      1348.1  Rx         0021  5  00 00 00 00 00 
  1684)      1349.0  Rx         0026  6  2C FE C6 7F 3E 3B 
  1685)      1349.3  Rx         0021  5  00 00 00 00 00 
  1686)      1349.5  Rx         0022  5  0B 00 01 1D 01 
  1687)      1349.8  Rx         0020  5  0A 00 1B 19 03 
  1688)      1350.0  Rx         0023  5  00 00 00 00 00 
  1689)      1350.3  Rx         0021  5  00 00 00 00 00 
  1690)      1350.5  Rx         0022  5  0B 00 01 1D 01 
  1691)      1350.9  Rx         0020  5  0A 00 1B 19 03 
  1692)      1351.1  Rx         0023  5  00 00 00 00 00 
  1693)      1351.5  Rx         0021  5  00 00 00 00 00 
  1694)      1351.7  Rx         0022  5  0B 00 01 1D 01 
  1695)      1352.1  Rx         0020  5  0A 00 1B 19 03 
  1696)      1352.3  Rx         0023  5  00 00 00 00 00 
  1697)      1352.7  Rx         0021  5  00 00 00 00 00 
  1698)      1352.9  Rx         0022  5  0B 00 01 1D 01 
  1699)      1353.3  Rx         0020  5  0A 00 1B 19 03 
  1700)      1353.5  Rx         0023  5  00 00 00 00 00 
  1701)      1353.9  Rx         0021  5  00 00 00 00 00 
  1702)      1354.1  Rx         0022  5  0B 00 01 1D 01 
  1703)      1354.5  Rx         0020  5  0A 00 1B 19 03 
  1704)      1354.7  Rx         0023  5  00 00 00 00 00 
  1705)      1355.1  Rx         0021  5  00 00 00 00 00 
  1706)      1355.3  Rx         0022  5  0B 00 01 1D 01 
  1707)      1355.7  Rx         0020  5  0A 00 1B 19 03 
  1708)      1355.9  Rx         0023  5  00 00 00 00 00 
  1709)      1356.3  Rx         0021  5  00 00 00 00 00 
  1710)      1356.5  Rx         0022  5  0B 00 01 1D 01 
  1711)      1356.9  Rx         0020  5  0A 00 1B 19 03 
  1712)      1357.1  Rx         0023  5  00 00 00 00 00 
  1713)      1357.6  Rx         0021  5  00 00 00 00 00 
