;$FILEVERSION=1.1
;$STARTTIME=45826.7439251389
;
;   Start time: 2025/6/18 17:51:15.132.0
;   Generated by PCAN-View v5.3.2.952
;
;   Message Number
;   |         Time Offset (ms)
;   |         |        Type
;   |         |        |        ID (hex)
;   |         |        |        |     Data Length
;   |         |        |        |     |   Data Bytes (hex) ...
;   |         |        |        |     |   |
;---+--   ----+----  --+--  ----+---  +  -+ -- -- -- -- -- -- --
 21928)     10000.2  Rx         0021  5  00 00 00 00 00 
 21929)     10000.5  Rx         0022  5  0B 00 F8 23 01 
 21930)     10000.8  Rx         0020  5  0A 00 49 14 01 
 21931)     10001.1  Rx         0023  5  00 00 00 00 00 
 21932)     10001.5  Rx         0021  5  00 00 00 00 00 
 21933)     10001.7  Rx         0022  5  0B 00 F8 23 03 
 21934)     10002.0  Rx         0020  5  0A 00 49 14 03 
 21935)     10002.3  Rx         0023  5  00 00 00 00 00 
 21936)     10002.7  Rx         0021  5  00 00 00 00 00 
 21937)     10002.9  Rx         0022  5  0B 00 F9 23 01 
 21938)     10003.3  Rx         0020  5  0A 00 4A 14 01 
 21939)     10003.5  Rx         0023  5  00 00 00 00 00 
 21940)     10003.9  Rx         0021  5  00 00 00 00 00 
 21941)     10004.1  Rx         0022  5  0B 00 F9 23 03 
 21942)     10004.5  Rx         0020  5  0A 00 4B 14 01 
 21943)     10004.7  Rx         0023  5  00 00 00 00 00 
 21944)     10005.1  Rx         0021  5  00 00 00 00 00 
 21945)     10006.9  Rx         0020  5  0A 00 4C 14 01 
 21946)     10007.0  Rx         0022  5  0B 00 FA 23 03 
 21947)     10007.4  Rx         0021  5  00 00 00 00 00 
 21948)     10007.5  Rx         0023  5  00 00 00 00 00 
 21949)     10007.8  Rx         0020  5  0A 00 4C 14 03 
 21950)     10008.1  Rx         0022  5  0B 00 FB 23 01 
 21951)     10008.5  Rx         0021  5  00 00 00 00 00 
 21952)     10008.7  Rx         0023  5  00 00 00 00 00 
 21953)     10009.1  Rx         0020  5  0A 00 4D 14 01 
 21954)     10009.3  Rx         0022  5  0B 00 FB 23 03 
 21955)     10009.7  Rx         0021  5  00 00 00 00 00 
 21956)     10009.9  Rx         0023  5  00 00 00 00 00 
 21957)     10010.3  Rx         0020  5  0A 00 4E 14 01 
 21958)     10010.5  Rx         0022  5  0B 00 FC 23 01 
 21959)     10010.9  Rx         0021  5  00 00 00 00 00 
 21960)     10011.1  Rx         0023  5  00 00 00 00 00 
 21961)     10011.5  Rx         0020  5  0A 00 4E 14 03 
 21962)     10011.7  Rx         0022  5  0B 00 FC 23 03 
 21963)     10012.0  Rx         0021  5  00 00 00 00 00 
 21964)     10012.2  Rx         0023  5  00 00 00 00 00 
 21965)     10012.5  Rx         0020  5  0A 00 4F 14 01 
 21966)     10012.7  Rx         0022  5  0B 00 FD 23 01 
 21967)     10013.1  Rx         0021  5  00 00 00 00 00 
 21968)     10013.2  Rx         0023  5  00 00 00 00 00 
 21969)     10013.6  Rx         0020  5  0A 00 4F 14 03 
 21970)     10013.7  Rx         0022  5  0B 00 FD 23 03 
 21971)     10014.1  Rx         0021  5  00 00 00 00 00 
 21972)     10014.2  Rx         0023  5  00 00 00 00 00 
 21973)     10014.5  Rx         0020  5  0A 00 50 14 01 
 21974)     10014.7  Rx         0022  5  0B 00 FE 23 01 
 21975)     10015.1  Rx         0021  5  00 00 00 00 00 
 21976)     10015.3  Rx         0023  5  00 00 00 00 00 
 21977)     10015.6  Rx         0020  5  0A 00 51 14 01 
 21978)     10016.1  Rx         0021  5  00 00 00 00 00 
 21979)     10016.6  Rx         0020  5  0A 00 51 14 03 
 21980)     10016.9  Rx         0026  6  76 81 CC 8E B6 02 
 21981)     10017.1  Rx         0021  5  00 00 00 00 00 
 21982)     10017.4  Rx         0022  5  0B 00 FF 23 01 
 21983)     10017.6  Rx         0020  5  0A 00 52 14 01 
 21984)     10017.8  Rx         0023  5  00 00 00 00 00 
 21985)     10018.1  Rx         0021  5  00 00 00 00 00 
 21986)     10018.3  Rx         0022  5  0B 00 FF 23 03 
 21987)     10018.6  Rx         0020  5  0A 00 52 14 03 
 21988)     10018.8  Rx         0023  5  00 00 00 00 00 
 21989)     10019.1  Rx         0021  5  00 00 00 00 00 
 21990)     10019.3  Rx         0022  5  0B 00 FF 23 03 
 21991)     10019.8  Rx         0020  5  0A 00 53 14 01 
 21992)     10020.0  Rx         0023  5  00 00 00 00 00 
 21993)     10020.4  Rx         0021  5  00 00 00 00 00 
 21994)     10020.6  Rx         0022  5  0B 00 00 24 01 
 21995)     10021.0  Rx         0020  5  0A 00 53 14 01 
 21996)     10021.2  Rx         0023  5  00 00 00 00 00 
 21997)     10021.6  Rx         0021  5  00 00 00 00 00 
 21998)     10021.8  Rx         0022  5  0B 00 01 24 01 
 21999)     10022.2  Rx         0020  5  0A 00 54 14 01 
 22000)     10022.4  Rx         0023  5  00 00 00 00 00 
 22001)     10022.8  Rx         0021  5  00 00 00 00 00 
 22002)     10023.0  Rx         0022  5  0B 00 01 24 03 
 22003)     10023.4  Rx         0020  5  0A 00 55 14 01 
 22004)     10023.6  Rx         0023  5  00 00 00 00 00 
 22005)     10024.1  Rx         0021  5  00 00 00 00 00 
 22006)     10024.2  Rx         0022  5  0B 00 02 24 01 
 22007)     10024.7  Rx         0020  5  0A 00 55 14 03 
 22008)     10024.8  Rx         0023  5  00 00 00 00 00 
 22009)     10025.3  Rx         0021  5  00 00 00 00 00 
 22010)     10025.5  Rx         0022  5  0B 00 02 24 03 
 22011)     10025.9  Rx         0020  5  0A 00 56 14 01 
 22012)     10026.1  Rx         0023  5  00 00 00 00 00 
 22013)     10026.5  Rx         0021  5  00 00 00 00 00 
 22014)     10028.8  Rx         0021  5  00 00 00 00 00 
 22015)     10029.0  Rx         0023  5  00 00 00 00 00 
 22016)     10029.3  Rx         0020  5  0A 00 58 14 01 
 22017)     10029.5  Rx         0022  5  0B 00 04 24 03 
 22018)     10029.8  Rx         0021  5  00 00 00 00 00 
 22019)     10030.0  Rx         0023  5  00 00 00 00 00 
 22020)     10030.4  Rx         0020  5  0A 00 58 14 03 
 22021)     10030.6  Rx         0022  5  0B 00 05 24 01 
 22022)     10031.0  Rx         0021  5  00 00 00 00 00 
 22023)     10031.2  Rx         0023  5  00 00 00 00 00 
 22024)     10031.6  Rx         0020  5  0A 00 59 14 01 
 22025)     10031.8  Rx         0022  5  0B 00 05 24 03 
 22026)     10032.2  Rx         0021  5  00 00 00 00 00 
 22027)     10032.4  Rx         0023  5  00 00 00 00 00 
 22028)     10032.8  Rx         0020  5  0A 00 59 14 03 
 22029)     10033.0  Rx         0022  5  0B 00 06 24 01 
 22030)     10033.4  Rx         0021  5  00 00 00 00 00 
 22031)     10033.6  Rx         0023  5  00 00 00 00 00 
 22032)     10034.0  Rx         0020  5  0A 00 5A 14 01 
 22033)     10034.2  Rx         0022  5  0B 00 06 24 03 
 22034)     10034.6  Rx         0021  5  00 00 00 00 00 
 22035)     10034.9  Rx         0023  5  00 00 00 00 00 
 22036)     10035.2  Rx         0020  5  0A 00 5B 14 01 
 22037)     10035.5  Rx         0022  5  0B 00 07 24 03 
 22038)     10035.9  Rx         0021  5  00 00 00 00 00 
 22039)     10036.1  Rx         0023  5  00 00 00 00 00 
 22040)     10036.5  Rx         0020  5  0A 00 5B 14 03 
 22041)     10036.7  Rx         0022  5  0B 00 08 24 01 
 22042)     10037.1  Rx         0021  5  00 00 00 00 00 
 22043)     10037.3  Rx         0023  5  00 00 00 00 00 
 22044)     10037.7  Rx         0020  5  0A 00 5C 14 01 
 22045)     10039.4  Rx         0021  5  00 00 00 00 00 
 22046)     10039.6  Rx         0026  6  99 81 93 8E AA 02 
 22047)     10039.9  Rx         0020  5  0A 00 5D 14 03 
 22048)     10040.1  Rx         0022  5  0B 00 0A 24 01 
 22049)     10040.5  Rx         0021  5  00 00 00 00 00 
 22050)     10040.7  Rx         0023  5  00 00 00 00 00 
 22051)     10041.0  Rx         0020  5  0A 00 5D 14 03 
 22052)     10041.3  Rx         0022  5  0B 00 0A 24 03 
 22053)     10041.7  Rx         0021  5  00 00 00 00 00 
 22054)     10041.9  Rx         0023  5  00 00 00 00 00 
 22055)     10042.3  Rx         0020  5  0A 00 5E 14 03 
 22056)     10042.5  Rx         0022  5  0B 00 0B 24 01 
 22057)     10042.9  Rx         0021  5  00 00 00 00 00 
 22058)     10043.1  Rx         0023  5  00 00 00 00 00 
 22059)     10043.5  Rx         0020  5  0A 00 5F 14 01 
 22060)     10043.7  Rx         0022  5  0B 00 0B 24 03 
 22061)     10044.1  Rx         0021  5  00 00 00 00 00 
 22062)     10044.3  Rx         0023  5  00 00 00 00 00 
 22063)     10044.6  Rx         0020  5  0A 00 60 14 01 
 22064)     10044.8  Rx         0022  5  0B 00 0C 24 01 
 22065)     10045.1  Rx         0021  5  00 00 00 00 00 
 22066)     10045.3  Rx         0023  5  00 00 00 00 00 
 22067)     10045.6  Rx         0020  5  0A 00 60 14 01 
 22068)     10045.8  Rx         0022  5  0B 00 0C 24 03 
 22069)     10046.1  Rx         0021  5  00 00 00 00 00 
 22070)     10046.3  Rx         0023  5  00 00 00 00 00 
 22071)     10046.6  Rx         0020  5  0A 00 61 14 01 
 22072)     10046.8  Rx         0022  5  0B 00 0D 24 03 
 22073)     10047.2  Rx         0021  5  00 00 00 00 00 
 22074)     10047.3  Rx         0023  5  00 00 00 00 00 
 22075)     10047.7  Rx         0020  5  0A 00 61 14 03 
 22076)     10047.8  Rx         0022  5  0B 00 0E 24 01 
 22077)     10048.1  Rx         0021  5  00 00 00 00 00 
 22078)     10048.3  Rx         0023  5  00 00 00 00 00 
 22079)     10048.6  Rx         0020  5  0A 00 62 14 01 
 22080)     10049.2  Rx         0021  5  00 00 00 00 00 
 22081)     10049.7  Rx         0020  5  0A 00 62 14 03 
 22082)     10050.2  Rx         0021  5  00 00 00 00 00 
 22083)     10050.9  Rx         0020  5  0A 00 63 14 01 
 22084)     10051.1  Rx         0026  6  AF 81 71 8E AA 02 
 22085)     10051.5  Rx         0021  5  00 00 00 00 00 
 22086)     10051.7  Rx         0022  5  0B 00 10 24 01 
 22087)     10052.1  Rx         0020  5  0A 00 63 14 03 
 22088)     10052.4  Rx         0023  5  00 00 00 00 00 
 22089)     10052.7  Rx         0021  5  00 00 00 00 00 
 22090)     10053.0  Rx         0022  5  0B 00 10 24 03 
 22091)     10053.4  Rx         0020  5  0A 00 64 14 01 
 22092)     10053.6  Rx         0023  5  00 00 00 00 00 
 22093)     10054.0  Rx         0021  5  00 00 00 00 00 
 22094)     10054.2  Rx         0022  5  0B 00 11 24 03 
 22095)     10054.6  Rx         0020  5  0A 00 64 14 03 
 22096)     10054.8  Rx         0023  5  00 00 00 00 00 
 22097)     10055.2  Rx         0021  5  00 00 00 00 00 
 22098)     10055.4  Rx         0022  5  0B 00 12 24 01 
 22099)     10055.8  Rx         0020  5  0A 00 65 14 03 
 22100)     10056.0  Rx         0023  5  00 00 00 00 00 
 22101)     10056.4  Rx         0021  5  00 00 00 00 00 
 22102)     10056.6  Rx         0022  5  0B 00 12 24 03 
 22103)     10057.1  Rx         0020  5  0A 00 66 14 01 
 22104)     10057.2  Rx         0023  5  00 00 00 00 00 
 22105)     10057.7  Rx         0021  5  00 00 00 00 00 
 22106)     10057.8  Rx         0022  5  0B 00 13 24 01 
 22107)     10058.3  Rx         0020  5  0A 00 66 14 03 
 22108)     10058.5  Rx         0023  5  00 00 00 00 00 
 22109)     10058.9  Rx         0021  5  00 00 00 00 00 
 22110)     10059.1  Rx         0022  5  0B 00 14 24 01 
 22111)     10059.5  Rx         0020  5  0A 00 67 14 03 
 22112)     10059.7  Rx         0023  5  00 00 00 00 00 
 22113)     10060.1  Rx         0021  5  00 00 00 00 00 
 22114)     10061.8  Rx         0020  5  0A 00 69 14 01 
 22115)     10062.1  Rx         0026  6  C6 81 4F 8E AA 02 
 22116)     10062.3  Rx         0021  5  00 00 00 00 00 
 22117)     10062.8  Rx         0022  5  0B 00 15 24 03 
 22118)     10063.0  Rx         0020  5  0A 00 69 14 03 
 22119)     10063.4  Rx         0023  5  00 00 00 00 00 
 22120)     10063.6  Rx         0021  5  00 00 00 00 00 
 22121)     10064.0  Rx         0022  5  0B 00 16 24 03 
 22122)     10064.2  Rx         0020  5  0A 00 6A 14 03 
 22123)     10064.6  Rx         0023  5  00 00 00 00 00 
 22124)     10064.8  Rx         0021  5  00 00 00 00 00 
 22125)     10065.2  Rx         0022  5  0B 00 17 24 01 
 22126)     10065.4  Rx         0020  5  0A 00 6B 14 01 
 22127)     10065.8  Rx         0023  5  00 00 00 00 00 
 22128)     10066.0  Rx         0021  5  00 00 00 00 00 
 22129)     10066.4  Rx         0022  5  0B 00 17 24 03 
 22130)     10066.6  Rx         0020  5  0A 00 6C 14 01 
 22131)     10067.0  Rx         0023  5  00 00 00 00 00 
 22132)     10067.2  Rx         0021  5  00 00 00 00 00 
 22133)     10067.6  Rx         0022  5  0B 00 18 24 03 
 22134)     10067.8  Rx         0020  5  0A 00 6D 14 01 
 22135)     10068.2  Rx         0023  5  00 00 00 00 00 
 22136)     10068.4  Rx         0021  5  00 00 00 00 00 
 22137)     10068.8  Rx         0022  5  0B 00 19 24 01 
 22138)     10069.0  Rx         0020  5  0A 00 6D 14 03 
 22139)     10069.4  Rx         0023  5  00 00 00 00 00 
 22140)     10069.6  Rx         0021  5  00 00 00 00 00 
 22141)     10070.3  Rx         0020  5  0A 00 6E 14 01 
 22142)     10072.0  Rx         0026  6  DD 81 43 8E B6 02 
 22143)     10072.2  Rx         0021  5  00 00 00 00 00 
 22144)     10072.6  Rx         0022  5  0B 00 1A 24 03 
 22145)     10072.8  Rx         0020  5  0A 00 70 14 01 
 22146)     10073.1  Rx         0023  5  00 00 00 00 00 
 22147)     10073.4  Rx         0021  5  00 00 00 00 00 
 22148)     10073.6  Rx         0022  5  0B 00 1B 24 01 
 22149)     10073.8  Rx         0020  5  0A 00 70 14 03 
 22150)     10074.0  Rx         0023  5  00 00 00 00 00 
 22151)     10074.3  Rx         0021  5  00 00 00 00 00 
 22152)     10074.6  Rx         0022  5  0B 00 1B 24 03 
 22153)     10074.9  Rx         0020  5  0A 00 71 14 03 
 22154)     10075.1  Rx         0023  5  00 00 00 00 00 
 22155)     10075.4  Rx         0021  5  00 00 00 00 00 
 22156)     10075.5  Rx         0022  5  0B 00 1C 24 01 
 22157)     10075.9  Rx         0020  5  0A 00 72 14 01 
 22158)     10076.0  Rx         0023  5  00 00 00 00 00 
 22159)     10076.4  Rx         0021  5  00 00 00 00 00 
 22160)     10076.6  Rx         0022  5  0B 00 1C 24 03 
 22161)     10076.9  Rx         0020  5  0A 00 72 14 03 
 22162)     10077.1  Rx         0023  5  00 00 00 00 00 
 22163)     10077.4  Rx         0021  5  00 00 00 00 00 
 22164)     10077.6  Rx         0022  5  0B 00 1C 24 03 
 22165)     10077.9  Rx         0020  5  0A 00 73 14 03 
 22166)     10078.1  Rx         0023  5  00 00 00 00 00 
 22167)     10078.4  Rx         0021  5  00 00 00 00 00 
 22168)     10078.6  Rx         0022  5  0B 00 1D 24 01 
 22169)     10078.9  Rx         0020  5  0A 00 74 14 01 
 22170)     10079.1  Rx         0023  5  00 00 00 00 00 
 22171)     10079.4  Rx         0021  5  00 00 00 00 00 
 22172)     10079.6  Rx         0022  5  0B 00 1D 24 03 
 22173)     10079.9  Rx         0020  5  0A 00 74 14 03 
 22174)     10080.1  Rx         0023  5  00 00 00 00 00 
 22175)     10080.4  Rx         0021  5  00 00 00 00 00 
 22176)     10080.6  Rx         0022  5  0B 00 1E 24 01 
 22177)     10081.0  Rx         0020  5  0A 00 75 14 03 
 22178)     10081.1  Rx         0023  5  00 00 00 00 00 
 22179)     10081.6  Rx         0021  5  00 00 00 00 00 
 22180)     10082.2  Rx         0020  5  0A 00 77 14 01 
 22181)     10082.9  Rx         0021  5  00 00 00 00 00 
 22182)     10085.8  Rx         0020  5  0A 00 79 14 01 
 22183)     10086.0  Rx         0023  5  00 00 00 00 00 
 22184)     10086.3  Rx         0021  5  00 00 00 00 00 
 22185)     10086.5  Rx         0022  5  0B 00 20 24 01 
 22186)     10086.9  Rx         0020  5  0A 00 7A 14 01 
 22187)     10087.1  Rx         0023  5  00 00 00 00 00 
 22188)     10087.5  Rx         0021  5  00 00 00 00 00 
 22189)     10087.7  Rx         0022  5  0B 00 20 24 03 
 22190)     10088.1  Rx         0020  5  0A 00 7B 14 01 
 22191)     10088.3  Rx         0023  5  00 00 00 00 00 
 22192)     10088.8  Rx         0021  5  00 00 00 00 00 
 22193)     10088.9  Rx         0022  5  0B 00 21 24 01 
 22194)     10089.4  Rx         0020  5  0A 00 7C 14 01 
 22195)     10089.5  Rx         0023  5  00 00 00 00 00 
 22196)     10090.0  Rx         0021  5  00 00 00 00 00 
 22197)     10090.2  Rx         0022  5  0B 00 21 24 03 
 22198)     10090.6  Rx         0020  5  0A 00 7D 14 01 
 22199)     10090.8  Rx         0023  5  00 00 00 00 00 
 22200)     10091.2  Rx         0021  5  00 00 00 00 00 
 22201)     10091.4  Rx         0022  5  0B 00 21 24 03 
 22202)     10091.8  Rx         0020  5  0A 00 7E 14 01 
 22203)     10092.0  Rx         0023  5  00 00 00 00 00 
 22204)     10092.4  Rx         0021  5  00 00 00 00 00 
 22205)     10093.5  Rx         0021  5  00 00 00 00 00 
 22206)     10094.5  Rx         0026  6  E8 81 43 8E E3 02 
 22207)     10094.7  Rx         0021  5  00 00 00 00 00 
 22208)     10094.9  Rx         0022  5  0B 00 22 24 01 
 22209)     10095.2  Rx         0020  5  0A 00 81 14 01 
 22210)     10095.4  Rx         0023  5  00 00 00 00 00 
 22211)     10095.7  Rx         0021  5  00 00 00 00 00 
 22212)     10095.9  Rx         0022  5  0B 00 22 24 03 
 22213)     10096.2  Rx         0020  5  0A 00 82 14 01 
 22214)     10096.4  Rx         0023  5  00 00 00 00 00 
 22215)     10096.8  Rx         0021  5  00 00 00 00 00 
 22216)     10097.0  Rx         0022  5  0B 00 22 24 03 
 22217)     10097.4  Rx         0020  5  0A 00 83 14 01 
 22218)     10097.6  Rx         0023  5  00 00 00 00 00 
 22219)     10098.0  Rx         0021  5  00 00 00 00 00 
 22220)     10098.2  Rx         0022  5  0B 00 23 24 01 
 22221)     10098.6  Rx         0020  5  0A 00 84 14 01 
 22222)     10098.8  Rx         0023  5  00 00 00 00 00 
 22223)     10099.2  Rx         0021  5  00 00 00 00 00 
 22224)     10099.4  Rx         0022  5  0B 00 23 24 01 
 22225)     10099.8  Rx         0020  5  0A 00 85 14 01 
 22226)     10100.0  Rx         0023  5  00 00 00 00 00 
 22227)     10100.4  Rx         0021  5  00 00 00 00 00 
 22228)     10100.6  Rx         0022  5  0B 00 23 24 03 
 22229)     10101.0  Rx         0020  5  0A 00 86 14 01 
 22230)     10101.2  Rx         0023  5  00 00 00 00 00 
 22231)     10101.6  Rx         0021  5  00 00 00 00 00 
 22232)     10101.8  Rx         0022  5  0B 00 23 24 03 
 22233)     10102.2  Rx         0020  5  0A 00 87 14 01 
 22234)     10102.4  Rx         0023  5  00 00 00 00 00 
 22235)     10102.8  Rx         0021  5  00 00 00 00 00 
 22236)     10103.0  Rx         0022  5  0B 00 23 24 03 
 22237)     10103.4  Rx         0020  5  0A 00 88 14 01 
 22238)     10103.6  Rx         0023  5  00 00 00 00 00 
 22239)     10104.0  Rx         0021  5  00 00 00 00 00 
 22240)     10105.5  Rx         0026  6  DD 81 71 8E 49 03 
 22241)     10105.8  Rx         0020  5  0A 00 8A 14 03 
 22242)     10106.0  Rx         0022  5  0B 00 24 24 01 
 22243)     10106.3  Rx         0021  5  00 00 00 00 00 
 22244)     10106.5  Rx         0023  5  00 00 00 00 00 
 22245)     10106.8  Rx         0020  5  0A 00 8B 14 03 
 22246)     10107.0  Rx         0022  5  0B 00 24 24 01 
 22247)     10107.4  Rx         0021  5  00 00 00 00 00 
 22248)     10107.6  Rx         0023  5  00 00 00 00 00 
 22249)     10108.0  Rx         0020  5  0A 00 8C 14 03 
 22250)     10108.2  Rx         0022  5  0B 00 24 24 01 
 22251)     10108.5  Rx         0021  5  00 00 00 00 00 
 22252)     10108.7  Rx         0023  5  00 00 00 00 00 
 22253)     10109.0  Rx         0020  5  0A 00 8D 14 03 
 22254)     10109.2  Rx         0022  5  0B 00 24 24 03 
 22255)     10109.5  Rx         0021  5  00 00 00 00 00 
 22256)     10109.7  Rx         0023  5  00 00 00 00 00 
 22257)     10110.0  Rx         0020  5  0A 00 8E 14 03 
 22258)     10110.2  Rx         0022  5  0B 00 24 24 03 
 22259)     10110.5  Rx         0021  5  00 00 00 00 00 
 22260)     10110.7  Rx         0023  5  00 00 00 00 00 
 22261)     10111.0  Rx         0020  5  0A 00 90 14 01 
 22262)     10111.2  Rx         0022  5  0B 00 24 24 03 
 22263)     10111.6  Rx         0021  5  00 00 00 00 00 
 22264)     10111.7  Rx         0023  5  00 00 00 00 00 
 22265)     10112.1  Rx         0020  5  0A 00 90 14 03 
 22266)     10112.2  Rx         0022  5  0B 00 24 24 03 
 22267)     10112.6  Rx         0021  5  00 00 00 00 00 
 22268)     10112.8  Rx         0023  5  00 00 00 00 00 
 22269)     10113.1  Rx         0020  5  0A 00 91 14 01 
 22270)     10113.3  Rx         0022  5  0B 00 24 24 03 
 22271)     10113.6  Rx         0021  5  00 00 00 00 00 
 22272)     10113.8  Rx         0023  5  00 00 00 00 00 
 22273)     10114.1  Rx         0020  5  0A 00 92 14 01 
 22274)     10114.6  Rx         0021  5  00 00 00 00 00 
 22275)     10115.1  Rx         0020  5  0A 00 93 14 01 
 22276)     10115.7  Rx         0021  5  00 00 00 00 00 
 22277)     10115.8  Rx         0026  6  D1 81 AA 8E 82 03 
 22278)     10116.3  Rx         0020  5  0A 00 94 14 03 
 22279)     10116.4  Rx         0022  5  0B 00 25 24 01 
 22280)     10116.9  Rx         0021  5  00 00 00 00 00 
 22281)     10117.1  Rx         0023  5  00 00 00 00 00 
 22282)     10117.5  Rx         0020  5  0A 00 95 14 01 
 22283)     10117.7  Rx         0022  5  0B 00 25 24 01 
 22284)     10118.1  Rx         0021  5  00 00 00 00 00 
 22285)     10118.3  Rx         0023  5  00 00 00 00 00 
 22286)     10118.7  Rx         0020  5  0A 00 96 14 03 
 22287)     10118.9  Rx         0022  5  0B 00 26 24 01 
 22288)     10119.3  Rx         0021  5  00 00 00 00 00 
 22289)     10119.5  Rx         0023  5  00 00 00 00 00 
 22290)     10119.9  Rx         0020  5  0A 00 98 14 01 
 22291)     10120.1  Rx         0022  5  0B 00 26 24 03 
 22292)     10120.5  Rx         0021  5  00 00 00 00 00 
 22293)     10120.7  Rx         0023  5  00 00 00 00 00 
 22294)     10121.2  Rx         0020  5  0A 00 99 14 01 
 22295)     10121.3  Rx         0022  5  0B 00 28 24 01 
 22296)     10121.8  Rx         0021  5  00 00 00 00 00 
 22297)     10121.9  Rx         0023  5  00 00 00 00 00 
 22298)     10122.4  Rx         0020  5  0A 00 9B 14 01 
 22299)     10122.5  Rx         0022  5  0B 00 29 24 03 
 22300)     10123.0  Rx         0021  5  00 00 00 00 00 
 22301)     10123.2  Rx         0023  5  00 00 00 00 00 
 22302)     10123.6  Rx         0020  5  0A 00 9C 14 01 
 22303)     10123.8  Rx         0022  5  0B 00 2B 24 01 
 22304)     10124.2  Rx         0021  5  00 00 00 00 00 
 22305)     10124.4  Rx         0023  5  00 00 00 00 00 
 22306)     10124.8  Rx         0020  5  0A 00 9D 14 01 
 22307)     10127.2  Rx         0020  5  0A 00 9F 14 01 
 22308)     10127.4  Rx         0023  5  00 00 00 00 00 
 22309)     10127.7  Rx         0021  5  00 00 00 00 00 
 22310)     10127.9  Rx         0022  5  0B 00 33 24 01 
 22311)     10128.3  Rx         0020  5  0A 00 A0 14 01 
 22312)     10128.5  Rx         0023  5  00 00 00 00 00 
 22313)     10128.9  Rx         0021  5  00 00 00 00 00 
 22314)     10129.1  Rx         0022  5  0B 00 35 24 03 
 22315)     10129.5  Rx         0020  5  0A 00 A1 14 03 
 22316)     10129.7  Rx         0023  5  00 00 00 00 00 
 22317)     10130.1  Rx         0021  5  00 00 00 00 00 
 22318)     10130.3  Rx         0022  5  0B 00 39 24 01 
 22319)     10130.7  Rx         0020  5  0A 00 A2 14 01 
 22320)     10130.9  Rx         0023  5  00 00 00 00 00 
 22321)     10131.4  Rx         0021  5  00 00 00 00 00 
 22322)     10131.5  Rx         0022  5  0B 00 3C 24 03 
 22323)     10132.0  Rx         0020  5  0A 00 A3 14 01 
 22324)     10132.1  Rx         0023  5  00 00 00 00 00 
 22325)     10132.6  Rx         0021  5  00 00 00 00 00 
 22326)     10132.7  Rx         0022  5  0B 00 3F 24 03 
 22327)     10133.2  Rx         0020  5  0A 00 A4 14 01 
 22328)     10133.4  Rx         0023  5  00 00 00 00 00 
 22329)     10133.8  Rx         0021  5  00 00 00 00 00 
 22330)     10134.0  Rx         0022  5  0B 00 42 24 03 
 22331)     10134.4  Rx         0020  5  0A 00 A4 14 03 
 22332)     10134.6  Rx         0023  5  00 00 00 00 00 
 22333)     10135.0  Rx         0021  5  00 00 00 00 00 
 22334)     10135.2  Rx         0022  5  0B 00 46 24 03 
 22335)     10135.6  Rx         0020  5  0A 00 A6 14 01 
 22336)     10135.8  Rx         0023  5  00 00 00 00 00 
 22337)     10136.2  Rx         0021  5  00 00 00 00 00 
 22338)     10137.9  Rx         0020  5  0A 00 A7 14 01 
 22339)     10138.1  Rx         0022  5  0B 00 4F 24 01 
 22340)     10138.4  Rx         0021  5  00 00 00 00 00 
 22341)     10138.6  Rx         0023  5  00 00 00 00 00 
 22342)     10139.0  Rx         0020  5  0A 00 A7 14 03 
 22343)     10139.1  Rx         0022  5  0B 00 51 24 03 
 22344)     10139.6  Rx         0021  5  00 00 00 00 00 
 22345)     10139.8  Rx         0023  5  00 00 00 00 00 
 22346)     10140.0  Rx         0020  5  0A 00 A8 14 01 
 22347)     10140.2  Rx         0022  5  0B 00 54 24 03 
 22348)     10140.5  Rx         0021  5  00 00 00 00 00 
 22349)     10140.8  Rx         0023  5  00 00 00 00 00 
 22350)     10141.1  Rx         0020  5  0A 00 A8 14 01 
 22351)     10141.2  Rx         0022  5  0B 00 56 24 03 
 22352)     10141.6  Rx         0021  5  00 00 00 00 00 
 22353)     10141.8  Rx         0023  5  00 00 00 00 00 
 22354)     10142.1  Rx         0020  5  0A 00 A8 14 03 
 22355)     10142.2  Rx         0022  5  0B 00 59 24 03 
 22356)     10142.6  Rx         0021  5  00 00 00 00 00 
 22357)     10142.8  Rx         0023  5  00 00 00 00 00 
 22358)     10143.1  Rx         0020  5  0A 00 A8 14 03 
 22359)     10143.3  Rx         0022  5  0B 00 5B 24 03 
 22360)     10143.6  Rx         0021  5  00 00 00 00 00 
 22361)     10143.8  Rx         0023  5  00 00 00 00 00 
 22362)     10144.1  Rx         0020  5  0A 00 A9 14 03 
 22363)     10144.3  Rx         0022  5  0B 00 5E 24 01 
 22364)     10144.6  Rx         0021  5  00 00 00 00 00 
 22365)     10144.8  Rx         0023  5  00 00 00 00 00 
 22366)     10145.1  Rx         0020  5  0A 00 AA 14 01 
 22367)     10145.3  Rx         0022  5  0B 00 60 24 03 
 22368)     10145.6  Rx         0021  5  00 00 00 00 00 
 22369)     10145.8  Rx         0023  5  00 00 00 00 00 
 22370)     10146.1  Rx         0020  5  0A 00 AA 14 03 
 22371)     10146.6  Rx         0021  5  00 00 00 00 00 
 22372)     10147.2  Rx         0020  5  0A 00 AB 14 01 
 22373)     10147.6  Rx         0026  6  99 81 27 8F C1 04 
 22374)     10147.8  Rx         0021  5  00 00 00 00 00 
 22375)     10148.2  Rx         0022  5  0B 00 68 24 01 
 22376)     10148.4  Rx         0020  5  0A 00 AC 14 01 
 22377)     10148.8  Rx         0023  5  00 00 00 00 00 
 22378)     10149.0  Rx         0021  5  00 00 00 00 00 
 22379)     10149.4  Rx         0022  5  0B 00 6B 24 01 
 22380)     10149.6  Rx         0020  5  0A 00 AD 14 01 
 22381)     10150.0  Rx         0023  5  00 00 00 00 00 
 22382)     10150.2  Rx         0021  5  00 00 00 00 00 
 22383)     10150.6  Rx         0022  5  0B 00 6E 24 03 
 22384)     10150.8  Rx         0020  5  0A 00 AE 14 03 
 22385)     10151.2  Rx         0023  5  00 00 00 00 00 
 22386)     10151.4  Rx         0021  5  00 00 00 00 00 
 22387)     10151.8  Rx         0022  5  0B 00 72 24 01 
 22388)     10152.0  Rx         0020  5  0A 00 AF 14 01 
 22389)     10152.4  Rx         0023  5  00 00 00 00 00 
 22390)     10152.6  Rx         0021  5  00 00 00 00 00 
 22391)     10153.0  Rx         0022  5  0B 00 75 24 03 
 22392)     10153.2  Rx         0020  5  0A 00 B0 14 01 
 22393)     10153.6  Rx         0023  5  00 00 00 00 00 
 22394)     10153.8  Rx         0021  5  00 00 00 00 00 
 22395)     10154.2  Rx         0022  5  0B 00 79 24 01 
 22396)     10154.4  Rx         0020  5  0A 00 B0 14 03 
 22397)     10154.8  Rx         0023  5  00 00 00 00 00 
 22398)     10155.1  Rx         0021  5  00 00 00 00 00 
 22399)     10155.4  Rx         0022  5  0B 00 7D 24 01 
 22400)     10155.7  Rx         0020  5  0A 00 B1 14 03 
 22401)     10156.1  Rx         0023  5  00 00 00 00 00 
 22402)     10156.2  Rx         0021  5  00 00 00 00 00 
 22403)     10156.7  Rx         0022  5  0B 00 80 24 03 
 22404)     10156.8  Rx         0020  5  0A 00 B2 14 03 
 22405)     10157.3  Rx         0023  5  00 00 00 00 00 
 22406)     10157.5  Rx         0021  5  00 00 00 00 00 
 22407)     10159.2  Rx         0020  5  0A 00 B3 14 03 
 22408)     10159.7  Rx         0026  6  82 81 3E 8F D8 04 
 22409)     10159.9  Rx         0021  5  00 00 00 00 00 
 22410)     10160.2  Rx         0022  5  0B 00 8D 24 01 
 22411)     10160.4  Rx         0020  5  0A 00 B3 14 03 
 22412)     10160.7  Rx         0023  5  00 00 00 00 00 
 22413)     10161.0  Rx         0021  5  00 00 00 00 00 
 22414)     10161.4  Rx         0022  5  0B 00 90 24 01 
 22415)     10161.5  Rx         0020  5  0A 00 B3 14 03 
 22416)     10162.0  Rx         0023  5  00 00 00 00 00 
 22417)     10162.2  Rx         0021  5  00 00 00 00 00 
 22418)     10162.6  Rx         0022  5  0B 00 94 24 01 
 22419)     10162.8  Rx         0020  5  0A 00 B4 14 01 
 22420)     10163.2  Rx         0023  5  00 00 00 00 00 
 22421)     10163.4  Rx         0021  5  00 00 00 00 00 
 22422)     10163.8  Rx         0022  5  0B 00 98 24 01 
 22423)     10164.0  Rx         0020  5  0A 00 B4 14 01 
 22424)     10164.4  Rx         0023  5  00 00 00 00 00 
 22425)     10164.6  Rx         0021  5  00 00 00 00 00 
 22426)     10165.0  Rx         0022  5  0B 00 9C 24 01 
 22427)     10165.2  Rx         0020  5  0A 00 B4 14 03 
 22428)     10165.6  Rx         0023  5  00 00 00 00 00 
 22429)     10165.8  Rx         0021  5  00 00 00 00 00 
 22430)     10166.2  Rx         0022  5  0B 00 A0 24 03 
 22431)     10166.4  Rx         0020  5  0A 00 B4 14 03 
 22432)     10166.8  Rx         0023  5  00 00 00 00 00 
 22433)     10167.0  Rx         0021  5  00 00 00 00 00 
 22434)     10167.4  Rx         0022  5  0B 00 A4 24 03 
 22435)     10167.6  Rx         0020  5  0A 00 B4 14 03 
 22436)     10168.1  Rx         0023  5  00 00 00 00 00 
 22437)     10168.2  Rx         0021  5  00 00 00 00 00 
 22438)     10168.7  Rx         0022  5  0B 00 A8 24 03 
 22439)     10168.8  Rx         0020  5  0A 00 B4 14 03 
 22440)     10169.3  Rx         0023  5  00 00 00 00 00 
 22441)     10169.4  Rx         0021  5  00 00 00 00 00 
 22442)     10169.9  Rx         0020  5  0A 00 B4 14 03 
 22443)     10170.5  Rx         0021  5  00 00 00 00 00 
 22444)     10171.0  Rx         0020  5  0A 00 B4 14 03 
 22445)     10171.5  Rx         0021  5  00 00 00 00 00 
 22446)     10171.7  Rx         0026  6  82 81 54 8F FA 04 
 22447)     10172.0  Rx         0020  5  0A 00 B4 14 03 
 22448)     10172.2  Rx         0022  5  0B 00 B5 24 01 
 22449)     10172.5  Rx         0021  5  00 00 00 00 00 
 22450)     10172.7  Rx         0023  5  00 00 00 00 00 
 22451)     10173.0  Rx         0020  5  0A 00 B4 14 03 
 22452)     10173.2  Rx         0022  5  0B 00 B7 24 03 
 22453)     10173.5  Rx         0021  5  00 00 00 00 00 
 22454)     10173.7  Rx         0023  5  00 00 00 00 00 
 22455)     10174.0  Rx         0020  5  0A 00 B4 14 03 
 22456)     10174.2  Rx         0022  5  0B 00 BB 24 03 
 22457)     10174.5  Rx         0021  5  00 00 00 00 00 
 22458)     10174.7  Rx         0023  5  00 00 00 00 00 
 22459)     10175.0  Rx         0020  5  0A 00 B4 14 03 
 22460)     10175.2  Rx         0022  5  0B 00 BF 24 01 
 22461)     10175.5  Rx         0021  5  00 00 00 00 00 
 22462)     10175.7  Rx         0023  5  00 00 00 00 00 
 22463)     10176.1  Rx         0020  5  0A 00 B4 14 03 
 22464)     10176.2  Rx         0022  5  0B 00 C2 24 01 
 22465)     10176.6  Rx         0021  5  00 00 00 00 00 
 22466)     10176.7  Rx         0023  5  00 00 00 00 00 
 22467)     10177.2  Rx         0020  5  0A 00 B4 14 03 
 22468)     10177.4  Rx         0022  5  0B 00 C5 24 01 
 22469)     10177.8  Rx         0021  5  00 00 00 00 00 
 22470)     10178.1  Rx         0023  5  00 00 00 00 00 
 22471)     10178.4  Rx         0020  5  0A 00 B4 14 03 
 22472)     10178.7  Rx         0022  5  0B 00 C9 24 01 
 22473)     10179.0  Rx         0021  5  00 00 00 00 00 
 22474)     10179.3  Rx         0023  5  00 00 00 00 00 
 22475)     10179.6  Rx         0020  5  0A 00 B4 14 01 
 22476)     10179.9  Rx         0022  5  0B 00 CC 24 03 
 22477)     10180.2  Rx         0021  5  00 00 00 00 00 
 22478)     10180.4  Rx         0023  5  00 00 00 00 00 
 22479)     10180.8  Rx         0020  5  0A 00 B4 14 01 
 22480)     10181.0  Rx         0022  5  0B 00 D0 24 03 
 22481)     10181.5  Rx         0021  5  00 00 00 00 00 
 22482)     10181.6  Rx         0023  5  00 00 00 00 00 
 22483)     10182.1  Rx         0020  5  0A 00 B4 14 01 
 22484)     10183.8  Rx         0021  5  00 00 00 00 00 
 22485)     10184.2  Rx         0026  6  99 81 76 8F 11 05 
 22486)     10184.3  Rx         0020  5  0A 00 B3 14 01 
 22487)     10184.8  Rx         0022  5  0B 00 DA 24 03 
 22488)     10185.0  Rx         0021  5  00 00 00 00 00 
 22489)     10185.4  Rx         0023  5  00 00 00 00 00 
 22490)     10185.6  Rx         0020  5  0A 00 B3 14 01 
 22491)     10186.0  Rx         0022  5  0B 00 DE 24 03 
 22492)     10186.2  Rx         0021  5  00 00 00 00 00 
 22493)     10186.6  Rx         0023  5  00 00 00 00 00 
 22494)     10186.8  Rx         0020  5  0A 00 B3 14 01 
 22495)     10187.2  Rx         0022  5  0B 00 E1 24 03 
 22496)     10187.4  Rx         0021  5  00 00 00 00 00 
 22497)     10187.8  Rx         0023  5  00 00 00 00 00 
 22498)     10188.0  Rx         0020  5  0A 00 B3 14 01 
 22499)     10188.4  Rx         0022  5  0B 00 E5 24 01 
 22500)     10188.6  Rx         0021  5  00 00 00 00 00 
 22501)     10189.0  Rx         0023  5  00 00 00 00 00 
 22502)     10189.2  Rx         0020  5  0A 00 B3 14 01 
 22503)     10189.6  Rx         0022  5  0B 00 E8 24 01 
 22504)     10189.8  Rx         0021  5  00 00 00 00 00 
 22505)     10190.2  Rx         0023  5  00 00 00 00 00 
 22506)     10190.4  Rx         0020  5  0A 00 B3 14 01 
 22507)     10190.8  Rx         0022  5  0B 00 EB 24 03 
 22508)     10191.0  Rx         0021  5  00 00 00 00 00 
 22509)     10191.4  Rx         0023  5  00 00 00 00 00 
 22510)     10191.6  Rx         0020  5  0A 00 B3 14 01 
 22511)     10192.0  Rx         0022  5  0B 00 EE 24 03 
 22512)     10192.2  Rx         0021  5  00 00 00 00 00 
 22513)     10192.6  Rx         0023  5  00 00 00 00 00 
 22514)     10192.8  Rx         0020  5  0A 00 B3 14 01 
 22515)     10193.5  Rx         0021  5  00 00 00 00 00 
 22516)     10195.8  Rx         0021  5  00 00 00 00 00 
 22517)     10196.0  Rx         0023  5  00 00 00 00 00 
 22518)     10196.3  Rx         0020  5  0A 00 B3 14 01 
 22519)     10196.5  Rx         0022  5  0B 00 F9 24 03 
 22520)     10196.8  Rx         0021  5  00 00 00 00 00 
 22521)     10197.0  Rx         0023  5  00 00 00 00 00 
 22522)     10197.3  Rx         0020  5  0A 00 B3 14 01 
 22523)     10197.5  Rx         0022  5  0B 00 FC 24 01 
 22524)     10197.9  Rx         0021  5  00 00 00 00 00 
 22525)     10198.1  Rx         0023  5  00 00 00 00 00 
 22526)     10198.5  Rx         0020  5  0A 00 B3 14 01 
 22527)     10198.7  Rx         0022  5  0B 00 FE 24 01 
 22528)     10199.1  Rx         0021  5  00 00 00 00 00 
 22529)     10199.3  Rx         0023  5  00 00 00 00 00 
 22530)     10199.7  Rx         0020  5  0A 00 B3 14 01 
 22531)     10199.9  Rx         0022  5  0B 00 01 25 01 
 22532)     10200.3  Rx         0021  5  00 00 00 00 00 
 22533)     10200.5  Rx         0023  5  00 00 00 00 00 
 22534)     10200.9  Rx         0020  5  0A 00 B3 14 01 
 22535)     10201.1  Rx         0022  5  0B 00 04 25 01 
 22536)     10201.4  Rx         0021  5  00 00 00 00 00 
 22537)     10201.6  Rx         0023  5  00 00 00 00 00 
 22538)     10202.0  Rx         0020  5  0A 00 B3 14 01 
 22539)     10202.1  Rx         0022  5  0B 00 06 25 03 
 22540)     10202.5  Rx         0021  5  00 00 00 00 00 
 22541)     10202.7  Rx         0023  5  00 00 00 00 00 
 22542)     10203.0  Rx         0020  5  0A 00 B3 14 01 
 22543)     10203.2  Rx         0022  5  0B 00 09 25 01 
 22544)     10203.5  Rx         0021  5  00 00 00 00 00 
 22545)     10203.7  Rx         0023  5  00 00 00 00 00 
 22546)     10204.0  Rx         0020  5  0A 00 B3 14 01 
 22547)     10204.5  Rx         0021  5  00 00 00 00 00 
 22548)     10205.0  Rx         0020  5  0A 00 B3 14 01 
 22549)     10205.3  Rx         0026  6  E8 81 60 8F 05 05 
 22550)     10205.5  Rx         0021  5  00 00 00 00 00 
 22551)     10205.8  Rx         0022  5  0B 00 0F 25 01 
 22552)     10206.1  Rx         0020  5  0A 00 B3 14 03 
 22553)     10206.3  Rx         0023  5  00 00 00 00 00 
 22554)     10206.6  Rx         0021  5  00 00 00 00 00 
 22555)     10206.7  Rx         0022  5  0B 00 12 25 01 
 22556)     10207.1  Rx         0020  5  0A 00 B4 14 01 
 22557)     10207.3  Rx         0023  5  00 00 00 00 00 
 22558)     10207.6  Rx         0021  5  00 00 00 00 00 
 22559)     10207.8  Rx         0022  5  0B 00 14 25 01 
 22560)     10208.1  Rx         0020  5  0A 00 B4 14 01 
 22561)     10208.3  Rx         0023  5  00 00 00 00 00 
 22562)     10208.7  Rx         0021  5  00 00 00 00 00 
 22563)     10209.0  Rx         0022  5  0B 00 16 25 03 
 22564)     10209.4  Rx         0020  5  0A 00 B5 14 01 
 22565)     10209.6  Rx         0023  5  00 00 00 00 00 
 22566)     10210.0  Rx         0021  5  00 00 00 00 00 
 22567)     10210.2  Rx         0022  5  0B 00 19 25 03 
 22568)     10210.6  Rx         0020  5  0A 00 B5 14 01 
 22569)     10210.8  Rx         0023  5  00 00 00 00 00 
 22570)     10211.2  Rx         0021  5  00 00 00 00 00 
 22571)     10211.4  Rx         0022  5  0B 00 1D 25 01 
 22572)     10211.8  Rx         0020  5  0A 00 B5 14 01 
 22573)     10211.9  Rx         0023  5  00 00 00 00 00 
 22574)     10212.4  Rx         0021  5  00 00 00 00 00 
 22575)     10212.6  Rx         0022  5  0B 00 1F 25 03 
 22576)     10213.0  Rx         0020  5  0A 00 B5 14 03 
 22577)     10213.2  Rx         0023  5  00 00 00 00 00 
 22578)     10213.6  Rx         0021  5  00 00 00 00 00 
 22579)     10213.8  Rx         0022  5  0B 00 22 25 03 
 22580)     10214.2  Rx         0020  5  0A 00 B6 14 03 
 22581)     10214.4  Rx         0023  5  00 00 00 00 00 
 22582)     10214.8  Rx         0021  5  00 00 00 00 00 
 22583)     10217.1  Rx         0021  5  00 00 00 00 00 
 22584)     10217.3  Rx         0023  5  00 00 00 00 00 
 22585)     10217.6  Rx         0020  5  0A 00 B8 14 01 
 22586)     10217.8  Rx         0022  5  0B 00 2D 25 03 
 22587)     10218.1  Rx         0021  5  00 00 00 00 00 
 22588)     10218.3  Rx         0023  5  00 00 00 00 00 
 22589)     10218.7  Rx         0020  5  0A 00 B8 14 03 
 22590)     10218.9  Rx         0022  5  0B 00 2F 25 03 
 22591)     10219.3  Rx         0021  5  00 00 00 00 00 
 22592)     10219.5  Rx         0023  5  00 00 00 00 00 
 22593)     10219.9  Rx         0020  5  0A 00 B9 14 01 
 22594)     10220.1  Rx         0022  5  0B 00 32 25 03 
 22595)     10220.5  Rx         0021  5  00 00 00 00 00 
 22596)     10220.7  Rx         0023  5  00 00 00 00 00 
 22597)     10221.1  Rx         0020  5  0A 00 B9 14 03 
 22598)     10221.3  Rx         0022  5  0B 00 35 25 03 
 22599)     10221.7  Rx         0021  5  00 00 00 00 00 
 22600)     10221.9  Rx         0023  5  00 00 00 00 00 
 22601)     10222.3  Rx         0020  5  0A 00 BA 14 03 
 22602)     10222.5  Rx         0022  5  0B 00 39 25 01 
 22603)     10222.9  Rx         0021  5  00 00 00 00 00 
 22604)     10223.1  Rx         0023  5  00 00 00 00 00 
 22605)     10223.6  Rx         0020  5  0A 00 BA 14 03 
 22606)     10223.7  Rx         0022  5  0B 00 3C 25 01 
 22607)     10224.2  Rx         0021  5  00 00 00 00 00 
 22608)     10224.4  Rx         0023  5  00 00 00 00 00 
 22609)     10224.8  Rx         0020  5  0A 00 BB 14 03 
 22610)     10225.0  Rx         0022  5  0B 00 3F 25 01 
 22611)     10225.4  Rx         0021  5  00 00 00 00 00 
 22612)     10225.6  Rx         0023  5  00 00 00 00 00 
 22613)     10226.0  Rx         0020  5  0A 00 BC 14 03 
 22614)     10227.7  Rx         0021  5  00 00 00 00 00 
 22615)     10227.9  Rx         0022  5  0B 00 46 25 03 
 22616)     10228.2  Rx         0020  5  0A 00 BD 14 03 
 22617)     10228.4  Rx         0023  5  00 00 00 00 00 
 22618)     10228.7  Rx         0021  5  00 00 00 00 00 
 22619)     10228.9  Rx         0022  5  0B 00 49 25 03 
 22620)     10229.3  Rx         0020  5  0A 00 BE 14 01 
 22621)     10229.5  Rx         0023  5  00 00 00 00 00 
 22622)     10230.0  Rx         0021  5  00 00 00 00 00 
 22623)     10230.1  Rx         0022  5  0B 00 4C 25 01 
 22624)     10230.6  Rx         0020  5  0A 00 BE 14 03 
 22625)     10230.7  Rx         0023  5  00 00 00 00 00 
 22626)     10231.2  Rx         0021  5  00 00 00 00 00 
 22627)     10231.3  Rx         0022  5  0B 00 4F 25 03 
 22628)     10231.8  Rx         0020  5  0A 00 BF 14 01 
 22629)     10232.0  Rx         0023  5  00 00 00 00 00 
 22630)     10232.4  Rx         0021  5  00 00 00 00 00 
 22631)     10232.6  Rx         0022  5  0B 00 52 25 01 
 22632)     10232.9  Rx         0020  5  0A 00 C0 14 01 
 22633)     10233.2  Rx         0023  5  00 00 00 00 00 
 22634)     10233.5  Rx         0021  5  00 00 00 00 00 
 22635)     10233.7  Rx         0022  5  0B 00 55 25 01 
 22636)     10234.0  Rx         0020  5  0A 00 C1 14 01 
 22637)     10234.1  Rx         0023  5  00 00 00 00 00 
 22638)     10234.5  Rx         0021  5  00 00 00 00 00 
 22639)     10234.7  Rx         0022  5  0B 00 57 25 03 
 22640)     10235.0  Rx         0020  5  0A 00 C1 14 01 
 22641)     10235.2  Rx         0023  5  00 00 00 00 00 
 22642)     10235.5  Rx         0021  5  00 00 00 00 00 
 22643)     10235.7  Rx         0022  5  0B 00 59 25 03 
 22644)     10236.0  Rx         0020  5  0A 00 C2 14 01 
 22645)     10236.2  Rx         0023  5  00 00 00 00 00 
 22646)     10236.5  Rx         0021  5  00 00 00 00 00 
 22647)     10237.0  Rx         0020  5  0A 00 C2 14 03 
 22648)     10237.5  Rx         0021  5  00 00 00 00 00 
 22649)     10238.0  Rx         0020  5  0A 00 C3 14 03 
 22650)     10238.3  Rx         0026  6  2D 82 EE 8E 55 05 
 22651)     10238.5  Rx         0021  5  00 00 00 00 00 
 22652)     10238.8  Rx         0022  5  0B 00 60 25 01 
 22653)     10239.1  Rx         0020  5  0A 00 C3 14 03 
 22654)     10239.2  Rx         0023  5  00 00 00 00 00 
 22655)     10239.6  Rx         0021  5  00 00 00 00 00 
 22656)     10239.7  Rx         0022  5  0B 00 62 25 01 
 22657)     10240.1  Rx         0020  5  0A 00 C4 14 03 
 22658)     10240.2  Rx         0023  5  00 00 00 00 00 
 22659)     10240.7  Rx         0021  5  00 00 00 00 00 
 22660)     10240.9  Rx         0022  5  0B 00 64 25 01 
 22661)     10241.3  Rx         0020  5  0A 00 C5 14 01 
 22662)     10241.5  Rx         0023  5  00 00 00 00 00 
 22663)     10241.9  Rx         0021  5  00 00 00 00 00 
 22664)     10242.1  Rx         0022  5  0B 00 66 25 03 
 22665)     10242.5  Rx         0020  5  0A 00 C5 14 03 
 22666)     10242.7  Rx         0023  5  00 00 00 00 00 
 22667)     10243.1  Rx         0021  5  00 00 00 00 00 
 22668)     10243.3  Rx         0022  5  0B 00 69 25 01 
 22669)     10243.7  Rx         0020  5  0A 00 C6 14 01 
 22670)     10243.9  Rx         0023  5  00 00 00 00 00 
 22671)     10244.3  Rx         0021  5  00 00 00 00 00 
 22672)     10244.6  Rx         0022  5  0B 00 6B 25 01 
 22673)     10244.9  Rx         0020  5  0A 00 C6 14 03 
 22674)     10245.2  Rx         0023  5  00 00 00 00 00 
 22675)     10245.6  Rx         0021  5  00 00 00 00 00 
 22676)     10245.8  Rx         0022  5  0B 00 6D 25 03 
 22677)     10246.2  Rx         0020  5  0A 00 C7 14 01 
 22678)     10246.3  Rx         0023  5  00 00 00 00 00 
 22679)     10246.8  Rx         0021  5  00 00 00 00 00 
 22680)     10247.0  Rx         0022  5  0B 00 6F 25 03 
 22681)     10247.4  Rx         0020  5  0A 00 C8 14 01 
 22682)     10247.6  Rx         0023  5  00 00 00 00 00 
 22683)     10248.0  Rx         0021  5  00 00 00 00 00 
 22684)     10249.8  Rx         0020  5  0A 00 C9 14 03 
 22685)     10250.1  Rx         0026  6  43 82 EE 8E 77 05 
 22686)     10250.3  Rx         0021  5  00 00 00 00 00 
 22687)     10250.5  Rx         0022  5  0B 00 76 25 01 
 22688)     10250.7  Rx         0020  5  0A 00 CA 14 01 
 22689)     10251.0  Rx         0023  5  00 00 00 00 00 
 22690)     10251.3  Rx         0021  5  00 00 00 00 00 
 22691)     10251.7  Rx         0022  5  0B 00 77 25 03 
 22692)     10251.9  Rx         0020  5  0A 00 CA 14 03 
 22693)     10252.3  Rx         0023  5  00 00 00 00 00 
 22694)     10252.5  Rx         0021  5  00 00 00 00 00 
 22695)     10252.9  Rx         0022  5  0B 00 79 25 01 
 22696)     10253.1  Rx         0020  5  0A 00 CB 14 01 
 22697)     10253.5  Rx         0023  5  00 00 00 00 00 
 22698)     10253.6  Rx         0021  5  00 00 00 00 00 
 22699)     10254.1  Rx         0022  5  0B 00 7B 25 01 
 22700)     10254.2  Rx         0020  5  0A 00 CC 14 01 
 22701)     10254.7  Rx         0023  5  00 00 00 00 00 
 22702)     10254.8  Rx         0021  5  00 00 00 00 00 
 22703)     10255.3  Rx         0022  5  0B 00 7C 25 03 
 22704)     10255.5  Rx         0020  5  0A 00 CC 14 03 
 22705)     10255.9  Rx         0023  5  00 00 00 00 00 
 22706)     10256.1  Rx         0021  5  00 00 00 00 00 
 22707)     10256.5  Rx         0022  5  0B 00 7E 25 01 
 22708)     10256.7  Rx         0020  5  0A 00 CD 14 01 
 22709)     10257.1  Rx         0023  5  00 00 00 00 00 
 22710)     10257.3  Rx         0021  5  00 00 00 00 00 
 22711)     10257.7  Rx         0022  5  0B 00 80 25 01 
 22712)     10257.9  Rx         0020  5  0A 00 CD 14 03 
 22713)     10258.3  Rx         0023  5  00 00 00 00 00 
 22714)     10258.5  Rx         0021  5  00 00 00 00 00 
 22715)     10260.3  Rx         0020  5  0A 00 CF 14 01 
 22716)     10260.8  Rx         0021  5  00 00 00 00 00 
 22717)     10260.9  Rx         0026  6  71 82 E2 8E 99 05 
 22718)     10261.2  Rx         0020  5  0A 00 CF 14 03 
 22719)     10261.5  Rx         0022  5  0B 00 84 25 01 
 22720)     10261.9  Rx         0021  5  00 00 00 00 00 
 22721)     10262.1  Rx         0023  5  00 00 00 00 00 
 22722)     10262.5  Rx         0020  5  0A 00 D0 14 03 
 22723)     10262.7  Rx         0022  5  0B 00 85 25 01 
 22724)     10263.1  Rx         0021  5  00 00 00 00 00 
 22725)     10263.3  Rx         0023  5  00 00 00 00 00 
 22726)     10263.7  Rx         0020  5  0A 00 D1 14 01 
 22727)     10263.9  Rx         0022  5  0B 00 86 25 01 
 22728)     10264.3  Rx         0021  5  00 00 00 00 00 
 22729)     10264.5  Rx         0023  5  00 00 00 00 00 
 22730)     10264.9  Rx         0020  5  0A 00 D2 14 01 
 22731)     10265.1  Rx         0022  5  0B 00 87 25 01 
 22732)     10265.4  Rx         0021  5  00 00 00 00 00 
 22733)     10265.6  Rx         0023  5  00 00 00 00 00 
 22734)     10265.9  Rx         0020  5  0A 00 D2 14 01 
 22735)     10266.1  Rx         0022  5  0B 00 87 25 03 
 22736)     10266.5  Rx         0021  5  00 00 00 00 00 
 22737)     10266.6  Rx         0023  5  00 00 00 00 00 
 22738)     10267.0  Rx         0020  5  0A 00 D3 14 03 
 22739)     10267.1  Rx         0022  5  0B 00 88 25 03 
 22740)     10267.5  Rx         0021  5  00 00 00 00 00 
 22741)     10267.6  Rx         0023  5  00 00 00 00 00 
 22742)     10267.9  Rx         0020  5  0A 00 D3 14 03 
 22743)     10268.2  Rx         0022  5  0B 00 89 25 01 
 22744)     10268.5  Rx         0021  5  00 00 00 00 00 
 22745)     10268.7  Rx         0023  5  00 00 00 00 00 
 22746)     10269.0  Rx         0020  5  0A 00 D4 14 01 
 22747)     10269.1  Rx         0022  5  0B 00 89 25 03 
 22748)     10269.5  Rx         0021  5  00 00 00 00 00 
 22749)     10269.7  Rx         0023  5  00 00 00 00 00 
 22750)     10270.0  Rx         0020  5  0A 00 D4 14 03 
 22751)     10270.5  Rx         0021  5  00 00 00 00 00 
 22752)     10271.0  Rx         0020  5  0A 00 D5 14 03 
 22753)     10271.5  Rx         0021  5  00 00 00 00 00 
 22754)     10272.1  Rx         0020  5  0A 00 D6 14 01 
 22755)     10272.3  Rx         0026  6  93 82 E2 8E BB 05 
 22756)     10272.7  Rx         0021  5  00 00 00 00 00 
 22757)     10272.9  Rx         0022  5  0B 00 8A 25 03 
 22758)     10273.3  Rx         0020  5  0A 00 D6 14 03 
 22759)     10273.5  Rx         0023  5  00 00 00 00 00 
 22760)     10274.0  Rx         0021  5  00 00 00 00 00 
 22761)     10274.1  Rx         0022  5  0B 00 8B 25 01 
 22762)     10274.6  Rx         0020  5  0A 00 D7 14 03 
 22763)     10274.7  Rx         0023  5  00 00 00 00 00 
 22764)     10275.2  Rx         0021  5  00 00 00 00 00 
 22765)     10275.4  Rx         0022  5  0B 00 8B 25 03 
 22766)     10275.8  Rx         0020  5  0A 00 D8 14 01 
 22767)     10276.0  Rx         0023  5  00 00 00 00 00 
 22768)     10276.4  Rx         0021  5  00 00 00 00 00 
 22769)     10276.6  Rx         0022  5  0B 00 8B 25 03 
 22770)     10277.0  Rx         0020  5  0A 00 D9 14 01 
 22771)     10277.2  Rx         0023  5  00 00 00 00 00 
 22772)     10277.6  Rx         0021  5  00 00 00 00 00 
 22773)     10277.8  Rx         0022  5  0B 00 8B 25 03 
 22774)     10278.2  Rx         0020  5  0A 00 D9 14 03 
 22775)     10278.4  Rx         0023  5  00 00 00 00 00 
 22776)     10278.8  Rx         0021  5  00 00 00 00 00 
 22777)     10279.0  Rx         0022  5  0B 00 8B 25 03 
 22778)     10279.4  Rx         0020  5  0A 00 DA 14 01 
 22779)     10279.6  Rx         0023  5  00 00 00 00 00 
 22780)     10280.0  Rx         0021  5  00 00 00 00 00 
 22781)     10281.8  Rx         0020  5  0A 00 DB 14 03 
 22782)     10282.2  Rx         0026  6  C0 82 E2 8E D2 05 
 22783)     10282.3  Rx         0021  5  00 00 00 00 00 
 22784)     10282.8  Rx         0022  5  0B 00 8B 25 03 
 22785)     10282.9  Rx         0020  5  0A 00 DC 14 01 
 22786)     10283.4  Rx         0023  5  00 00 00 00 00 
 22787)     10283.5  Rx         0021  5  00 00 00 00 00 
 22788)     10284.0  Rx         0022  5  0B 00 8B 25 03 
 22789)     10284.1  Rx         0020  5  0A 00 DD 14 01 
 22790)     10284.6  Rx         0023  5  00 00 00 00 00 
 22791)     10284.7  Rx         0021  5  00 00 00 00 00 
 22792)     10285.1  Rx         0022  5  0B 00 8B 25 03 
 22793)     10285.3  Rx         0020  5  0A 00 DD 14 03 
 22794)     10285.7  Rx         0023  5  00 00 00 00 00 
 22795)     10285.9  Rx         0021  5  00 00 00 00 00 
 22796)     10286.3  Rx         0022  5  0B 00 8B 25 03 
 22797)     10286.5  Rx         0020  5  0A 00 DE 14 01 
 22798)     10286.9  Rx         0023  5  00 00 00 00 00 
 22799)     10287.2  Rx         0021  5  00 00 00 00 00 
 22800)     10287.6  Rx         0022  5  0B 00 8B 25 03 
 22801)     10287.8  Rx         0020  5  0A 00 DE 14 03 
 22802)     10288.2  Rx         0023  5  00 00 00 00 00 
 22803)     10288.3  Rx         0021  5  00 00 00 00 00 
 22804)     10288.8  Rx         0022  5  0B 00 8B 25 01 
 22805)     10289.0  Rx         0020  5  0A 00 E0 14 01 
 22806)     10289.4  Rx         0023  5  00 00 00 00 00 
 22807)     10289.6  Rx         0021  5  00 00 00 00 00 
 22808)     10290.0  Rx         0022  5  0B 00 8A 25 03 
 22809)     10290.2  Rx         0020  5  0A 00 E0 14 03 
 22810)     10290.6  Rx         0023  5  00 00 00 00 00 
 22811)     10290.8  Rx         0021  5  00 00 00 00 00 
 22812)     10291.2  Rx         0022  5  0B 00 8A 25 01 
 22813)     10291.4  Rx         0020  5  0A 00 E1 14 01 
 22814)     10291.8  Rx         0023  5  00 00 00 00 00 
 22815)     10292.0  Rx         0021  5  00 00 00 00 00 
 22816)     10294.2  Rx         0026  6  F9 82 CC 8E F4 05 
 22817)     10294.4  Rx         0021  5  00 00 00 00 00 
 22818)     10294.7  Rx         0022  5  0B 00 88 25 03 
 22819)     10294.9  Rx         0020  5  0A 00 E3 14 01 
 22820)     10295.2  Rx         0023  5  00 00 00 00 00 
 22821)     10295.6  Rx         0021  5  00 00 00 00 00 
 22822)     10295.8  Rx         0022  5  0B 00 88 25 01 
 22823)     10296.1  Rx         0020  5  0A 00 E3 14 03 
 22824)     10296.3  Rx         0023  5  00 00 00 00 00 
 22825)     10296.6  Rx         0021  5  00 00 00 00 00 
 22826)     10296.8  Rx         0022  5  0B 00 87 25 01 
 22827)     10297.1  Rx         0020  5  0A 00 E4 14 03 
 22828)     10297.3  Rx         0023  5  00 00 00 00 00 
 22829)     10297.6  Rx         0021  5  00 00 00 00 00 
 22830)     10297.8  Rx         0022  5  0B 00 86 25 03 
 22831)     10298.1  Rx         0020  5  0A 00 E5 14 01 
 22832)     10298.3  Rx         0023  5  00 00 00 00 00 
 22833)     10298.6  Rx         0021  5  00 00 00 00 00 
 22834)     10298.8  Rx         0022  5  0B 00 86 25 03 
 22835)     10299.1  Rx         0020  5  0A 00 E5 14 03 
 22836)     10299.4  Rx         0023  5  00 00 00 00 00 
 22837)     10299.7  Rx         0021  5  00 00 00 00 00 
 22838)     10299.8  Rx         0022  5  0B 00 85 25 03 
 22839)     10300.2  Rx         0020  5  0A 00 E6 14 03 
 22840)     10300.3  Rx         0023  5  00 00 00 00 00 
 22841)     10300.7  Rx         0021  5  00 00 00 00 00 
 22842)     10300.9  Rx         0022  5  0B 00 84 25 03 
 22843)     10301.2  Rx         0020  5  0A 00 E7 14 01 
 22844)     10301.4  Rx         0023  5  00 00 00 00 00 
 22845)     10301.7  Rx         0021  5  00 00 00 00 00 
 22846)     10301.9  Rx         0022  5  0B 00 84 25 03 
 22847)     10302.2  Rx         0020  5  0A 00 E7 14 03 
 22848)     10302.4  Rx         0023  5  00 00 00 00 00 
 22849)     10302.7  Rx         0021  5  00 00 00 00 00 
 22850)     10302.9  Rx         0022  5  0B 00 83 25 03 
 22851)     10303.2  Rx         0020  5  0A 00 E8 14 01 
 22852)     10303.4  Rx         0023  5  00 00 00 00 00 
 22853)     10303.7  Rx         0021  5  00 00 00 00 00 
 22854)     10304.3  Rx         0020  5  0A 00 E9 14 01 
 22855)     10304.9  Rx         0021  5  00 00 00 00 00 
 22856)     10305.1  Rx         0026  6  82 83 AA 8E 16 06 
 22857)     10305.5  Rx         0020  5  0A 00 E9 14 03 
 22858)     10305.7  Rx         0022  5  0B 00 82 25 01 
 22859)     10306.1  Rx         0021  5  00 00 00 00 00 
 22860)     10306.3  Rx         0023  5  00 00 00 00 00 
 22861)     10306.7  Rx         0020  5  0A 00 EA 14 03 
 22862)     10306.9  Rx         0022  5  0B 00 81 25 03 
 22863)     10307.3  Rx         0021  5  00 00 00 00 00 
 22864)     10307.5  Rx         0023  5  00 00 00 00 00 
 22865)     10307.9  Rx         0020  5  0A 00 EB 14 01 
 22866)     10308.1  Rx         0022  5  0B 00 81 25 01 
 22867)     10308.5  Rx         0021  5  00 00 00 00 00 
 22868)     10308.7  Rx         0023  5  00 00 00 00 00 
 22869)     10309.1  Rx         0020  5  0A 00 EC 14 01 
 22870)     10309.3  Rx         0022  5  0B 00 80 25 01 
 22871)     10309.7  Rx         0021  5  00 00 00 00 00 
 22872)     10309.9  Rx         0023  5  00 00 00 00 00 
 22873)     10310.3  Rx         0020  5  0A 00 EC 14 03 
 22874)     10310.5  Rx         0022  5  0B 00 7F 25 01 
 22875)     10310.9  Rx         0021  5  00 00 00 00 00 
 22876)     10311.1  Rx         0023  5  00 00 00 00 00 
 22877)     10311.5  Rx         0020  5  0A 00 ED 14 01 
 22878)     10311.7  Rx         0022  5  0B 00 7E 25 01 
 22879)     10312.1  Rx         0021  5  00 00 00 00 00 
 22880)     10312.3  Rx         0023  5  00 00 00 00 00 
 22881)     10312.7  Rx         0020  5  0A 00 EE 14 01 
 22882)     10312.9  Rx         0022  5  0B 00 7E 25 01 
 22883)     10313.3  Rx         0021  5  00 00 00 00 00 
 22884)     10313.5  Rx         0023  5  00 00 00 00 00 
 22885)     10313.9  Rx         0020  5  0A 00 EF 14 01 
 22886)     10314.1  Rx         0022  5  0B 00 7D 25 03 
 22887)     10314.5  Rx         0021  5  00 00 00 00 00 
 22888)     10314.7  Rx         0023  5  00 00 00 00 00 
 22889)     10315.1  Rx         0020  5  0A 00 EF 14 03 
 22890)     10317.5  Rx         0020  5  0A 00 F1 14 01 
 22891)     10317.6  Rx         0023  5  00 00 00 00 00 
 22892)     10318.0  Rx         0021  5  00 00 00 00 00 
 22893)     10318.1  Rx         0022  5  0B 00 7A 25 03 
 22894)     10318.5  Rx         0020  5  0A 00 F2 14 01 
 22895)     10318.7  Rx         0023  5  00 00 00 00 00 
 22896)     10319.1  Rx         0021  5  00 00 00 00 00 
 22897)     10319.3  Rx         0022  5  0B 00 7A 25 01 
 22898)     10319.7  Rx         0020  5  0A 00 F3 14 01 
 22899)     10319.8  Rx         0023  5  00 00 00 00 00 
 22900)     10320.3  Rx         0021  5  00 00 00 00 00 
 22901)     10320.5  Rx         0022  5  0B 00 79 25 03 
 22902)     10320.9  Rx         0020  5  0A 00 F4 14 01 
 22903)     10321.1  Rx         0023  5  00 00 00 00 00 
 22904)     10321.5  Rx         0021  5  00 00 00 00 00 
 22905)     10321.7  Rx         0022  5  0B 00 79 25 01 
 22906)     10322.1  Rx         0020  5  0A 00 F5 14 01 
 22907)     10322.3  Rx         0023  5  00 00 00 00 00 
 22908)     10322.7  Rx         0021  5  00 00 00 00 00 
 22909)     10322.9  Rx         0022  5  0B 00 78 25 03 
 22910)     10323.3  Rx         0020  5  0A 00 F5 14 03 
 22911)     10323.5  Rx         0023  5  00 00 00 00 00 
 22912)     10323.9  Rx         0021  5  00 00 00 00 00 
 22913)     10324.1  Rx         0022  5  0B 00 78 25 01 
 22914)     10324.5  Rx         0020  5  0A 00 F6 14 03 
 22915)     10324.7  Rx         0023  5  00 00 00 00 00 
 22916)     10325.1  Rx         0021  5  00 00 00 00 00 
 22917)     10325.6  Rx         0020  5  0A 00 F7 14 03 
 22918)     10326.1  Rx         0021  5  00 00 00 00 00 
 22919)     10326.3  Rx         0026  6  E8 83 2C 8E AA 06 
 22920)     10326.6  Rx         0020  5  0A 00 F8 14 03 
 22921)     10326.8  Rx         0022  5  0B 00 77 25 01 
 22922)     10327.1  Rx         0021  5  00 00 00 00 00 
 22923)     10327.3  Rx         0023  5  00 00 00 00 00 
 22924)     10327.6  Rx         0020  5  0A 00 FA 14 01 
 22925)     10327.8  Rx         0022  5  0B 00 76 25 03 
 22926)     10328.1  Rx         0021  5  00 00 00 00 00 
 22927)     10328.3  Rx         0023  5  00 00 00 00 00 
 22928)     10328.6  Rx         0020  5  0A 00 FA 14 03 
 22929)     10328.8  Rx         0022  5  0B 00 76 25 01 
 22930)     10329.2  Rx         0021  5  00 00 00 00 00 
 22931)     10329.4  Rx         0023  5  00 00 00 00 00 
 22932)     10329.7  Rx         0020  5  0A 00 FB 14 01 
 22933)     10329.8  Rx         0022  5  0B 00 76 25 01 
 22934)     10330.2  Rx         0021  5  00 00 00 00 00 
 22935)     10330.3  Rx         0023  5  00 00 00 00 00 
 22936)     10330.7  Rx         0020  5  0A 00 FC 14 01 
 22937)     10330.9  Rx         0022  5  0B 00 75 25 03 
 22938)     10331.2  Rx         0021  5  00 00 00 00 00 
 22939)     10331.4  Rx         0023  5  00 00 00 00 00 
 22940)     10331.7  Rx         0020  5  0A 00 FD 14 03 
 22941)     10331.9  Rx         0022  5  0B 00 75 25 03 
 22942)     10332.2  Rx         0021  5  00 00 00 00 00 
 22943)     10332.4  Rx         0023  5  00 00 00 00 00 
 22944)     10332.7  Rx         0020  5  0A 00 FE 14 01 
 22945)     10332.9  Rx         0022  5  0B 00 75 25 01 
 22946)     10333.2  Rx         0021  5  00 00 00 00 00 
 22947)     10333.4  Rx         0023  5  00 00 00 00 00 
 22948)     10333.9  Rx         0020  5  0A 00 FF 14 01 
 22949)     10334.1  Rx         0022  5  0B 00 74 25 03 
 22950)     10334.5  Rx         0021  5  00 00 00 00 00 
 22951)     10334.7  Rx         0023  5  00 00 00 00 00 
 22952)     10335.1  Rx         0020  5  0A 00 00 15 03 
 22953)     10335.3  Rx         0022  5  0B 00 74 25 03 
 22954)     10335.7  Rx         0021  5  00 00 00 00 00 
 22955)     10335.9  Rx         0023  5  00 00 00 00 00 
 22956)     10336.3  Rx         0020  5  0A 00 01 15 03 
 22957)     10338.1  Rx         0026  6  16 84 DD 8D FA 06 
 22958)     10338.2  Rx         0021  5  00 00 00 00 00 
 22959)     10338.5  Rx         0022  5  0B 00 74 25 01 
 22960)     10338.8  Rx         0020  5  0A 00 04 15 01 
 22961)     10339.0  Rx         0023  5  00 00 00 00 00 
 22962)     10339.3  Rx         0021  5  00 00 00 00 00 
 22963)     10339.5  Rx         0022  5  0B 00 74 25 01 
 22964)     10339.8  Rx         0020  5  0A 00 05 15 01 
 22965)     10340.0  Rx         0023  5  00 00 00 00 00 
 22966)     10340.4  Rx         0021  5  00 00 00 00 00 
 22967)     10340.6  Rx         0022  5  0B 00 74 25 01 
 22968)     10341.0  Rx         0020  5  0A 00 06 15 03 
 22969)     10341.2  Rx         0023  5  00 00 00 00 00 
 22970)     10341.6  Rx         0021  5  00 00 00 00 00 
 22971)     10341.8  Rx         0022  5  0B 00 74 25 01 
 22972)     10342.2  Rx         0020  5  0A 00 07 15 03 
 22973)     10342.4  Rx         0023  5  00 00 00 00 00 
 22974)     10342.8  Rx         0021  5  00 00 00 00 00 
 22975)     10343.0  Rx         0022  5  0B 00 74 25 01 
 22976)     10343.4  Rx         0020  5  0A 00 08 15 03 
 22977)     10343.6  Rx         0023  5  00 00 00 00 00 
 22978)     10344.0  Rx         0021  5  00 00 00 00 00 
 22979)     10344.2  Rx         0022  5  0B 00 73 25 03 
 22980)     10344.6  Rx         0020  5  0A 00 0A 15 01 
 22981)     10344.8  Rx         0023  5  00 00 00 00 00 
 22982)     10345.2  Rx         0021  5  00 00 00 00 00 
 22983)     10345.4  Rx         0022  5  0B 00 73 25 03 
 22984)     10345.8  Rx         0020  5  0A 00 0B 15 01 
 22985)     10346.0  Rx         0023  5  00 00 00 00 00 
 22986)     10346.5  Rx         0021  5  00 00 00 00 00 
 22987)     10346.7  Rx         0022  5  0B 00 73 25 03 
 22988)     10347.1  Rx         0020  5  0A 00 0C 15 01 
 22989)     10347.3  Rx         0023  5  00 00 00 00 00 
 22990)     10347.7  Rx         0021  5  00 00 00 00 00 
 22991)     10349.4  Rx         0020  5  0A 00 0F 15 01 
 22992)     10349.7  Rx         0026  6  43 84 8D 8D 55 07 
 22993)     10349.9  Rx         0021  5  00 00 00 00 00 
 22994)     10350.2  Rx         0022  5  0B 00 73 25 03 
 22995)     10350.5  Rx         0020  5  0A 00 10 15 01 
 22996)     10350.9  Rx         0023  5  00 00 00 00 00 
 22997)     10351.0  Rx         0021  5  00 00 00 00 00 
 22998)     10351.5  Rx         0022  5  0B 00 73 25 03 
 22999)     10351.6  Rx         0020  5  0A 00 11 15 01 
 23000)     10352.1  Rx         0023  5  00 00 00 00 00 
 23001)     10352.3  Rx         0021  5  00 00 00 00 00 
 23002)     10352.7  Rx         0022  5  0B 00 73 25 03 
 23003)     10352.8  Rx         0020  5  0A 00 12 15 03 
 23004)     10353.3  Rx         0023  5  00 00 00 00 00 
 23005)     10353.5  Rx         0021  5  00 00 00 00 00 
 23006)     10353.9  Rx         0022  5  0B 00 73 25 03 
 23007)     10354.1  Rx         0020  5  0A 00 13 15 03 
 23008)     10354.5  Rx         0023  5  00 00 00 00 00 
 23009)     10354.7  Rx         0021  5  00 00 00 00 00 
 23010)     10355.1  Rx         0022  5  0B 00 73 25 03 
 23011)     10355.3  Rx         0020  5  0A 00 15 15 01 
 23012)     10355.7  Rx         0023  5  00 00 00 00 00 
 23013)     10355.9  Rx         0021  5  00 00 00 00 00 
 23014)     10356.3  Rx         0022  5  0B 00 73 25 03 
 23015)     10356.5  Rx         0020  5  0A 00 16 15 03 
 23016)     10356.9  Rx         0023  5  00 00 00 00 00 
 23017)     10357.1  Rx         0021  5  00 00 00 00 00 
 23018)     10357.5  Rx         0022  5  0B 00 73 25 03 
 23019)     10357.7  Rx         0020  5  0A 00 18 15 01 
 23020)     10358.1  Rx         0023  5  00 00 00 00 00 
 23021)     10358.3  Rx         0021  5  00 00 00 00 00 
 23022)     10358.8  Rx         0020  5  0A 00 19 15 01 
 23023)     10359.3  Rx         0021  5  00 00 00 00 00 
 23024)     10359.8  Rx         0020  5  0A 00 1A 15 03 
 23025)     10360.3  Rx         0021  5  00 00 00 00 00 
 23026)     10360.6  Rx         0026  6  71 84 54 8D BB 07 
 23027)     10360.8  Rx         0020  5  0A 00 1B 15 03 
 23028)     10361.0  Rx         0022  5  0B 00 73 25 03 
 23029)     10361.3  Rx         0021  5  00 00 00 00 00 
 23030)     10361.5  Rx         0023  5  00 00 00 00 00 
 23031)     10361.8  Rx         0020  5  0A 00 1C 15 03 
 23032)     10362.0  Rx         0022  5  0B 00 73 25 03 
 23033)     10362.4  Rx         0021  5  00 00 00 00 00 
 23034)     10362.5  Rx         0023  5  00 00 00 00 00 
 23035)     10362.9  Rx         0020  5  0A 00 1D 15 03 
 23036)     10363.0  Rx         0022  5  0B 00 73 25 03 
 23037)     10363.3  Rx         0021  5  00 00 00 00 00 
 23038)     10363.6  Rx         0023  5  00 00 00 00 00 
 23039)     10363.9  Rx         0020  5  0A 00 1E 15 03 
 23040)     10364.0  Rx         0022  5  0B 00 73 25 03 
 23041)     10364.4  Rx         0021  5  00 00 00 00 00 
 23042)     10364.5  Rx         0023  5  00 00 00 00 00 
 23043)     10365.1  Rx         0020  5  0A 00 20 15 01 
 23044)     10365.3  Rx         0022  5  0B 00 73 25 03 
 23045)     10365.7  Rx         0021  5  00 00 00 00 00 
 23046)     10365.9  Rx         0023  5  00 00 00 00 00 
 23047)     10366.3  Rx         0020  5  0A 00 22 15 01 
 23048)     10366.5  Rx         0022  5  0B 00 73 25 03 
 23049)     10366.9  Rx         0021  5  00 00 00 00 00 
 23050)     10367.1  Rx         0023  5  00 00 00 00 00 
 23051)     10367.5  Rx         0020  5  0A 00 23 15 01 
 23052)     10367.7  Rx         0022  5  0B 00 73 25 03 
 23053)     10368.2  Rx         0021  5  00 00 00 00 00 
 23054)     10368.3  Rx         0023  5  00 00 00 00 00 
 23055)     10368.8  Rx         0020  5  0A 00 24 15 01 
 23056)     10370.5  Rx         0021  5  00 00 00 00 00 
 23057)     10370.8  Rx         0026  6  AA 84 1B 8D 22 08 
 23058)     10371.0  Rx         0020  5  0A 00 27 15 01 
 23059)     10371.3  Rx         0022  5  0B 00 73 25 01 
 23060)     10371.5  Rx         0021  5  00 00 00 00 00 
 23061)     10371.7  Rx         0023  5  00 00 00 00 00 
 23062)     10372.0  Rx         0020  5  0A 00 28 15 03 
 23063)     10372.4  Rx         0022  5  0B 00 73 25 01 
 23064)     10372.6  Rx         0021  5  00 00 00 00 00 
 23065)     10373.0  Rx         0023  5  00 00 00 00 00 
 23066)     10373.2  Rx         0020  5  0A 00 29 15 03 
 23067)     10373.6  Rx         0022  5  0B 00 73 25 01 
 23068)     10373.8  Rx         0021  5  00 00 00 00 00 
 23069)     10374.2  Rx         0023  5  00 00 00 00 00 
 23070)     10374.4  Rx         0020  5  0A 00 2B 15 01 
 23071)     10374.8  Rx         0022  5  0B 00 73 25 01 
 23072)     10375.0  Rx         0021  5  00 00 00 00 00 
 23073)     10375.5  Rx         0023  5  00 00 00 00 00 
 23074)     10375.6  Rx         0020  5  0A 00 2C 15 03 
 23075)     10376.1  Rx         0022  5  0B 00 73 25 01 
 23076)     10376.2  Rx         0021  5  00 00 00 00 00 
 23077)     10376.7  Rx         0023  5  00 00 00 00 00 
 23078)     10376.9  Rx         0020  5  0A 00 2D 15 03 
 23079)     10377.3  Rx         0022  5  0B 00 72 25 03 
 23080)     10377.5  Rx         0021  5  00 00 00 00 00 
 23081)     10377.9  Rx         0023  5  00 00 00 00 00 
 23082)     10378.1  Rx         0020  5  0A 00 2F 15 03 
 23083)     10378.5  Rx         0022  5  0B 00 72 25 03 
 23084)     10378.7  Rx         0021  5  00 00 00 00 00 
 23085)     10379.1  Rx         0023  5  00 00 00 00 00 
 23086)     10379.3  Rx         0020  5  0A 00 30 15 03 
 23087)     10379.7  Rx         0022  5  0B 00 72 25 03 
 23088)     10379.9  Rx         0021  5  00 00 00 00 00 
 23089)     10380.3  Rx         0023  5  00 00 00 00 00 
 23090)     10380.5  Rx         0020  5  0A 00 32 15 01 
 23091)     10382.2  Rx         0021  5  00 00 00 00 00 
 23092)     10382.8  Rx         0020  5  0A 00 34 15 03 
 23093)     10383.0  Rx         0026  6  D7 84 E3 8C 88 08 
 23094)     10383.4  Rx         0021  5  00 00 00 00 00 
 23095)     10383.6  Rx         0022  5  0B 00 71 25 03 
 23096)     10384.0  Rx         0020  5  0A 00 35 15 03 
 23097)     10384.2  Rx         0023  5  00 00 00 00 00 
 23098)     10384.6  Rx         0021  5  00 00 00 00 00 
 23099)     10384.8  Rx         0022  5  0B 00 71 25 03 
 23100)     10385.2  Rx         0020  5  0A 00 37 15 01 
 23101)     10385.4  Rx         0023  5  00 00 00 00 00 
 23102)     10385.8  Rx         0021  5  00 00 00 00 00 
 23103)     10386.0  Rx         0022  5  0B 00 71 25 01 
 23104)     10386.4  Rx         0020  5  0A 00 38 15 03 
 23105)     10386.6  Rx         0023  5  00 00 00 00 00 
 23106)     10387.0  Rx         0021  5  00 00 00 00 00 
 23107)     10387.2  Rx         0022  5  0B 00 71 25 01 
 23108)     10387.6  Rx         0020  5  0A 00 39 15 03 
 23109)     10387.8  Rx         0023  5  00 00 00 00 00 
 23110)     10388.2  Rx         0021  5  00 00 00 00 00 
 23111)     10388.4  Rx         0022  5  0B 00 71 25 01 
 23112)     10388.8  Rx         0020  5  0A 00 3B 15 01 
 23113)     10389.0  Rx         0023  5  00 00 00 00 00 
 23114)     10389.3  Rx         0021  5  00 00 00 00 00 
 23115)     10389.5  Rx         0022  5  0B 00 70 25 03 
 23116)     10389.8  Rx         0020  5  0A 00 3C 15 03 
 23117)     10390.0  Rx         0023  5  00 00 00 00 00 
 23118)     10390.3  Rx         0021  5  00 00 00 00 00 
 23119)     10390.5  Rx         0022  5  0B 00 70 25 03 
 23120)     10390.8  Rx         0020  5  0A 00 3D 15 03 
 23121)     10391.0  Rx         0023  5  00 00 00 00 00 
 23122)     10391.3  Rx         0021  5  00 00 00 00 00 
 23123)     10391.8  Rx         0020  5  0A 00 3E 15 03 
 23124)     10392.3  Rx         0021  5  00 00 00 00 00 
 23125)     10392.8  Rx         0020  5  0A 00 40 15 01 
 23126)     10393.3  Rx         0021  5  00 00 00 00 00 
 23127)     10393.6  Rx         0026  6  05 85 AA 8C FA 08 
 23128)     10393.9  Rx         0020  5  0A 00 41 15 01 
 23129)     10394.0  Rx         0022  5  0B 00 6F 25 03 
 23130)     10394.4  Rx         0021  5  00 00 00 00 00 
 23131)     10394.5  Rx         0023  5  00 00 00 00 00 
 23132)     10395.1  Rx         0020  5  0A 00 42 15 01 
 23133)     10395.2  Rx         0022  5  0B 00 6F 25 01 
 23134)     10395.7  Rx         0021  5  00 00 00 00 00 
 23135)     10395.9  Rx         0023  5  00 00 00 00 00 
 23136)     10396.3  Rx         0020  5  0A 00 42 15 03 
 23137)     10396.5  Rx         0022  5  0B 00 6F 25 01 
 23138)     10396.9  Rx         0021  5  00 00 00 00 00 
 23139)     10397.1  Rx         0023  5  00 00 00 00 00 
 23140)     10397.5  Rx         0020  5  0A 00 44 15 01 
 23141)     10397.7  Rx         0022  5  0B 00 6E 25 01 
 23142)     10398.1  Rx         0021  5  00 00 00 00 00 
 23143)     10398.3  Rx         0023  5  00 00 00 00 00 
 23144)     10398.7  Rx         0020  5  0A 00 45 15 03 
 23145)     10398.9  Rx         0022  5  0B 00 6E 25 01 
 23146)     10399.3  Rx         0021  5  00 00 00 00 00 
 23147)     10399.5  Rx         0023  5  00 00 00 00 00 
 23148)     10399.9  Rx         0020  5  0A 00 46 15 03 
 23149)     10400.1  Rx         0022  5  0B 00 6D 25 03 
 23150)     10400.5  Rx         0021  5  00 00 00 00 00 
 23151)     10400.7  Rx         0023  5  00 00 00 00 00 
 23152)     10401.2  Rx         0020  5  0A 00 47 15 03 
 23153)     10401.3  Rx         0022  5  0B 00 6D 25 03 
 23154)     10401.8  Rx         0021  5  00 00 00 00 00 
 23155)     10401.9  Rx         0023  5  00 00 00 00 00 
 23156)     10402.4  Rx         0020  5  0A 00 48 15 03 
 23157)     10404.1  Rx         0021  5  00 00 00 00 00 
 23158)     10404.3  Rx         0026  6  27 85 71 8C 77 09 
 23159)     10404.6  Rx         0020  5  0A 00 4B 15 01 
 23160)     10404.8  Rx         0022  5  0B 00 6C 25 03 
 23161)     10405.3  Rx         0021  5  00 00 00 00 00 
 23162)     10405.5  Rx         0023  5  00 00 00 00 00 
 23163)     10405.9  Rx         0020  5  0A 00 4C 15 01 
 23164)     10406.1  Rx         0022  5  0B 00 6B 25 03 
 23165)     10406.5  Rx         0021  5  00 00 00 00 00 
 23166)     10406.7  Rx         0023  5  00 00 00 00 00 
 23167)     10407.1  Rx         0020  5  0A 00 4D 15 03 
 23168)     10407.3  Rx         0022  5  0B 00 6B 25 03 
 23169)     10407.6  Rx         0021  5  00 00 00 00 00 
 23170)     10407.9  Rx         0023  5  00 00 00 00 00 
 23171)     10408.3  Rx         0020  5  0A 00 4E 15 03 
 23172)     10408.5  Rx         0022  5  0B 00 6B 25 01 
 23173)     10408.9  Rx         0021  5  00 00 00 00 00 
 23174)     10409.1  Rx         0023  5  00 00 00 00 00 
 23175)     10409.5  Rx         0020  5  0A 00 4F 15 03 
 23176)     10409.7  Rx         0022  5  0B 00 6A 25 03 
 23177)     10410.1  Rx         0021  5  00 00 00 00 00 
 23178)     10410.3  Rx         0023  5  00 00 00 00 00 
 23179)     10410.7  Rx         0020  5  0A 00 50 15 03 
 23180)     10410.9  Rx         0022  5  0B 00 6A 25 01 
 23181)     10411.3  Rx         0021  5  00 00 00 00 00 
 23182)     10411.5  Rx         0023  5  00 00 00 00 00 
 23183)     10411.9  Rx         0020  5  0A 00 51 15 03 
 23184)     10412.1  Rx         0022  5  0B 00 69 25 03 
 23185)     10412.5  Rx         0021  5  00 00 00 00 00 
 23186)     10412.7  Rx         0023  5  00 00 00 00 00 
 23187)     10413.1  Rx         0020  5  0A 00 53 15 01 
 23188)     10413.3  Rx         0022  5  0B 00 69 25 03 
 23189)     10413.7  Rx         0021  5  00 00 00 00 00 
 23190)     10413.9  Rx         0023  5  00 00 00 00 00 
 23191)     10414.3  Rx         0020  5  0A 00 54 15 01 
 23192)     10416.1  Rx         0021  5  00 00 00 00 00 
 23193)     10416.2  Rx         0022  5  0B 00 68 25 01 
 23194)     10416.7  Rx         0020  5  0A 00 56 15 01 
 23195)     10416.9  Rx         0023  5  00 00 00 00 00 
 23196)     10417.2  Rx         0021  5  00 00 00 00 00 
 23197)     10417.5  Rx         0022  5  0B 00 68 25 01 
 23198)     10417.8  Rx         0020  5  0A 00 57 15 03 
 23199)     10418.0  Rx         0023  5  00 00 00 00 00 
 23200)     10418.3  Rx         0021  5  00 00 00 00 00 
 23201)     10418.5  Rx         0022  5  0B 00 67 25 03 
 23202)     10418.8  Rx         0020  5  0A 00 58 15 01 
 23203)     10419.0  Rx         0023  5  00 00 00 00 00 
 23204)     10419.3  Rx         0021  5  00 00 00 00 00 
 23205)     10419.5  Rx         0022  5  0B 00 66 25 03 
 23206)     10419.8  Rx         0020  5  0A 00 59 15 01 
 23207)     10420.0  Rx         0023  5  00 00 00 00 00 
 23208)     10420.3  Rx         0021  5  00 00 00 00 00 
 23209)     10420.5  Rx         0022  5  0B 00 66 25 03 
 23210)     10420.8  Rx         0020  5  0A 00 5A 15 03 
 23211)     10421.0  Rx         0023  5  00 00 00 00 00 
 23212)     10421.3  Rx         0021  5  00 00 00 00 00 
 23213)     10421.5  Rx         0022  5  0B 00 66 25 01 
 23214)     10421.8  Rx         0020  5  0A 00 5B 15 01 
 23215)     10422.0  Rx         0023  5  00 00 00 00 00 
 23216)     10422.3  Rx         0021  5  00 00 00 00 00 
 23217)     10422.5  Rx         0022  5  0B 00 66 25 01 
 23218)     10422.8  Rx         0020  5  0A 00 5C 15 01 
 23219)     10423.1  Rx         0023  5  00 00 00 00 00 
 23220)     10423.4  Rx         0021  5  00 00 00 00 00 
 23221)     10423.5  Rx         0022  5  0B 00 65 25 01 
 23222)     10423.9  Rx         0020  5  0A 00 5D 15 01 
 23223)     10424.1  Rx         0023  5  00 00 00 00 00 
 23224)     10424.4  Rx         0021  5  00 00 00 00 00 
 23225)     10424.5  Rx         0022  5  0B 00 64 25 03 
 23226)     10424.9  Rx         0020  5  0A 00 5E 15 01 
 23227)     10425.1  Rx         0023  5  00 00 00 00 00 
 23228)     10425.4  Rx         0021  5  00 00 00 00 00 
 23229)     10426.0  Rx         0020  5  0A 00 5E 15 03 
 23230)     10426.6  Rx         0021  5  00 00 00 00 00 
 23231)     10426.9  Rx         0026  6  54 85 8D 8B 1C 0B 
 23232)     10427.2  Rx         0020  5  0A 00 60 15 01 
 23233)     10427.4  Rx         0022  5  0B 00 63 25 01 
 23234)     10427.8  Rx         0021  5  00 00 00 00 00 
 23235)     10428.0  Rx         0023  5  00 00 00 00 00 
 23236)     10428.5  Rx         0020  5  0A 00 61 15 01 
 23237)     10428.6  Rx         0022  5  0B 00 63 25 01 
 23238)     10429.1  Rx         0021  5  00 00 00 00 00 
 23239)     10429.2  Rx         0023  5  00 00 00 00 00 
 23240)     10429.7  Rx         0020  5  0A 00 63 15 01 
 23241)     10429.8  Rx         0022  5  0B 00 62 25 03 
 23242)     10430.3  Rx         0021  5  00 00 00 00 00 
 23243)     10430.5  Rx         0023  5  00 00 00 00 00 
 23244)     10430.9  Rx         0020  5  0A 00 63 15 03 
 23245)     10431.1  Rx         0022  5  0B 00 62 25 01 
 23246)     10431.5  Rx         0021  5  00 00 00 00 00 
 23247)     10431.7  Rx         0023  5  00 00 00 00 00 
 23248)     10432.1  Rx         0020  5  0A 00 65 15 01 
 23249)     10432.3  Rx         0022  5  0B 00 61 25 03 
 23250)     10432.7  Rx         0021  5  00 00 00 00 00 
 23251)     10432.9  Rx         0023  5  00 00 00 00 00 
 23252)     10433.3  Rx         0020  5  0A 00 66 15 01 
 23253)     10433.5  Rx         0022  5  0B 00 60 25 03 
 23254)     10433.9  Rx         0021  5  00 00 00 00 00 
 23255)     10434.1  Rx         0023  5  00 00 00 00 00 
 23256)     10434.5  Rx         0020  5  0A 00 67 15 01 
 23257)     10434.7  Rx         0022  5  0B 00 60 25 01 
 23258)     10435.1  Rx         0021  5  00 00 00 00 00 
 23259)     10435.3  Rx         0023  5  00 00 00 00 00 
 23260)     10435.7  Rx         0020  5  0A 00 68 15 03 
 23261)     10435.9  Rx         0022  5  0B 00 5F 25 03 
 23262)     10436.3  Rx         0021  5  00 00 00 00 00 
 23263)     10436.5  Rx         0023  5  00 00 00 00 00 
 23264)     10437.0  Rx         0020  5  0A 00 6A 15 01 
 23265)     10438.7  Rx         0021  5  00 00 00 00 00 
 23266)     10439.0  Rx         0026  6  49 85 60 8B 99 0B 
 23267)     10439.2  Rx         0020  5  0A 00 6C 15 03 
 23268)     10439.5  Rx         0022  5  0B 00 5D 25 03 
 23269)     10439.7  Rx         0021  5  00 00 00 00 00 
 23270)     10440.0  Rx         0023  5  00 00 00 00 00 
 23271)     10440.3  Rx         0020  5  0A 00 6D 15 03 
 23272)     10440.4  Rx         0022  5  0B 00 5D 25 03 
 23273)     10440.9  Rx         0021  5  00 00 00 00 00 
 23274)     10441.0  Rx         0023  5  00 00 00 00 00 
 23275)     10441.4  Rx         0020  5  0A 00 6E 15 01 
 23276)     10441.6  Rx         0022  5  0B 00 5C 25 03 
 23277)     10442.0  Rx         0021  5  00 00 00 00 00 
 23278)     10442.3  Rx         0023  5  00 00 00 00 00 
 23279)     10442.6  Rx         0020  5  0A 00 70 15 01 
 23280)     10442.8  Rx         0022  5  0B 00 5C 25 01 
 23281)     10443.2  Rx         0021  5  00 00 00 00 00 
 23282)     10443.5  Rx         0023  5  00 00 00 00 00 
 23283)     10443.8  Rx         0020  5  0A 00 71 15 01 
 23284)     10444.0  Rx         0022  5  0B 00 5B 25 03 
 23285)     10444.5  Rx         0021  5  00 00 00 00 00 
 23286)     10444.7  Rx         0023  5  00 00 00 00 00 
 23287)     10445.1  Rx         0020  5  0A 00 72 15 03 
 23288)     10445.2  Rx         0022  5  0B 00 5B 25 01 
 23289)     10445.7  Rx         0021  5  00 00 00 00 00 
 23290)     10445.8  Rx         0023  5  00 00 00 00 00 
 23291)     10446.3  Rx         0020  5  0A 00 73 15 03 
 23292)     10447.4  Rx         0020  5  0A 00 75 15 01 
 23293)     10447.9  Rx         0021  5  00 00 00 00 00 
 23294)     10448.3  Rx         0026  6  3E 85 3E 8B 0B 0C 
 23295)     10448.5  Rx         0020  5  0A 00 76 15 03 
 23296)     10448.7  Rx         0022  5  0B 00 59 25 01 
 23297)     10449.0  Rx         0021  5  00 00 00 00 00 
 23298)     10449.3  Rx         0023  5  00 00 00 00 00 
 23299)     10449.5  Rx         0020  5  0A 00 77 15 03 
 23300)     10449.7  Rx         0022  5  0B 00 58 25 03 
 23301)     10450.0  Rx         0021  5  00 00 00 00 00 
 23302)     10450.2  Rx         0023  5  00 00 00 00 00 
 23303)     10450.5  Rx         0020  5  0A 00 79 15 01 
 23304)     10450.7  Rx         0022  5  0B 00 58 25 01 
 23305)     10451.0  Rx         0021  5  00 00 00 00 00 
 23306)     10451.2  Rx         0023  5  00 00 00 00 00 
 23307)     10451.5  Rx         0020  5  0A 00 7A 15 01 
 23308)     10451.7  Rx         0022  5  0B 00 57 25 01 
 23309)     10452.0  Rx         0021  5  00 00 00 00 00 
 23310)     10452.2  Rx         0023  5  00 00 00 00 00 
 23311)     10452.5  Rx         0020  5  0A 00 7A 15 03 
 23312)     10452.7  Rx         0022  5  0B 00 56 25 03 
 23313)     10453.1  Rx         0021  5  00 00 00 00 00 
 23314)     10453.2  Rx         0023  5  00 00 00 00 00 
 23315)     10453.6  Rx         0020  5  0A 00 7C 15 01 
 23316)     10453.7  Rx         0022  5  0B 00 56 25 01 
 23317)     10454.1  Rx         0021  5  00 00 00 00 00 
 23318)     10454.3  Rx         0023  5  00 00 00 00 00 
 23319)     10454.6  Rx         0020  5  0A 00 7D 15 03 
 23320)     10454.8  Rx         0022  5  0B 00 55 25 03 
 23321)     10455.1  Rx         0021  5  00 00 00 00 00 
 23322)     10455.3  Rx         0023  5  00 00 00 00 00 
 23323)     10455.6  Rx         0020  5  0A 00 7E 15 03 
 23324)     10455.7  Rx         0022  5  0B 00 55 25 01 
 23325)     10456.1  Rx         0021  5  00 00 00 00 00 
 23326)     10456.3  Rx         0023  5  00 00 00 00 00 
 23327)     10456.7  Rx         0020  5  0A 00 7F 15 03 
 23328)     10456.9  Rx         0022  5  0B 00 54 25 03 
 23329)     10457.3  Rx         0021  5  00 00 00 00 00 
 23330)     10457.5  Rx         0023  5  00 00 00 00 00 
 23331)     10457.9  Rx         0020  5  0A 00 80 15 03 
 23332)     10458.5  Rx         0021  5  00 00 00 00 00 
 23333)     10460.6  Rx         0022  5  0B 00 52 25 03 
 23334)     10460.8  Rx         0021  5  00 00 00 00 00 
 23335)     10461.1  Rx         0023  5  00 00 00 00 00 
 23336)     10461.3  Rx         0020  5  0A 00 85 15 01 
 23337)     10461.6  Rx         0022  5  0B 00 51 25 03 
 23338)     10461.9  Rx         0021  5  00 00 00 00 00 
 23339)     10462.1  Rx         0023  5  00 00 00 00 00 
 23340)     10462.4  Rx         0020  5  0A 00 86 15 01 
 23341)     10462.6  Rx         0022  5  0B 00 51 25 01 
 23342)     10463.0  Rx         0021  5  00 00 00 00 00 
 23343)     10463.3  Rx         0023  5  00 00 00 00 00 
 23344)     10463.6  Rx         0020  5  0A 00 88 15 01 
 23345)     10463.8  Rx         0022  5  0B 00 50 25 03 
 23346)     10464.2  Rx         0021  5  00 00 00 00 00 
 23347)     10464.5  Rx         0023  5  00 00 00 00 00 
 23348)     10464.8  Rx         0020  5  0A 00 88 15 03 
 23349)     10465.0  Rx         0022  5  0B 00 50 25 01 
 23350)     10465.4  Rx         0021  5  00 00 00 00 00 
 23351)     10465.6  Rx         0023  5  00 00 00 00 00 
 23352)     10466.0  Rx         0020  5  0A 00 8A 15 01 
 23353)     10466.2  Rx         0022  5  0B 00 4E 25 03 
 23354)     10466.7  Rx         0021  5  00 00 00 00 00 
 23355)     10466.8  Rx         0023  5  00 00 00 00 00 
 23356)     10467.3  Rx         0020  5  0A 00 8B 15 03 
 23357)     10467.4  Rx         0022  5  0B 00 4E 25 03 
 23358)     10467.9  Rx         0021  5  00 00 00 00 00 
 23359)     10468.0  Rx         0023  5  00 00 00 00 00 
 23360)     10468.5  Rx         0020  5  0A 00 8D 15 01 
 23361)     10468.7  Rx         0022  5  0B 00 4E 25 01 
 23362)     10469.1  Rx         0021  5  00 00 00 00 00 
 23363)     10469.3  Rx         0023  5  00 00 00 00 00 
 23364)     10469.7  Rx         0020  5  0A 00 8E 15 03 
 23365)     10471.4  Rx         0021  5  00 00 00 00 00 
 23366)     10471.8  Rx         0026  6  05 85 05 8B FA 0C 
 23367)     10472.0  Rx         0020  5  0A 00 91 15 03 
 23368)     10472.2  Rx         0022  5  0B 00 4C 25 01 
 23369)     10472.6  Rx         0021  5  00 00 00 00 00 
 23370)     10472.8  Rx         0023  5  00 00 00 00 00 
 23371)     10473.2  Rx         0020  5  0A 00 93 15 01 
 23372)     10473.4  Rx         0022  5  0B 00 4B 25 01 
 23373)     10473.8  Rx         0021  5  00 00 00 00 00 
 23374)     10474.1  Rx         0023  5  00 00 00 00 00 
 23375)     10474.4  Rx         0020  5  0A 00 94 15 03 
 23376)     10474.7  Rx         0022  5  0B 00 4A 25 03 
 23377)     10475.1  Rx         0021  5  00 00 00 00 00 
 23378)     10475.3  Rx         0023  5  00 00 00 00 00 
 23379)     10475.7  Rx         0020  5  0A 00 95 15 03 
 23380)     10475.9  Rx         0022  5  0B 00 49 25 03 
 23381)     10476.3  Rx         0021  5  00 00 00 00 00 
 23382)     10476.4  Rx         0023  5  00 00 00 00 00 
 23383)     10476.9  Rx         0020  5  0A 00 97 15 01 
 23384)     10477.0  Rx         0022  5  0B 00 49 25 01 
 23385)     10477.5  Rx         0021  5  00 00 00 00 00 
 23386)     10477.6  Rx         0023  5  00 00 00 00 00 
 23387)     10478.1  Rx         0020  5  0A 00 98 15 03 
 23388)     10478.2  Rx         0022  5  0B 00 48 25 03 
 23389)     10478.7  Rx         0021  5  00 00 00 00 00 
 23390)     10478.9  Rx         0023  5  00 00 00 00 00 
 23391)     10479.3  Rx         0020  5  0A 00 9A 15 01 
 23392)     10479.4  Rx         0022  5  0B 00 47 25 03 
 23393)     10479.9  Rx         0021  5  00 00 00 00 00 
 23394)     10480.1  Rx         0023  5  00 00 00 00 00 
 23395)     10480.4  Rx         0020  5  0A 00 9B 15 03 
 23396)     10480.9  Rx         0021  5  00 00 00 00 00 
 23397)     10481.4  Rx         0020  5  0A 00 9C 15 03 
 23398)     10481.9  Rx         0021  5  00 00 00 00 00 
 23399)     10482.4  Rx         0020  5  0A 00 9D 15 03 
 23400)     10482.6  Rx         0026  6  F9 84 D7 8A 6C 0D 
 23401)     10482.9  Rx         0021  5  00 00 00 00 00 
 23402)     10483.1  Rx         0022  5  0B 00 46 25 01 
 23403)     10483.4  Rx         0020  5  0A 00 9F 15 01 
 23404)     10483.6  Rx         0023  5  00 00 00 00 00 
 23405)     10483.9  Rx         0021  5  00 00 00 00 00 
 23406)     10484.1  Rx         0022  5  0B 00 45 25 03 
 23407)     10484.4  Rx         0020  5  0A 00 A0 15 01 
 23408)     10484.6  Rx         0023  5  00 00 00 00 00 
 23409)     10484.9  Rx         0021  5  00 00 00 00 00 
 23410)     10485.1  Rx         0022  5  0B 00 45 25 01 
 23411)     10485.5  Rx         0020  5  0A 00 A1 15 01 
 23412)     10485.6  Rx         0023  5  00 00 00 00 00 
 23413)     10486.0  Rx         0021  5  00 00 00 00 00 
 23414)     10486.1  Rx         0022  5  0B 00 44 25 01 
 23415)     10486.4  Rx         0020  5  0A 00 A2 15 03 
 23416)     10486.6  Rx         0023  5  00 00 00 00 00 
 23417)     10487.1  Rx         0021  5  00 00 00 00 00 
 23418)     10487.2  Rx         0022  5  0B 00 43 25 03 
 23419)     10487.7  Rx         0020  5  0A 00 A3 15 03 
 23420)     10487.8  Rx         0023  5  00 00 00 00 00 
 23421)     10488.3  Rx         0021  5  00 00 00 00 00 
 23422)     10488.5  Rx         0022  5  0B 00 43 25 01 
 23423)     10488.9  Rx         0020  5  0A 00 A5 15 01 
 23424)     10489.1  Rx         0023  5  00 00 00 00 00 
 23425)     10489.5  Rx         0021  5  00 00 00 00 00 
 23426)     10489.7  Rx         0022  5  0B 00 42 25 03 
 23427)     10490.1  Rx         0020  5  0A 00 A6 15 01 
 23428)     10490.3  Rx         0023  5  00 00 00 00 00 
 23429)     10490.7  Rx         0021  5  00 00 00 00 00 
 23430)     10492.4  Rx         0020  5  0A 00 A9 15 03 
 23431)     10492.8  Rx         0026  6  F9 84 43 8A DD 0D 
 23432)     10493.0  Rx         0021  5  00 00 00 00 00 
 23433)     10493.4  Rx         0022  5  0B 00 40 25 03 
 23434)     10493.5  Rx         0020  5  0A 00 AA 15 03 
 23435)     10493.9  Rx         0023  5  00 00 00 00 00 
 23436)     10494.2  Rx         0021  5  00 00 00 00 00 
 23437)     10494.5  Rx         0022  5  0B 00 40 25 01 
 23438)     10494.7  Rx         0020  5  0A 00 AB 15 03 
 23439)     10495.1  Rx         0023  5  00 00 00 00 00 
 23440)     10495.4  Rx         0021  5  00 00 00 00 00 
 23441)     10495.7  Rx         0022  5  0B 00 3F 25 03 
 23442)     10496.0  Rx         0020  5  0A 00 AD 15 01 
 23443)     10496.3  Rx         0023  5  00 00 00 00 00 
 23444)     10496.6  Rx         0021  5  00 00 00 00 00 
 23445)     10497.0  Rx         0022  5  0B 00 3E 25 03 
 23446)     10497.1  Rx         0020  5  0A 00 AE 15 03 
 23447)     10497.6  Rx         0023  5  00 00 00 00 00 
 23448)     10497.7  Rx         0021  5  00 00 00 00 00 
 23449)     10498.2  Rx         0022  5  0B 00 3E 25 03 
 23450)     10498.3  Rx         0020  5  0A 00 AF 15 03 
 23451)     10498.8  Rx         0023  5  00 00 00 00 00 
 23452)     10499.0  Rx         0021  5  00 00 00 00 00 
 23453)     10499.4  Rx         0022  5  0B 00 3D 25 03 
 23454)     10499.6  Rx         0020  5  0A 00 B1 15 01 
 23455)     10500.0  Rx         0023  5  00 00 00 00 00 
 23456)     10500.2  Rx         0021  5  00 00 00 00 00 
 23457)     10500.6  Rx         0022  5  0B 00 3D 25 01 
 23458)     10500.8  Rx         0020  5  0A 00 B2 15 01 
 23459)     10501.2  Rx         0023  5  00 00 00 00 00 
 23460)     10501.4  Rx         0021  5  00 00 00 00 00 
 23461)     10502.0  Rx         0020  5  0A 00 B3 15 03 
 23462)     10504.1  Rx         0022  5  0B 00 3B 25 03 
 23463)     10504.4  Rx         0020  5  0A 00 B6 15 01 
 23464)     10504.6  Rx         0023  5  00 00 00 00 00 
 23465)     10504.9  Rx         0021  5  00 00 00 00 00 
 23466)     10505.1  Rx         0022  5  0B 00 3B 25 01 
 23467)     10505.5  Rx         0020  5  0A 00 B7 15 03 
 23468)     10505.7  Rx         0023  5  00 00 00 00 00 
 23469)     10506.1  Rx         0021  5  00 00 00 00 00 
 23470)     10506.3  Rx         0022  5  0B 00 3A 25 03 
 23471)     10506.7  Rx         0020  5  0A 00 B8 15 03 
 23472)     10506.9  Rx         0023  5  00 00 00 00 00 
 23473)     10507.3  Rx         0021  5  00 00 00 00 00 
 23474)     10507.5  Rx         0022  5  0B 00 39 25 03 
 23475)     10507.9  Rx         0020  5  0A 00 B9 15 03 
 23476)     10508.1  Rx         0023  5  00 00 00 00 00 
 23477)     10508.5  Rx         0021  5  00 00 00 00 00 
 23478)     10508.7  Rx         0022  5  0B 00 39 25 03 
 23479)     10509.1  Rx         0020  5  0A 00 BB 15 01 
 23480)     10509.3  Rx         0023  5  00 00 00 00 00 
 23481)     10509.7  Rx         0021  5  00 00 00 00 00 
 23482)     10509.9  Rx         0022  5  0B 00 38 25 03 
 23483)     10510.2  Rx         0020  5  0A 00 BC 15 01 
 23484)     10510.4  Rx         0023  5  00 00 00 00 00 
 23485)     10510.7  Rx         0021  5  00 00 00 00 00 
 23486)     10510.9  Rx         0022  5  0B 00 38 25 03 
 23487)     10511.2  Rx         0020  5  0A 00 BD 15 03 
 23488)     10511.4  Rx         0023  5  00 00 00 00 00 
 23489)     10511.7  Rx         0021  5  00 00 00 00 00 
 23490)     10511.9  Rx         0022  5  0B 00 37 25 03 
 23491)     10512.2  Rx         0020  5  0A 00 BE 15 03 
 23492)     10512.4  Rx         0023  5  00 00 00 00 00 
 23493)     10512.7  Rx         0021  5  00 00 00 00 00 
 23494)     10513.2  Rx         0020  5  0A 00 BF 15 01 
 23495)     10513.8  Rx         0021  5  00 00 00 00 00 
 23496)     10514.1  Rx         0026  6  9E 84 E8 89 55 0F 
 23497)     10514.3  Rx         0020  5  0A 00 C0 15 03 
 23498)     10514.6  Rx         0022  5  0B 00 36 25 01 
 23499)     10514.8  Rx         0021  5  00 00 00 00 00 
 23500)     10515.0  Rx         0023  5  00 00 00 00 00 
 23501)     10515.3  Rx         0020  5  0A 00 C1 15 01 
 23502)     10515.5  Rx         0022  5  0B 00 35 25 03 
 23503)     10515.8  Rx         0021  5  00 00 00 00 00 
 23504)     10516.0  Rx         0023  5  00 00 00 00 00 
 23505)     10516.3  Rx         0020  5  0A 00 C2 15 01 
 23506)     10516.5  Rx         0022  5  0B 00 35 25 01 
 23507)     10516.8  Rx         0021  5  00 00 00 00 00 
 23508)     10517.0  Rx         0023  5  00 00 00 00 00 
 23509)     10517.3  Rx         0020  5  0A 00 C3 15 01 
 23510)     10517.6  Rx         0022  5  0B 00 34 25 03 
 23511)     10518.0  Rx         0021  5  00 00 00 00 00 
 23512)     10518.1  Rx         0023  5  00 00 00 00 00 
 23513)     10518.6  Rx         0020  5  0A 00 C4 15 01 
 23514)     10518.7  Rx         0022  5  0B 00 34 25 01 
 23515)     10519.2  Rx         0021  5  00 00 00 00 00 
 23516)     10519.3  Rx         0023  5  00 00 00 00 00 
 23517)     10519.8  Rx         0020  5  0A 00 C5 15 03 
 23518)     10519.9  Rx         0022  5  0B 00 33 25 03 
 23519)     10520.4  Rx         0021  5  00 00 00 00 00 
 23520)     10520.5  Rx         0023  5  00 00 00 00 00 
 23521)     10521.0  Rx         0020  5  0A 00 C7 15 01 
 23522)     10521.1  Rx         0022  5  0B 00 33 25 01 
 23523)     10521.6  Rx         0021  5  00 00 00 00 00 
 23524)     10521.7  Rx         0023  5  00 00 00 00 00 
 23525)     10522.2  Rx         0020  5  0A 00 C8 15 01 
 23526)     10522.3  Rx         0022  5  0B 00 32 25 03 
 23527)     10522.8  Rx         0021  5  00 00 00 00 00 
 23528)     10522.9  Rx         0023  5  00 00 00 00 00 
 23529)     10523.4  Rx         0020  5  0A 00 C9 15 01 
 23530)     10523.5  Rx         0022  5  0B 00 32 25 01 
 23531)     10524.0  Rx         0021  5  00 00 00 00 00 
 23532)     10524.1  Rx         0023  5  00 00 00 00 00 
 23533)     10524.6  Rx         0020  5  0A 00 CA 15 01 
 23534)     10526.8  Rx         0020  5  0A 00 CC 15 01 
 23535)     10527.0  Rx         0023  5  00 00 00 00 00 
 23536)     10527.3  Rx         0021  5  00 00 00 00 00 
 23537)     10527.5  Rx         0022  5  0B 00 30 25 01 
 23538)     10527.8  Rx         0020  5  0A 00 CD 15 01 
 23539)     10528.1  Rx         0023  5  00 00 00 00 00 
 23540)     10528.5  Rx         0021  5  00 00 00 00 00 
 23541)     10528.6  Rx         0022  5  0B 00 2F 25 03 
 23542)     10529.1  Rx         0020  5  0A 00 CE 15 01 
 23543)     10529.2  Rx         0023  5  00 00 00 00 00 
 23544)     10529.7  Rx         0021  5  00 00 00 00 00 
 23545)     10529.9  Rx         0022  5  0B 00 2F 25 01 
 23546)     10530.3  Rx         0020  5  0A 00 CF 15 03 
 23547)     10530.5  Rx         0023  5  00 00 00 00 00 
 23548)     10530.9  Rx         0021  5  00 00 00 00 00 
 23549)     10531.1  Rx         0022  5  0B 00 2E 25 03 
 23550)     10531.5  Rx         0020  5  0A 00 D0 15 01 
 23551)     10531.7  Rx         0023  5  00 00 00 00 00 
 23552)     10532.1  Rx         0021  5  00 00 00 00 00 
 23553)     10532.3  Rx         0022  5  0B 00 2E 25 03 
 23554)     10532.7  Rx         0020  5  0A 00 D1 15 03 
 23555)     10532.9  Rx         0023  5  00 00 00 00 00 
 23556)     10533.3  Rx         0021  5  00 00 00 00 00 
 23557)     10533.5  Rx         0022  5  0B 00 2D 25 03 
 23558)     10533.9  Rx         0020  5  0A 00 D2 15 03 
 23559)     10534.1  Rx         0023  5  00 00 00 00 00 
 23560)     10534.5  Rx         0021  5  00 00 00 00 00 
 23561)     10536.3  Rx         0020  5  0A 00 D4 15 03 
 23562)     10536.5  Rx         0022  5  0B 00 2C 25 01 
 23563)     10536.8  Rx         0021  5  00 00 00 00 00 
 23564)     10537.0  Rx         0023  5  00 00 00 00 00 
 23565)     10537.3  Rx         0020  5  0A 00 D5 15 03 
 23566)     10537.5  Rx         0022  5  0B 00 2B 25 03 
 23567)     10537.8  Rx         0021  5  00 00 00 00 00 
 23568)     10538.0  Rx         0023  5  00 00 00 00 00 
 23569)     10538.4  Rx         0020  5  0A 00 D6 15 03 
 23570)     10538.6  Rx         0022  5  0B 00 2B 25 03 
 23571)     10539.0  Rx         0021  5  00 00 00 00 00 
 23572)     10539.2  Rx         0023  5  00 00 00 00 00 
 23573)     10539.6  Rx         0020  5  0A 00 D7 15 03 
 23574)     10539.8  Rx         0022  5  0B 00 2A 25 03 
 23575)     10540.2  Rx         0021  5  00 00 00 00 00 
 23576)     10540.4  Rx         0023  5  00 00 00 00 00 
 23577)     10540.8  Rx         0020  5  0A 00 D9 15 01 
 23578)     10541.0  Rx         0022  5  0B 00 2A 25 01 
 23579)     10541.4  Rx         0021  5  00 00 00 00 00 
 23580)     10541.6  Rx         0023  5  00 00 00 00 00 
 23581)     10542.0  Rx         0020  5  0A 00 DA 15 01 
 23582)     10542.2  Rx         0022  5  0B 00 29 25 03 
 23583)     10542.6  Rx         0021  5  00 00 00 00 00 
 23584)     10542.8  Rx         0023  5  00 00 00 00 00 
 23585)     10543.1  Rx         0020  5  0A 00 DB 15 01 
 23586)     10543.3  Rx         0022  5  0B 00 28 25 03 
 23587)     10543.6  Rx         0021  5  00 00 00 00 00 
 23588)     10543.8  Rx         0023  5  00 00 00 00 00 
 23589)     10544.1  Rx         0020  5  0A 00 DC 15 01 
 23590)     10544.3  Rx         0022  5  0B 00 28 25 01 
 23591)     10544.6  Rx         0021  5  00 00 00 00 00 
 23592)     10544.8  Rx         0023  5  00 00 00 00 00 
 23593)     10545.1  Rx         0020  5  0A 00 DC 15 03 
 23594)     10545.3  Rx         0022  5  0B 00 27 25 03 
 23595)     10545.6  Rx         0021  5  00 00 00 00 00 
 23596)     10545.8  Rx         0023  5  00 00 00 00 00 
 23597)     10546.1  Rx         0020  5  0A 00 DD 15 03 
 23598)     10546.7  Rx         0021  5  00 00 00 00 00 
 23599)     10547.2  Rx         0020  5  0A 00 DE 15 01 
 23600)     10547.7  Rx         0021  5  00 00 00 00 00 
 23601)     10548.2  Rx         0020  5  0A 00 DF 15 01 
 23602)     10548.4  Rx         0026  6  4F 84 BB 89 C1 10 
 23603)     10548.7  Rx         0021  5  00 00 00 00 00 
 23604)     10548.9  Rx         0022  5  0B 00 26 25 01 
 23605)     10549.2  Rx         0020  5  0A 00 E0 15 01 
 23606)     10549.4  Rx         0023  5  00 00 00 00 00 
 23607)     10549.8  Rx         0021  5  00 00 00 00 00 
 23608)     10550.0  Rx         0022  5  0B 00 25 25 03 
 23609)     10550.4  Rx         0020  5  0A 00 E1 15 01 
 23610)     10550.6  Rx         0023  5  00 00 00 00 00 
 23611)     10551.0  Rx         0021  5  00 00 00 00 00 
 23612)     10551.2  Rx         0022  5  0B 00 24 25 03 
 23613)     10551.6  Rx         0020  5  0A 00 E2 15 01 
 23614)     10551.8  Rx         0023  5  00 00 00 00 00 
 23615)     10552.2  Rx         0021  5  00 00 00 00 00 
 23616)     10552.4  Rx         0022  5  0B 00 24 25 01 
 23617)     10552.8  Rx         0020  5  0A 00 E3 15 03 
 23618)     10553.0  Rx         0023  5  00 00 00 00 00 
 23619)     10553.4  Rx         0021  5  00 00 00 00 00 
 23620)     10553.6  Rx         0022  5  0B 00 23 25 01 
 23621)     10554.0  Rx         0020  5  0A 00 E4 15 03 
 23622)     10554.2  Rx         0023  5  00 00 00 00 00 
 23623)     10554.6  Rx         0021  5  00 00 00 00 00 
 23624)     10554.8  Rx         0022  5  0B 00 23 25 01 
 23625)     10555.2  Rx         0020  5  0A 00 E5 15 03 
 23626)     10555.4  Rx         0023  5  00 00 00 00 00 
 23627)     10555.8  Rx         0021  5  00 00 00 00 00 
 23628)     10556.0  Rx         0022  5  0B 00 22 25 01 
 23629)     10556.4  Rx         0020  5  0A 00 E6 15 01 
 23630)     10556.6  Rx         0023  5  00 00 00 00 00 
 23631)     10557.0  Rx         0021  5  00 00 00 00 00 
 23632)     10558.7  Rx         0020  5  0A 00 E8 15 01 
 23633)     10559.1  Rx         0026  6  2C 84 AF 89 33 11 
 23634)     10559.3  Rx         0021  5  00 00 00 00 00 
 23635)     10559.6  Rx         0022  5  0B 00 20 25 01 
 23636)     10559.8  Rx         0020  5  0A 00 E9 15 01 
 23637)     10560.0  Rx         0023  5  00 00 00 00 00 
 23638)     10560.3  Rx         0021  5  00 00 00 00 00 
 23639)     10560.7  Rx         0022  5  0B 00 1F 25 03 
 23640)     10560.9  Rx         0020  5  0A 00 E9 15 03 
 23641)     10561.3  Rx         0023  5  00 00 00 00 00 
 23642)     10561.5  Rx         0021  5  00 00 00 00 00 
 23643)     10561.9  Rx         0022  5  0B 00 1F 25 01 
 23644)     10562.2  Rx         0020  5  0A 00 EA 15 03 
 23645)     10562.5  Rx         0023  5  00 00 00 00 00 
 23646)     10562.8  Rx         0021  5  00 00 00 00 00 
 23647)     10563.2  Rx         0022  5  0B 00 1E 25 03 
 23648)     10563.3  Rx         0020  5  0A 00 EC 15 01 
 23649)     10563.8  Rx         0023  5  00 00 00 00 00 
 23650)     10563.9  Rx         0021  5  00 00 00 00 00 
 23651)     10564.4  Rx         0022  5  0B 00 1D 25 01 
 23652)     10564.5  Rx         0020  5  0A 00 EC 15 03 
 23653)     10565.0  Rx         0023  5  00 00 00 00 00 
 23654)     10565.1  Rx         0021  5  00 00 00 00 00 
 23655)     10565.6  Rx         0022  5  0B 00 1C 25 03 
 23656)     10565.7  Rx         0020  5  0A 00 ED 15 03 
 23657)     10566.2  Rx         0023  5  00 00 00 00 00 
 23658)     10566.4  Rx         0021  5  00 00 00 00 00 
 23659)     10566.8  Rx         0022  5  0B 00 1C 25 01 
 23660)     10566.9  Rx         0020  5  0A 00 EE 15 03 
 23661)     10567.4  Rx         0023  5  00 00 00 00 00 
 23662)     10567.6  Rx         0021  5  00 00 00 00 00 
 23663)     10569.3  Rx         0020  5  0A 00 F0 15 03 
 23664)     10569.8  Rx         0021  5  00 00 00 00 00 
 23665)     10570.0  Rx         0026  6  16 84 99 89 A4 11 
 23666)     10570.3  Rx         0020  5  0A 00 F1 15 01 
 23667)     10570.5  Rx         0022  5  0B 00 19 25 03 
 23668)     10570.9  Rx         0021  5  00 00 00 00 00 
 23669)     10571.1  Rx         0023  5  00 00 00 00 00 
 23670)     10571.5  Rx         0020  5  0A 00 F2 15 01 
 23671)     10571.7  Rx         0022  5  0B 00 19 25 01 
