;$FILEVERSION=1.1
;$STARTTIME=45805.7654514815
;
;   Start time: 2025/5/28 18:22:15.008.0
;   Generated by PCAN-View v5.3.2.952
;
;   Message Number
;   |         Time Offset (ms)
;   |         |        Type
;   |         |        |        ID (hex)
;   |         |        |        |     Data Length
;   |         |        |        |     |   Data Bytes (hex) ...
;   |         |        |        |     |   |
;---+--   ----+----  --+--  ----+---  +  -+ -- -- -- -- -- -- --
     1)         1.0  Rx         0020  5  0A 00 BC 1A 01 
     2)         6.3  Rx         0021  5  00 00 00 00 00 
     3)         6.5  Rx         0023  5  00 00 00 00 00 
     4)         7.0  Rx         0020  5  0A 00 BC 1A 01 
     5)         7.1  Rx         0022  5  0B 00 48 1D 03 
     6)        10.5  Rx         0020  5  0A 00 BC 1A 01 
     7)        12.3  Rx         0021  5  00 00 00 00 00 
     8)        12.7  Rx         0026  6  11 0D B5 80 D2 37 
     9)        12.9  Rx         0020  5  0A 00 BC 1A 01 
    10)        16.8  Rx         0022  5  0B 00 48 1D 03 
    11)        17.0  Rx         0021  5  00 00 00 00 00 
    12)        17.5  Rx         0023  5  00 00 00 00 00 
    13)        17.6  Rx         0020  5  0A 00 BC 1A 01 
    14)        19.8  Rx         0023  5  00 00 00 00 00 
    15)        20.3  Rx         0020  5  0A 00 BC 1A 01 
    16)        20.4  Rx         0022  5  0B 00 48 1D 03 
    17)        22.6  Rx         0020  5  0A 00 BC 1A 01 
    18)        24.3  Rx         0021  5  00 00 00 00 00 
    19)        24.5  Rx         0022  5  0B 00 48 1D 03 
    20)        24.9  Rx         0020  5  0A 00 BC 1A 01 
    21)        25.1  Rx         0023  5  00 00 00 00 00 
    22)        27.3  Rx         0020  5  0A 00 BC 1A 01 
    23)        27.5  Rx         0023  5  00 00 00 00 00 
    24)        27.9  Rx         0021  5  00 00 00 00 00 
    25)        28.1  Rx         0022  5  0B 00 48 1D 03 
    26)        30.3  Rx         0021  5  00 00 00 00 00 
    27)        30.4  Rx         0022  5  0B 00 48 1D 03 
    28)        30.9  Rx         0020  5  0A 00 BC 1A 01 
    29)        31.1  Rx         0023  5  00 00 00 00 00 
    30)        33.2  Rx         0020  5  0A 00 BC 1A 01 
    31)        34.5  Rx         0020  5  0A 00 BC 1A 01 
    32)        34.7  Rx         0026  6  11 0D B5 80 D2 37 
    33)        35.1  Rx         0021  5  00 00 00 00 00 
    34)        35.3  Rx         0022  5  0B 00 48 1D 03 
    35)        37.5  Rx         0021  5  00 00 00 00 00 
    36)        37.7  Rx         0022  5  0B 00 48 1D 03 
    37)        38.1  Rx         0020  5  0A 00 BC 1A 01 
    38)        38.3  Rx         0023  5  00 00 00 00 00 
    39)        40.4  Rx         0020  5  0A 00 BC 1A 01 
    40)        40.7  Rx         0023  5  00 00 00 00 00 
    41)        41.1  Rx         0021  5  00 00 00 00 00 
    42)        41.3  Rx         0022  5  0B 00 48 1D 03 
    43)        44.0  Rx         0020  5  0A 00 BC 1A 01 
    44)        46.9  Rx         0021  5  00 00 00 00 00 
    45)        47.1  Rx         0023  5  00 00 00 00 00 
    46)        47.6  Rx         0020  5  0A 00 BC 1A 01 
    47)        47.8  Rx         0022  5  0B 00 48 1D 03 
    48)        48.8  Rx         0020  5  0A 00 BC 1A 01 
    49)        48.9  Rx         0022  5  0B 00 48 1D 03 
    50)        49.3  Rx         0021  5  00 00 00 00 00 
    51)        49.4  Rx         0023  5  00 00 00 00 00 
    52)        49.8  Rx         0020  5  0A 00 BC 1A 01 
    53)        50.0  Rx         0022  5  0B 00 48 1D 03 
    54)        50.3  Rx         0021  5  00 00 00 00 00 
    55)        50.5  Rx         0023  5  00 00 00 00 00 
    56)        50.9  Rx         0020  5  0A 00 BC 1A 01 
    57)        51.1  Rx         0022  5  0B 00 48 1D 03 
    58)        51.5  Rx         0021  5  00 00 00 00 00 
    59)        51.7  Rx         0023  5  00 00 00 00 00 
    60)        52.1  Rx         0020  5  0A 00 BC 1A 01 
    61)        52.3  Rx         0022  5  0B 00 48 1D 03 
    62)        52.7  Rx         0021  5  00 00 00 00 00 
    63)        52.9  Rx         0023  5  00 00 00 00 00 
    64)        53.3  Rx         0020  5  0A 00 BC 1A 01 
    65)        53.5  Rx         0022  5  0B 00 48 1D 03 
    66)        53.9  Rx         0021  5  00 00 00 00 00 
    67)        54.1  Rx         0023  5  00 00 00 00 00 
    68)        54.5  Rx         0020  5  0A 00 BC 1A 01 
    69)        55.0  Rx         0021  5  00 00 00 00 00 
    70)        55.5  Rx         0020  5  0A 00 BC 1A 01 
    71)        55.8  Rx         0026  6  11 0D B5 80 D2 37 
    72)        56.1  Rx         0021  5  00 00 00 00 00 
    73)        56.2  Rx         0022  5  0B 00 48 1D 03 
    74)        56.5  Rx         0020  5  0A 00 BC 1A 01 
    75)        56.7  Rx         0023  5  00 00 00 00 00 
    76)        57.0  Rx         0021  5  00 00 00 00 00 
    77)        57.2  Rx         0022  5  0B 00 48 1D 03 
    78)        57.5  Rx         0020  5  0A 00 BC 1A 01 
    79)        57.8  Rx         0023  5  00 00 00 00 00 
    80)        58.1  Rx         0021  5  00 00 00 00 00 
    81)        58.3  Rx         0022  5  0B 00 48 1D 03 
    82)        58.6  Rx         0020  5  0A 00 BC 1A 01 
    83)        58.7  Rx         0023  5  00 00 00 00 00 
    84)        59.1  Rx         0021  5  00 00 00 00 00 
    85)        59.3  Rx         0022  5  0B 00 48 1D 03 
    86)        59.7  Rx         0020  5  0A 00 BC 1A 01 
    87)        59.9  Rx         0023  5  00 00 00 00 00 
    88)        60.4  Rx         0021  5  00 00 00 00 00 
    89)        60.6  Rx         0022  5  0B 00 48 1D 03 
    90)        61.0  Rx         0020  5  0A 00 BC 1A 01 
    91)        61.2  Rx         0023  5  00 00 00 00 00 
    92)        61.6  Rx         0021  5  00 00 00 00 00 
    93)        61.9  Rx         0022  5  0B 00 48 1D 03 
    94)        62.3  Rx         0020  5  0A 00 BC 1A 01 
    95)        62.5  Rx         0023  5  00 00 00 00 00 
    96)        63.0  Rx         0021  5  00 00 00 00 00 
    97)        63.1  Rx         0022  5  0B 00 48 1D 03 
    98)        63.6  Rx         0020  5  0A 00 BC 1A 01 
    99)        63.8  Rx         0023  5  00 00 00 00 00 
   100)        64.2  Rx         0021  5  00 00 00 00 00 
   101)        64.4  Rx         0022  5  0B 00 48 1D 03 
   102)        64.9  Rx         0020  5  0A 00 BC 1A 01 
   103)        65.1  Rx         0023  5  00 00 00 00 00 
   104)        65.5  Rx         0021  5  00 00 00 00 00 
   105)        68.9  Rx         0022  5  0B 00 48 1D 03 
   106)        69.1  Rx         0021  5  00 00 00 00 00 
   107)        69.6  Rx         0023  5  00 00 00 00 00 
   108)        69.7  Rx         0020  5  0A 00 BC 1A 01 
   109)        79.9  Rx         0021  5  00 00 00 00 00 
   110)        80.1  Rx         0023  5  00 00 00 00 00 
   111)        80.5  Rx         0020  5  0A 00 BC 1A 01 
   112)        80.7  Rx         0022  5  0B 00 48 1D 03 
   113)        87.6  Rx         0020  5  0A 00 BC 1A 01 
   114)        87.8  Rx         0022  5  0B 00 48 1D 03 
   115)        88.3  Rx         0021  5  00 00 00 00 00 
   116)        88.4  Rx         0023  5  00 00 00 00 00 
   117)        90.0  Rx         0020  5  0A 00 BC 1A 01 
   118)        97.1  Rx         0020  5  0A 00 BC 1A 01 
   119)        97.3  Rx         0022  5  0B 00 48 1D 03 
   120)        97.8  Rx         0021  5  00 00 00 00 00 
   121)        97.9  Rx         0023  5  00 00 00 00 00 
   122)        99.5  Rx         0020  5  0A 00 BC 1A 01 
   123)       100.5  Rx         0026  6  11 0D B5 80 D2 37 
   124)       100.9  Rx         0020  5  0A 00 BC 1A 01 
   125)       101.1  Rx         0022  5  0B 00 48 1D 03 
   126)       102.6  Rx         0021  5  00 00 00 00 00 
   127)       102.8  Rx         0023  5  00 00 00 00 00 
   128)       103.2  Rx         0020  5  0A 00 BC 1A 01 
   129)       103.4  Rx         0022  5  0B 00 48 1D 03 
   130)       107.4  Rx         0021  5  00 00 00 00 00 
   131)       107.5  Rx         0023  5  00 00 00 00 00 
   132)       108.0  Rx         0020  5  0A 00 BC 1A 01 
   133)       108.2  Rx         0022  5  0B 00 48 1D 03 
   134)       110.3  Rx         0020  5  0A 00 BC 1A 01 
   135)       112.1  Rx         0021  5  00 00 00 00 00 
   136)       112.6  Rx         0026  6  11 0D B5 80 D2 37 
   137)       112.8  Rx         0020  5  0A 00 BC 1A 01 
   138)       113.2  Rx         0022  5  0B 00 48 1D 03 
   139)       113.5  Rx         0021  5  00 00 00 00 00 
   140)       117.3  Rx         0023  5  00 00 00 00 00 
   141)       117.5  Rx         0020  5  0A 00 BC 1A 01 
   142)       118.0  Rx         0022  5  0B 00 48 1D 03 
   143)       118.1  Rx         0021  5  00 00 00 00 00 
   144)       120.3  Rx         0022  5  0B 00 48 1D 03 
   145)       120.8  Rx         0021  5  00 00 00 00 00 
   146)       121.0  Rx         0023  5  00 00 00 00 00 
   147)       121.9  Rx         0021  5  00 00 00 00 00 
   148)       128.3  Rx         0023  5  00 00 00 00 00 
   149)       128.6  Rx         0020  5  0A 00 BC 1A 01 
   150)       129.0  Rx         0022  5  0B 00 48 1D 03 
   151)       129.2  Rx         0021  5  00 00 00 00 00 
   152)       131.3  Rx         0022  5  0B 00 48 1D 03 
   153)       131.5  Rx         0021  5  00 00 00 00 00 
   154)       132.0  Rx         0023  5  00 00 00 00 00 
   155)       132.2  Rx         0020  5  0A 00 BC 1A 01 
   156)       132.7  Rx         0021  5  00 00 00 00 00 
   157)       133.2  Rx         0020  5  0A 00 BC 1A 01 
   158)       133.8  Rx         0021  5  00 00 00 00 00 
   159)       134.1  Rx         0026  6  11 0D B5 80 D2 37 
   160)       134.3  Rx         0020  5  0A 00 BC 1A 01 
   161)       134.7  Rx         0022  5  0B 00 48 1D 03 
   162)       134.9  Rx         0021  5  00 00 00 00 00 
   163)       135.3  Rx         0023  5  00 00 00 00 00 
   164)       135.5  Rx         0020  5  0A 00 BC 1A 01 
   165)       135.9  Rx         0022  5  0B 00 48 1D 03 
   166)       136.1  Rx         0021  5  00 00 00 00 00 
   167)       136.5  Rx         0023  5  00 00 00 00 00 
   168)       136.7  Rx         0020  5  0A 00 BC 1A 01 
   169)       137.1  Rx         0022  5  0B 00 48 1D 03 
   170)       137.3  Rx         0021  5  00 00 00 00 00 
   171)       137.7  Rx         0023  5  00 00 00 00 00 
   172)       137.9  Rx         0020  5  0A 00 BC 1A 01 
   173)       138.3  Rx         0022  5  0B 00 48 1D 03 
   174)       138.5  Rx         0021  5  00 00 00 00 00 
   175)       138.9  Rx         0023  5  00 00 00 00 00 
   176)       139.1  Rx         0020  5  0A 00 BC 1A 01 
   177)       139.5  Rx         0022  5  0B 00 48 1D 03 
   178)       139.7  Rx         0021  5  00 00 00 00 00 
   179)       140.1  Rx         0023  5  00 00 00 00 00 
   180)       140.3  Rx         0020  5  0A 00 BC 1A 01 
   181)       140.7  Rx         0022  5  0B 00 48 1D 03 
   182)       140.9  Rx         0021  5  00 00 00 00 00 
   183)       141.3  Rx         0023  5  00 00 00 00 00 
   184)       141.5  Rx         0020  5  0A 00 BC 1A 01 
   185)       141.9  Rx         0022  5  0B 00 48 1D 03 
   186)       142.2  Rx         0021  5  00 00 00 00 00 
   187)       142.5  Rx         0023  5  00 00 00 00 00 
   188)       142.8  Rx         0020  5  0A 00 BC 1A 01 
   189)       144.5  Rx         0021  5  00 00 00 00 00 
   190)       144.7  Rx         0026  6  11 0D B5 80 D2 37 
   191)       145.1  Rx         0020  5  0A 00 BC 1A 01 
   192)       145.3  Rx         0022  5  0B 00 48 1D 03 
   193)       145.7  Rx         0021  5  00 00 00 00 00 
   194)       145.9  Rx         0023  5  00 00 00 00 00 
   195)       146.3  Rx         0020  5  0A 00 BC 1A 01 
   196)       146.5  Rx         0022  5  0B 00 48 1D 03 
   197)       146.9  Rx         0021  5  00 00 00 00 00 
   198)       147.1  Rx         0023  5  00 00 00 00 00 
   199)       147.5  Rx         0020  5  0A 00 BC 1A 01 
   200)       147.7  Rx         0022  5  0B 00 48 1D 03 
   201)       148.1  Rx         0021  5  00 00 00 00 00 
   202)       148.3  Rx         0023  5  00 00 00 00 00 
   203)       148.7  Rx         0020  5  0A 00 BC 1A 01 
   204)       148.9  Rx         0022  5  0B 00 48 1D 03 
   205)       149.3  Rx         0021  5  00 00 00 00 00 
   206)       149.5  Rx         0023  5  00 00 00 00 00 
   207)       157.4  Rx         0023  5  00 00 00 00 00 
   208)       157.6  Rx         0021  5  00 00 00 00 00 
   209)       158.1  Rx         0022  5  0B 00 48 1D 03 
   210)       158.3  Rx         0020  5  0A 00 BC 1A 01 
   211)       161.6  Rx         0020  5  0A 00 BC 1A 01 
   212)       161.8  Rx         0022  5  0B 00 48 1D 03 
   213)       162.3  Rx         0021  5  00 00 00 00 00 
   214)       162.5  Rx         0023  5  00 00 00 00 00 
   215)       165.8  Rx         0021  5  00 00 00 00 00 
   216)       167.6  Rx         0020  5  0A 00 BC 1A 01 
   217)       167.8  Rx         0023  5  00 00 00 00 00 
   218)       171.2  Rx         0020  5  0A 00 BC 1A 01 
   219)       171.3  Rx         0023  5  00 00 00 00 00 
   220)       171.8  Rx         0021  5  00 00 00 00 00 
   221)       172.0  Rx         0022  5  0B 00 48 1D 03 
   222)       177.1  Rx         0020  5  0A 00 BC 1A 01 
   223)       178.6  Rx         0026  6  11 0D B5 80 D2 37 
   224)       178.8  Rx         0021  5  00 00 00 00 00 
   225)       179.0  Rx         0022  5  0B 00 48 1D 03 
   226)       179.5  Rx         0020  5  0A 00 BC 1A 01 
   227)       179.7  Rx         0023  5  00 00 00 00 00 
   228)       180.2  Rx         0021  5  00 00 00 00 00 
   229)       180.3  Rx         0022  5  0B 00 48 1D 03 
   230)       187.2  Rx         0021  5  00 00 00 00 00 
   231)       189.0  Rx         0020  5  0A 00 BC 1A 01 
   232)       192.5  Rx         0020  5  0A 00 BC 1A 01 
   233)       192.7  Rx         0022  5  0B 00 48 1D 03 
   234)       193.2  Rx         0021  5  00 00 00 00 00 
   235)       193.4  Rx         0023  5  00 00 00 00 00 
   236)       198.5  Rx         0020  5  0A 00 BC 1A 01 
   237)       200.3  Rx         0021  5  00 00 00 00 00 
   238)       207.4  Rx         0021  5  00 00 00 00 00 
   239)       207.5  Rx         0022  5  0B 00 48 1D 03 
   240)       208.0  Rx         0020  5  0A 00 BC 1A 01 
   241)       208.2  Rx         0023  5  00 00 00 00 00 
   242)       210.4  Rx         0020  5  0A 00 BC 1A 01 
   243)       211.5  Rx         0020  5  0A 00 BC 1A 01 
   244)       216.8  Rx         0021  5  00 00 00 00 00 
   245)       217.0  Rx         0023  5  00 00 00 00 00 
   246)       220.3  Rx         0021  5  00 00 00 00 00 
   247)       220.5  Rx         0023  5  00 00 00 00 00 
   248)       221.0  Rx         0020  5  0A 00 BC 1A 01 
   249)       222.7  Rx         0021  5  00 00 00 00 00 
   250)       223.2  Rx         0026  6  1C 0D B5 80 D2 37 
   251)       223.4  Rx         0020  5  0A 00 BC 1A 01 
   252)       229.0  Rx         0023  5  00 00 00 00 00 
   253)       229.2  Rx         0020  5  0A 00 BC 1A 01 
   254)       229.7  Rx         0022  5  0B 00 48 1D 03 
   255)       229.9  Rx         0021  5  00 00 00 00 00 
   256)       233.6  Rx         0021  5  00 00 00 00 00 
   257)       234.0  Rx         0026  6  1C 0D B5 80 D2 37 
   258)       234.2  Rx         0020  5  0A 00 BC 1A 01 
   259)       238.1  Rx         0022  5  0B 00 48 1D 03 
   260)       238.5  Rx         0021  5  00 00 00 00 00 
   261)       238.8  Rx         0023  5  00 00 00 00 00 
   262)       240.9  Rx         0021  5  00 00 00 00 00 
   263)       241.1  Rx         0023  5  00 00 00 00 00 
   264)       241.6  Rx         0020  5  0A 00 BC 1A 01 
   265)       241.7  Rx         0022  5  0B 00 48 1D 03 
   266)       247.2  Rx         0022  5  0B 00 48 1D 03 
   267)       247.5  Rx         0020  5  0A 00 BC 1A 01 
   268)       247.9  Rx         0023  5  00 00 00 00 00 
   269)       248.1  Rx         0021  5  00 00 00 00 00 
   270)       250.2  Rx         0023  5  00 00 00 00 00 
   271)       250.4  Rx         0021  5  00 00 00 00 00 
   272)       250.9  Rx         0022  5  0B 00 48 1D 03 
   273)       251.1  Rx         0020  5  0A 00 BC 1A 01 
   274)       253.2  Rx         0022  5  0B 00 48 1D 03 
   275)       253.6  Rx         0020  5  0A 00 BC 1A 01 
   276)       253.9  Rx         0023  5  00 00 00 00 00 
   277)       254.8  Rx         0020  5  0A 00 BC 1A 01 
   278)       257.7  Rx         0021  5  00 00 00 00 00 
   279)       257.9  Rx         0023  5  00 00 00 00 00 
   280)       258.4  Rx         0020  5  0A 00 BC 1A 01 
   281)       258.6  Rx         0022  5  0B 00 48 1D 03 
   282)       260.7  Rx         0020  5  0A 00 BC 1A 01 
   283)       260.9  Rx         0022  5  0B 00 48 1D 03 
   284)       261.4  Rx         0021  5  00 00 00 00 00 
   285)       261.6  Rx         0023  5  00 00 00 00 00 
   286)       262.0  Rx         0020  5  0A 00 BC 1A 01 
   287)       262.1  Rx         0022  5  0B 00 48 1D 03 
   288)       262.6  Rx         0021  5  00 00 00 00 00 
   289)       262.8  Rx         0023  5  00 00 00 00 00 
   290)       263.1  Rx         0020  5  0A 00 BC 1A 01 
   291)       263.3  Rx         0022  5  0B 00 48 1D 03 
   292)       263.7  Rx         0021  5  00 00 00 00 00 
   293)       264.0  Rx         0023  5  00 00 00 00 00 
   294)       264.3  Rx         0020  5  0A 00 BC 1A 01 
   295)       264.5  Rx         0022  5  0B 00 48 1D 03 
   296)       264.9  Rx         0021  5  00 00 00 00 00 
   297)       265.2  Rx         0023  5  00 00 00 00 00 
   298)       265.6  Rx         0020  5  0A 00 BC 1A 01 
   299)       266.7  Rx         0020  5  0A 00 BC 1A 01 
   300)       266.9  Rx         0026  6  1C 0D B5 80 D2 37 
   301)       267.2  Rx         0021  5  00 00 00 00 00 
   302)       267.4  Rx         0022  5  0B 00 48 1D 03 
   303)       267.8  Rx         0020  5  0A 00 BC 1A 01 
   304)       267.9  Rx         0023  5  00 00 00 00 00 
   305)       268.3  Rx         0021  5  00 00 00 00 00 
   306)       268.4  Rx         0022  5  0B 00 48 1D 03 
   307)       268.9  Rx         0020  5  0A 00 BC 1A 01 
   308)       269.0  Rx         0023  5  00 00 00 00 00 
   309)       269.5  Rx         0021  5  00 00 00 00 00 
   310)       269.6  Rx         0022  5  0B 00 48 1D 03 
   311)       270.1  Rx         0020  5  0A 00 BC 1A 01 
   312)       270.2  Rx         0023  5  00 00 00 00 00 
   313)       270.7  Rx         0021  5  00 00 00 00 00 
   314)       270.8  Rx         0022  5  0B 00 48 1D 03 
   315)       271.3  Rx         0020  5  0A 00 BC 1A 01 
   316)       271.4  Rx         0023  5  00 00 00 00 00 
   317)       271.8  Rx         0021  5  00 00 00 00 00 
   318)       272.0  Rx         0022  5  0B 00 48 1D 03 
   319)       272.4  Rx         0020  5  0A 00 BC 1A 01 
   320)       272.7  Rx         0023  5  00 00 00 00 00 
   321)       273.0  Rx         0021  5  00 00 00 00 00 
   322)       273.2  Rx         0022  5  0B 00 48 1D 03 
   323)       273.5  Rx         0020  5  0A 00 BC 1A 01 
   324)       273.7  Rx         0023  5  00 00 00 00 00 
   325)       274.0  Rx         0021  5  00 00 00 00 00 
   326)       274.2  Rx         0022  5  0B 00 48 1D 03 
   327)       274.5  Rx         0020  5  0A 00 BC 1A 01 
   328)       274.7  Rx         0023  5  00 00 00 00 00 
   329)       275.0  Rx         0021  5  00 00 00 00 00 
   330)       275.8  Rx         0020  5  0A 00 BC 1A 01 
   331)       278.2  Rx         0020  5  0A 00 BC 1A 01 
   332)       278.4  Rx         0022  5  0B 00 48 1D 03 
   333)       278.8  Rx         0021  5  00 00 00 00 00 
   334)       279.1  Rx         0023  5  00 00 00 00 00 
   335)       279.5  Rx         0020  5  0A 00 BC 1A 01 
   336)       279.7  Rx         0022  5  0B 00 48 1D 03 
   337)       280.2  Rx         0021  5  00 00 00 00 00 
   338)       280.3  Rx         0023  5  00 00 00 00 00 
   339)       280.8  Rx         0020  5  0A 00 BC 1A 01 
   340)       281.0  Rx         0022  5  0B 00 48 1D 03 
   341)       281.4  Rx         0021  5  00 00 00 00 00 
   342)       281.6  Rx         0023  5  00 00 00 00 00 
   343)       282.0  Rx         0020  5  0A 00 BC 1A 01 
   344)       282.2  Rx         0022  5  0B 00 48 1D 03 
   345)       282.6  Rx         0021  5  00 00 00 00 00 
   346)       282.8  Rx         0023  5  00 00 00 00 00 
   347)       283.2  Rx         0020  5  0A 00 BC 1A 01 
   348)       283.4  Rx         0022  5  0B 00 48 1D 03 
   349)       283.8  Rx         0021  5  00 00 00 00 00 
   350)       284.0  Rx         0023  5  00 00 00 00 00 
   351)       284.5  Rx         0020  5  0A 00 BC 1A 01 
   352)       284.6  Rx         0022  5  0B 00 48 1D 03 
   353)       285.1  Rx         0021  5  00 00 00 00 00 
   354)       285.3  Rx         0023  5  00 00 00 00 00 
   355)       285.8  Rx         0020  5  0A 00 BC 1A 01 
   356)       285.9  Rx         0022  5  0B 00 48 1D 03 
   357)       286.4  Rx         0021  5  00 00 00 00 00 
   358)       286.6  Rx         0023  5  00 00 00 00 00 
   359)       287.0  Rx         0020  5  0A 00 BC 1A 01 
   360)       288.9  Rx         0021  5  00 00 00 00 00 
   361)       289.1  Rx         0026  6  1C 0D B5 80 D2 37 
   362)       298.3  Rx         0021  5  00 00 00 00 00 
   363)       299.8  Rx         0026  6  1C 0D B5 80 D2 37 
   364)       300.1  Rx         0020  5  0A 00 BC 1A 01 
   365)       300.6  Rx         0022  5  0B 00 48 1D 03 
   366)       300.7  Rx         0021  5  00 00 00 00 00 
   367)       301.2  Rx         0023  5  00 00 00 00 00 
   368)       301.4  Rx         0020  5  0A 00 BC 1A 01 
   369)       301.8  Rx         0022  5  0B 00 48 1D 03 
   370)       302.0  Rx         0021  5  00 00 00 00 00 
   371)       310.5  Rx         0021  5  00 00 00 00 00 
   372)       311.0  Rx         0026  6  1C 0D B5 80 D2 37 
   373)       311.1  Rx         0020  5  0A 00 BC 1A 01 
   374)       311.6  Rx         0022  5  0B 00 48 1D 03 
   375)       311.8  Rx         0021  5  00 00 00 00 00 
   376)       312.2  Rx         0023  5  00 00 00 00 00 
   377)       312.4  Rx         0020  5  0A 00 BC 1A 01 
   378)       317.5  Rx         0022  5  0B 00 48 1D 03 
   379)       317.7  Rx         0021  5  00 00 00 00 00 
   380)       318.2  Rx         0023  5  00 00 00 00 00 
   381)       318.4  Rx         0020  5  0A 00 BC 1A 01 
   382)       320.2  Rx         0021  5  00 00 00 00 00 
   383)       320.6  Rx         0020  5  0A 00 BC 1A 01 
   384)       321.8  Rx         0020  5  0A 00 BC 1A 01 
   385)       322.0  Rx         0026  6  1C 0D B5 80 D2 37 
   386)       322.4  Rx         0021  5  00 00 00 00 00 
   387)       322.6  Rx         0022  5  0B 00 48 1D 03 
   388)       323.0  Rx         0020  5  0A 00 BC 1A 01 
   389)       323.2  Rx         0023  5  00 00 00 00 00 
   390)       323.6  Rx         0021  5  00 00 00 00 00 
   391)       323.8  Rx         0022  5  0B 00 48 1D 03 
   392)       328.3  Rx         0021  5  00 00 00 00 00 
   393)       328.5  Rx         0022  5  0B 00 48 1D 03 
   394)       328.9  Rx         0020  5  0A 00 BC 1A 01 
   395)       329.1  Rx         0023  5  00 00 00 00 00 
   396)       331.3  Rx         0020  5  0A 00 BC 1A 01 
   397)       332.9  Rx         0026  6  1C 0D B5 80 D2 37 
   398)       333.0  Rx         0021  5  00 00 00 00 00 
   399)       333.5  Rx         0022  5  0B 00 48 1D 03 
   400)       333.7  Rx         0020  5  0A 00 BC 1A 01 
   401)       334.2  Rx         0023  5  00 00 00 00 00 
   402)       334.4  Rx         0021  5  00 00 00 00 00 
   403)       334.8  Rx         0022  5  0B 00 48 1D 03 
   404)       335.0  Rx         0020  5  0A 00 BC 1A 01 
   405)       335.4  Rx         0023  5  00 00 00 00 00 
   406)       335.6  Rx         0021  5  00 00 00 00 00 
   407)       336.0  Rx         0022  5  0B 00 48 1D 03 
   408)       336.2  Rx         0020  5  0A 00 BC 1A 01 
   409)       336.6  Rx         0023  5  00 00 00 00 00 
   410)       336.8  Rx         0021  5  00 00 00 00 00 
   411)       337.2  Rx         0022  5  0B 00 48 1D 03 
   412)       337.4  Rx         0020  5  0A 00 BC 1A 01 
   413)       337.8  Rx         0023  5  00 00 00 00 00 
   414)       338.0  Rx         0021  5  00 00 00 00 00 
   415)       338.4  Rx         0022  5  0B 00 48 1D 03 
   416)       338.6  Rx         0020  5  0A 00 BC 1A 01 
   417)       339.0  Rx         0023  5  00 00 00 00 00 
   418)       339.2  Rx         0021  5  00 00 00 00 00 
   419)       339.6  Rx         0022  5  0B 00 48 1D 03 
   420)       339.8  Rx         0020  5  0A 00 BC 1A 01 
   421)       340.2  Rx         0023  5  00 00 00 00 00 
