;$FILEVERSION=1.1
;$STARTTIME=45826.6795617361
;
;   Start time: 2025/6/18 16:18:34.134.0
;   Generated by PCAN-View v5.3.2.952
;
;   Message Number
;   |         Time Offset (ms)
;   |         |        Type
;   |         |        |        ID (hex)
;   |         |        |        |     Data Length
;   |         |        |        |     |   Data Bytes (hex) ...
;   |         |        |        |     |   |
;---+--   ----+----  --+--  ----+---  +  -+ -- -- -- -- -- -- --
     1)      6955.3  Rx         0011  5  1E 00 DF 36 03 
     2)      6955.5  Rx         0012  5  00 00 00 00 00 
     3)      6955.8  Rx         0015  8  FD 03 FD 03 FE 03 FB 03 
     4)      6955.9  Rx         0010  5  FF FF FF 3F 03 
     5)      6956.1  Rx         0013  5  22 00 02 14 02 
     6)      6956.3  Rx         0014  5  00 00 8F 09 00 
     7)      6956.5  Rx         0011  5  1E 00 DF 36 03 
     8)      6956.7  Rx         0012  5  00 00 00 00 00 
     9)      6957.0  Rx         0010  5  FF FF FF 3F 03 
    10)      6957.2  Rx         0013  5  22 00 02 14 02 
    11)      6957.4  Rx         0015  8  FF 03 FF 03 FF 03 FD 03 
    12)      6957.6  Rx         0011  5  1E 00 DF 36 03 
    13)      6957.8  Rx         0012  5  00 00 00 00 00 
    14)      6958.0  Rx         0014  5  00 00 8F 09 00 
    15)      6958.2  Rx         0010  5  FF FF FF 3F 03 
    16)      6958.4  Rx         0013  5  22 00 02 14 02 
    17)      6958.6  Rx         0011  5  1E 00 DF 36 03 
    18)      6958.8  Rx         0012  5  00 00 00 00 00 
    19)      6959.1  Rx         0015  8  FF 03 FE 03 FF 03 FC 03 
    20)      6959.3  Rx         0010  5  FF FF FF 3F 03 
    21)      6959.5  Rx         0013  5  22 00 02 14 02 
    22)      6959.6  Rx         0014  5  00 00 8F 09 00 
    23)      6959.9  Rx         0011  5  1E 00 DF 36 03 
    24)      6960.0  Rx         0012  5  00 00 00 00 00 
    25)      6960.3  Rx         0010  5  FF FF FF 3F 03 
    26)      6960.5  Rx         0013  5  22 00 02 14 02 
    27)      6960.8  Rx         0015  8  FE 03 FE 03 FF 03 FC 03 
    28)      6960.9  Rx         0011  5  1E 00 DF 36 03 
    29)      6961.1  Rx         0012  5  00 00 00 00 00 
    30)      6961.3  Rx         0014  5  00 00 8F 09 00 
    31)      6961.5  Rx         0010  5  FF FF FF 3F 03 
    32)      6961.7  Rx         0013  5  22 00 02 14 02 
    33)      6962.0  Rx         0011  5  1E 00 DF 36 03 
    34)      6962.3  Rx         0015  8  FD 03 FD 03 FE 03 FB 03 
    35)      6962.5  Rx         0010  5  FF FF FF 3F 03 
    36)      6962.7  Rx         0014  5  00 00 8F 09 00 
    37)      6962.9  Rx         0011  5  1E 00 DF 36 03 
    38)      6963.4  Rx         0010  5  FF FF FF 3F 03 
    39)      6963.7  Rx         0015  8  FF 03 FD 03 FB 03 FA 03 
    40)      6963.9  Rx         0011  5  1E 00 DF 36 03 
    41)      6964.2  Rx         0016  6  16 00 CC 82 93 3C 
    42)      6964.3  Rx         0014  5  00 00 8F 09 00 
    43)      6964.6  Rx         0010  5  FF FF FF 3F 03 
    44)      6964.7  Rx         0012  5  00 00 00 00 00 
    45)      6965.0  Rx         0011  5  1E 00 DF 36 03 
    46)      6965.2  Rx         0013  5  22 00 02 14 02 
    47)      6965.5  Rx         0015  8  FE 03 FD 03 FF 03 FC 03 
    48)      6965.7  Rx         0010  5  FF FF FF 3F 03 
    49)      6965.8  Rx         0012  5  00 00 00 00 00 
    50)      6966.0  Rx         0014  5  00 00 8F 09 00 
    51)      6966.2  Rx         0011  5  1E 00 DF 36 03 
    52)      6966.4  Rx         0013  5  22 00 02 14 02 
    53)      6966.7  Rx         0010  5  FF FF FF 3F 03 
    54)      6966.9  Rx         0012  5  00 00 00 00 00 
    55)      6967.1  Rx         0015  8  FF 03 FF 03 FF 03 FD 03 
    56)      6967.3  Rx         0011  5  1E 00 DF 36 03 
    57)      6967.5  Rx         0013  5  22 00 02 14 02 
    58)      6967.7  Rx         0014  5  00 00 8F 09 00 
    59)      6967.9  Rx         0010  5  FF FF FF 3F 03 
    60)      6968.1  Rx         0012  5  00 00 00 00 00 
    61)      6968.3  Rx         0011  5  1E 00 DF 36 03 
    62)      6968.5  Rx         0013  5  22 00 02 14 02 
    63)      6968.8  Rx         0015  8  FF 03 FE 03 FF 03 FE 03 
    64)      6969.0  Rx         0010  5  FF FF FF 3F 03 
    65)      6969.2  Rx         0012  5  00 00 00 00 00 
    66)      6969.4  Rx         0014  5  00 00 8F 09 00 
    67)      6969.5  Rx         0011  5  1E 00 DF 36 03 
    68)      6969.7  Rx         0013  5  22 00 02 14 02 
    69)      6970.0  Rx         0010  5  FF FF FF 3F 03 
    70)      6970.2  Rx         0012  5  00 00 00 00 00 
    71)      6970.4  Rx         0015  8  FF 03 FE 03 FF 03 FB 03 
    72)      6970.7  Rx         0011  5  1E 00 DF 36 03 
    73)      6970.8  Rx         0013  5  22 00 02 14 02 
    74)      6971.0  Rx         0014  5  00 00 8F 09 00 
    75)      6971.2  Rx         0010  5  FF FF FF 3F 03 
    76)      6971.4  Rx         0012  5  00 00 00 00 00 
    77)      6971.7  Rx         0011  5  1E 00 DF 36 03 
    78)      6971.9  Rx         0013  5  22 00 02 14 02 
    79)      6972.1  Rx         0015  8  FE 03 FD 03 FF 03 FC 03 
    80)      6972.3  Rx         0010  5  FF FF FF 3F 03 
    81)      6972.5  Rx         0012  5  00 00 00 00 00 
    82)      6972.7  Rx         0014  5  00 00 B3 09 00 
    83)      6972.9  Rx         0011  5  1E 00 DF 36 03 
    84)      6973.0  Rx         0013  5  22 00 02 14 02 
    85)      6973.3  Rx         0010  5  FF FF FF 3F 03 
    86)      6973.6  Rx         0015  8  FE 03 FE 03 FF 03 FB 03 
    87)      6973.8  Rx         0011  5  1E 00 DF 36 03 
    88)      6974.1  Rx         0014  5  00 00 B3 09 00 
    89)      6974.3  Rx         0010  5  FF FF FF 3F 03 
    90)      6974.8  Rx         0011  5  1E 00 DF 36 03 
    91)      6975.1  Rx         0015  8  FE 03 FC 03 FB 03 FA 03 
    92)      6975.3  Rx         0010  5  FF FF FF 3F 03 
    93)      6975.6  Rx         0016  6  16 00 CC 82 93 3C 
    94)      6975.7  Rx         0011  5  1E 00 DF 36 03 
    95)      6975.9  Rx         0014  5  00 00 B3 09 00 
    96)      6976.1  Rx         0012  5  00 00 00 00 00 
    97)      6976.3  Rx         0010  5  FF FF FF 3F 03 
    98)      6976.6  Rx         0013  5  22 00 02 14 02 
    99)      6976.8  Rx         0011  5  1E 00 DF 36 03 
   100)      6977.1  Rx         0015  8  FF 03 FF 03 FF 03 FC 03 
   101)      6977.2  Rx         0012  5  00 00 00 00 00 
   102)      6977.4  Rx         0010  5  FF FF FF 3F 03 
   103)      6977.6  Rx         0014  5  00 00 8F 09 00 
   104)      6977.8  Rx         0013  5  22 00 02 14 02 
   105)      6978.0  Rx         0011  5  1E 00 DF 36 03 
   106)      6978.3  Rx         0012  5  00 00 00 00 00 
   107)      6978.5  Rx         0010  5  FF FF FF 3F 03 
   108)      6978.7  Rx         0015  8  FF 03 FF 03 FF 03 FC 03 
   109)      6978.9  Rx         0013  5  22 00 02 14 02 
   110)      6979.1  Rx         0011  5  1E 00 DF 36 03 
   111)      6979.3  Rx         0014  5  00 00 8F 09 00 
   112)      6979.4  Rx         0012  5  00 00 00 00 00 
   113)      6979.7  Rx         0010  5  FF FF FF 3F 03 
   114)      6979.9  Rx         0013  5  22 00 02 14 02 
   115)      6980.1  Rx         0011  5  1E 00 DF 36 03 
   116)      6980.4  Rx         0015  8  FF 03 FF 03 FF 03 FB 03 
   117)      6980.6  Rx         0012  5  00 00 00 00 00 
   118)      6980.8  Rx         0010  5  FF FF FF 3F 03 
   119)      6980.9  Rx         0014  5  00 00 8F 09 00 
   120)      6981.1  Rx         0013  5  22 00 02 14 02 
   121)      6981.3  Rx         0011  5  1E 00 DF 36 03 
   122)      6981.6  Rx         0012  5  00 00 00 00 00 
   123)      6981.8  Rx         0010  5  FF FF FF 3F 03 
   124)      6982.1  Rx         0015  8  FF 03 FF 03 FF 03 FC 03 
   125)      6982.2  Rx         0013  5  22 00 02 14 02 
   126)      6982.4  Rx         0011  5  1E 00 DF 36 03 
   127)      6982.6  Rx         0014  5  00 00 8F 09 00 
   128)      6982.8  Rx         0012  5  00 00 00 00 00 
   129)      6983.0  Rx         0010  5  FF FF FF 3F 03 
   130)      6983.3  Rx         0013  5  22 00 02 14 02 
   131)      6983.5  Rx         0011  5  1E 00 DF 36 03 
   132)      6983.7  Rx         0015  8  FF 03 FF 03 FE 03 FA 03 
   133)      6983.9  Rx         0010  5  FF FF FF 3F 03 
   134)      6984.2  Rx         0014  5  00 00 8F 09 00 
   135)      6984.4  Rx         0011  5  1E 00 DF 36 03 
   136)      6984.9  Rx         0010  5  FF FF FF 3F 03 
   137)      6985.1  Rx         0015  8  FE 03 FD 03 FC 03 FA 03 
   138)      6985.3  Rx         0011  5  1E 00 DF 36 03 
   139)      6985.6  Rx         0014  5  00 00 8F 09 00 
   140)      6985.9  Rx         0010  5  FF FF FF 3F 03 
   141)      6986.1  Rx         0016  6  16 00 CC 82 93 3C 
   142)      6986.3  Rx         0011  5  1E 00 DF 36 03 
   143)      6986.5  Rx         0012  5  00 00 00 00 00 
   144)      6986.8  Rx         0015  8  FE 03 FF 03 FF 03 FD 03 
   145)      6987.0  Rx         0010  5  FF FF FF 3F 03 
   146)      6987.2  Rx         0013  5  22 00 02 14 02 
   147)      6987.3  Rx         0014  5  00 00 8F 09 00 
   148)      6987.5  Rx         0011  5  1E 00 DF 36 03 
   149)      6987.7  Rx         0012  5  00 00 00 00 00 
   150)      6988.0  Rx         0010  5  FF FF FF 3F 03 
   151)      6988.2  Rx         0013  5  22 00 02 14 02 
   152)      6988.5  Rx         0015  8  FF 03 FF 03 FF 03 FD 03 
   153)      6988.7  Rx         0011  5  1E 00 DF 36 03 
   154)      6988.8  Rx         0012  5  00 00 00 00 00 
   155)      6989.0  Rx         0014  5  00 00 8F 09 00 
   156)      6989.2  Rx         0010  5  FF FF FF 3F 03 
   157)      6989.4  Rx         0013  5  22 00 02 14 02 
   158)      6989.7  Rx         0011  5  1E 00 DF 36 03 
   159)      6989.9  Rx         0012  5  00 00 00 00 00 
   160)      6990.2  Rx         0015  8  FF 03 FF 03 FF 03 FC 03 
   161)      6990.4  Rx         0010  5  FF FF FF 3F 03 
   162)      6990.6  Rx         0013  5  22 00 02 14 02 
   163)      6990.7  Rx         0014  5  00 00 8F 09 00 
   164)      6990.9  Rx         0011  5  1E 00 DF 36 03 
   165)      6991.1  Rx         0012  5  00 00 00 00 00 
   166)      6991.4  Rx         0010  5  FF FF FF 3F 03 
   167)      6991.6  Rx         0013  5  22 00 02 14 02 
   168)      6991.8  Rx         0015  8  FE 03 FE 03 FF 03 FC 03 
   169)      6992.0  Rx         0011  5  1E 00 DF 36 03 
   170)      6992.2  Rx         0012  5  00 00 00 00 00 
   171)      6992.4  Rx         0014  5  00 00 8F 09 00 
   172)      6992.6  Rx         0010  5  FF FF FF 3F 03 
   173)      6992.8  Rx         0013  5  22 00 02 14 02 
   174)      6993.1  Rx         0011  5  1E 00 DF 36 03 
   175)      6993.3  Rx         0012  5  00 00 00 00 00 
   176)      6993.5  Rx         0015  8  FF 03 FE 03 FF 03 FC 03 
   177)      6993.7  Rx         0010  5  FF FF FF 3F 03 
   178)      6993.9  Rx         0013  5  22 00 02 14 02 
   179)      6994.1  Rx         0014  5  00 00 B3 09 00 
   180)      6994.2  Rx         0011  5  1E 00 DF 36 03 
   181)      6994.5  Rx         0012  5  00 00 00 00 00 
   182)      6994.7  Rx         0010  5  FF FF FF 3F 03 
   183)      6994.9  Rx         0013  5  22 00 02 14 02 
   184)      6995.1  Rx         0015  8  FE 03 FD 03 FF 03 FC 03 
   185)      6995.3  Rx         0011  5  1E 00 DF 36 03 
   186)      6995.6  Rx         0014  5  00 00 B3 09 00 
   187)      6995.8  Rx         0010  5  FF FF FF 3F 03 
   188)      6996.3  Rx         0011  5  1E 00 DF 36 03 
   189)      6996.6  Rx         0015  8  FE 03 FC 03 FC 03 FB 03 
   190)      6996.8  Rx         0010  5  FF FF FF 3F 03 
   191)      6997.0  Rx         0016  6  16 00 CC 82 93 3C 
   192)      6997.2  Rx         0014  5  00 00 8F 09 00 
   193)      6997.4  Rx         0011  5  1E 00 DF 36 03 
   194)      6997.6  Rx         0012  5  00 00 00 00 00 
   195)      6997.8  Rx         0010  5  FF FF FF 3F 03 
   196)      6998.0  Rx         0013  5  22 00 02 14 02 
   197)      6998.3  Rx         0015  8  FF 03 FF 03 FF 03 FD 03 
   198)      6998.5  Rx         0011  5  1E 00 DF 36 03 
   199)      6998.6  Rx         0012  5  00 00 00 00 00 
   200)      6998.9  Rx         0014  5  00 00 8F 09 00 
   201)      6999.0  Rx         0010  5  FF FF FF 3F 03 
   202)      6999.2  Rx         0013  5  22 00 02 14 02 
   203)      6999.5  Rx         0011  5  1E 00 DF 36 03 
   204)      6999.7  Rx         0012  5  00 00 00 00 00 
   205)      6999.9  Rx         0015  8  FF 03 FF 03 FF 03 FD 03 
   206)      7000.1  Rx         0010  5  FF FF FF 3F 03 
   207)      7000.3  Rx         0013  5  22 00 02 14 02 
   208)      7000.5  Rx         0014  5  00 00 8F 09 00 
   209)      7000.7  Rx         0011  5  1E 00 DF 36 03 
   210)      7000.9  Rx         0012  5  00 00 00 00 00 
   211)      7001.2  Rx         0010  5  FF FF FF 3F 03 
   212)      7001.3  Rx         0013  5  22 00 02 14 02 
   213)      7001.6  Rx         0015  8  FE 03 FD 03 FF 03 FC 03 
   214)      7001.8  Rx         0011  5  1E 00 DF 36 03 
   215)      7002.0  Rx         0012  5  00 00 00 00 00 
   216)      7002.1  Rx         0014  5  00 00 8F 09 00 
   217)      7002.4  Rx         0010  5  FF FF FF 3F 03 
   218)      7002.5  Rx         0013  5  22 00 02 14 02 
   219)      7002.8  Rx         0011  5  1E 00 DF 36 03 
   220)      7003.0  Rx         0012  5  00 00 00 00 00 
   221)      7003.3  Rx         0015  8  FE 03 FD 03 FF 03 FD 03 
   222)      7003.5  Rx         0010  5  FF FF FF 3F 03 
   223)      7003.7  Rx         0013  5  22 00 02 14 02 
   224)      7003.8  Rx         0014  5  00 00 D7 09 00 
   225)      7004.0  Rx         0011  5  1E 00 DF 36 03 
   226)      7004.2  Rx         0012  5  00 00 00 00 00 
   227)      7004.5  Rx         0010  5  FF FF FF 3F 03 
   228)      7004.7  Rx         0013  5  22 00 02 14 02 
   229)      7004.9  Rx         0015  8  FF 03 FE 03 FF 03 FB 03 
   230)      7005.1  Rx         0011  5  1E 00 DF 36 03 
   231)      7005.3  Rx         0012  5  00 00 00 00 00 
   232)      7005.5  Rx         0014  5  00 00 8F 09 00 
   233)      7005.7  Rx         0010  5  FF FF FF 3F 03 
   234)      7005.9  Rx         0013  5  22 00 02 14 02 
   235)      7006.2  Rx         0011  5  1E 00 DF 36 03 
   236)      7006.4  Rx         0015  8  FE 03 FD 03 FF 03 FD 03 
   237)      7006.6  Rx         0010  5  FF FF FF 3F 03 
   238)      7006.9  Rx         0014  5  00 00 B3 09 00 
   239)      7007.1  Rx         0011  5  1E 00 DF 36 03 
   240)      7007.6  Rx         0016  6  16 00 CC 82 93 3C 
   241)      7007.7  Rx         0010  5  FF FF FF 3F 03 
   242)      7008.0  Rx         0015  8  FF 03 FD 03 FC 03 FB 03 
   243)      7008.2  Rx         0012  5  00 00 00 00 00 
   244)      7008.3  Rx         0011  5  1E 00 DF 36 03 
   245)      7008.5  Rx         0014  5  00 00 B3 09 00 
   246)      7008.7  Rx         0013  5  22 00 02 14 02 
   247)      7008.9  Rx         0010  5  FF FF FF 3F 03 
   248)      7009.2  Rx         0012  5  00 00 00 00 00 
   249)      7009.4  Rx         0011  5  1E 00 DF 36 03 
   250)      7009.7  Rx         0015  8  FF 03 FF 03 FF 03 FC 03 
   251)      7009.8  Rx         0013  5  22 00 02 14 02 
   252)      7010.0  Rx         0010  5  FF FF FF 3F 03 
   253)      7010.2  Rx         0014  5  00 00 B3 09 00 
   254)      7010.4  Rx         0012  5  00 00 00 00 00 
   255)      7010.6  Rx         0011  5  1E 00 DF 36 03 
   256)      7010.8  Rx         0013  5  22 00 02 14 02 
   257)      7011.1  Rx         0010  5  FF FF FF 3F 03 
   258)      7011.3  Rx         0015  8  FF 03 FF 03 FF 03 FC 03 
   259)      7011.5  Rx         0012  5  00 00 00 00 00 
   260)      7011.7  Rx         0011  5  1E 00 DF 36 03 
   261)      7011.9  Rx         0014  5  00 00 8F 09 00 
   262)      7012.1  Rx         0013  5  22 00 02 14 02 
   263)      7012.3  Rx         0010  5  FF FF FF 3F 03 
   264)      7012.6  Rx         0012  5  00 00 00 00 00 
   265)      7012.7  Rx         0011  5  1E 00 DF 36 03 
   266)      7013.0  Rx         0015  8  FF 03 FE 03 FD 03 FA 03 
   267)      7013.2  Rx         0013  5  22 00 02 14 02 
   268)      7013.4  Rx         0010  5  FF FF FF 3F 03 
   269)      7013.6  Rx         0014  5  00 00 8F 09 00 
   270)      7013.8  Rx         0012  5  00 00 00 00 00 
   271)      7013.9  Rx         0011  5  1E 00 DF 36 03 
   272)      7014.2  Rx         0013  5  22 00 02 14 02 
   273)      7014.4  Rx         0010  5  FF FF FF 3F 03 
   274)      7014.6  Rx         0015  8  FF 03 FF 03 FF 03 FB 03 
   275)      7014.9  Rx         0012  5  00 00 00 00 00 
   276)      7015.0  Rx         0011  5  1E 00 DF 36 03 
   277)      7015.2  Rx         0014  5  00 00 8F 09 00 
   278)      7015.4  Rx         0013  5  22 00 02 14 02 
   279)      7015.6  Rx         0010  5  FF FF FF 3F 03 
   280)      7015.9  Rx         0012  5  00 00 00 00 00 
   281)      7016.1  Rx         0011  5  1E 00 DF 36 03 
   282)      7016.3  Rx         0015  8  FF 03 FF 03 FE 03 FB 03 
   283)      7016.5  Rx         0013  5  22 00 02 14 02 
   284)      7016.7  Rx         0010  5  FF FF FF 3F 03 
   285)      7016.9  Rx         0014  5  00 00 8F 09 00 
   286)      7017.1  Rx         0012  5  00 00 00 00 00 
   287)      7017.2  Rx         0011  5  1E 00 DF 36 03 
   288)      7017.5  Rx         0013  5  22 00 02 14 02 
   289)      7017.7  Rx         0010  5  FF FF FF 3F 03 
   290)      7018.0  Rx         0015  8  FF 03 FF 03 FF 03 FD 03 
   291)      7018.2  Rx         0011  5  1E 00 DF 36 03 
   292)      7018.5  Rx         0014  5  00 00 8F 09 00 
   293)      7018.7  Rx         0010  5  FF FF FF 3F 03 
   294)      7019.2  Rx         0011  5  1E 00 DF 36 03 
   295)      7019.3  Rx         0016  6  16 00 CC 82 93 3C 
   296)      7019.6  Rx         0015  8  FE 03 FC 03 FB 03 FA 03 
   297)      7019.8  Rx         0010  5  FF FF FF 3F 03 
   298)      7020.0  Rx         0012  5  00 00 00 00 00 
   299)      7020.2  Rx         0014  5  00 00 8F 09 00 
   300)      7020.4  Rx         0011  5  1E 00 DF 36 03 
   301)      7020.5  Rx         0013  5  22 00 02 14 02 
   302)      7020.8  Rx         0010  5  FF FF FF 3F 03 
   303)      7021.0  Rx         0012  5  00 00 00 00 00 
   304)      7021.3  Rx         0015  8  FE 03 FE 03 FF 03 FB 03 
   305)      7021.5  Rx         0011  5  1E 00 DF 36 03 
   306)      7021.6  Rx         0013  5  22 00 02 14 02 
   307)      7021.8  Rx         0014  5  00 00 8F 09 00 
   308)      7022.0  Rx         0010  5  FF FF FF 3F 03 
   309)      7022.2  Rx         0012  5  00 00 00 00 00 
   310)      7022.5  Rx         0011  5  1E 00 DF 36 03 
   311)      7022.7  Rx         0013  5  22 00 02 14 02 
   312)      7022.9  Rx         0015  8  FE 03 FD 03 FF 03 FB 03 
   313)      7023.1  Rx         0010  5  FF FF FF 3F 03 
   314)      7023.3  Rx         0012  5  00 00 00 00 00 
   315)      7023.5  Rx         0014  5  00 00 8F 09 00 
   316)      7023.7  Rx         0011  5  1E 00 DF 36 03 
   317)      7023.9  Rx         0013  5  22 00 02 14 02 
   318)      7024.2  Rx         0010  5  FF FF FF 3F 03 
   319)      7024.4  Rx         0012  5  00 00 00 00 00 
   320)      7024.6  Rx         0015  8  FF 03 FE 03 FF 03 FC 03 
   321)      7024.8  Rx         0011  5  1E 00 DF 36 03 
   322)      7025.0  Rx         0013  5  22 00 02 14 02 
   323)      7025.1  Rx         0014  5  00 00 8F 09 00 
   324)      7025.4  Rx         0010  5  FF FF FF 3F 03 
   325)      7025.5  Rx         0012  5  00 00 00 00 00 
   326)      7025.8  Rx         0011  5  1E 00 DF 36 03 
   327)      7026.0  Rx         0013  5  22 00 02 14 02 
   328)      7026.3  Rx         0015  8  FF 03 FE 03 FF 03 FD 03 
   329)      7026.4  Rx         0010  5  FF FF FF 3F 03 
   330)      7026.6  Rx         0012  5  00 00 00 00 00 
   331)      7026.8  Rx         0014  5  00 00 8F 09 00 
   332)      7027.0  Rx         0011  5  1E 00 DF 36 03 
   333)      7027.2  Rx         0013  5  22 00 02 14 02 
   334)      7027.5  Rx         0010  5  FF FF FF 3F 03 
   335)      7027.7  Rx         0012  5  00 00 00 00 00 
   336)      7027.9  Rx         0015  8  FF 03 FF 03 FF 03 FD 03 
   337)      7028.1  Rx         0011  5  1E 00 DF 36 03 
   338)      7028.3  Rx         0013  5  22 00 02 14 02 
   339)      7028.5  Rx         0014  5  00 00 8F 09 00 
   340)      7028.6  Rx         0010  5  FF FF FF 3F 03 
   341)      7029.1  Rx         0011  5  1E 00 DF 36 03 
   342)      7029.5  Rx         0015  8  FF 03 FD 03 FC 03 FA 03 
   343)      7029.6  Rx         0010  5  FF FF FF 3F 03 
   344)      7029.9  Rx         0016  6  16 00 CC 82 93 3C 
   345)      7030.1  Rx         0011  5  1E 00 DF 36 03 
   346)      7030.3  Rx         0014  5  00 00 8F 09 00 
   347)      7030.5  Rx         0012  5  00 00 00 00 00 
   348)      7030.7  Rx         0010  5  FF FF FF 3F 03 
   349)      7030.9  Rx         0013  5  22 00 02 14 02 
   350)      7031.2  Rx         0011  5  1E 00 DF 36 03 
   351)      7031.4  Rx         0015  8  FF 03 FF 03 FE 03 FB 03 
   352)      7031.6  Rx         0012  5  00 00 00 00 00 
   353)      7031.8  Rx         0010  5  FF FF FF 3F 03 
   354)      7032.0  Rx         0014  5  00 00 8F 09 00 
   355)      7032.2  Rx         0013  5  22 00 02 14 02 
   356)      7032.4  Rx         0011  5  1E 00 DF 36 03 
   357)      7032.7  Rx         0012  5  00 00 00 00 00 
   358)      7032.8  Rx         0010  5  FF FF FF 3F 03 
   359)      7033.1  Rx         0015  8  FF 03 FF 03 FF 03 FC 03 
   360)      7033.3  Rx         0013  5  22 00 02 14 02 
   361)      7033.5  Rx         0011  5  1E 00 DF 36 03 
   362)      7033.6  Rx         0014  5  00 00 8F 09 00 
   363)      7033.9  Rx         0012  5  00 00 00 00 00 
   364)      7034.0  Rx         0010  5  FF FF FF 3F 03 
   365)      7034.3  Rx         0013  5  22 00 02 14 02 
   366)      7034.5  Rx         0011  5  1E 00 DF 36 03 
   367)      7034.7  Rx         0015  8  FF 03 FE 03 FE 03 FB 03 
   368)      7034.9  Rx         0012  5  00 00 00 00 00 
   369)      7035.1  Rx         0010  5  FF FF FF 3F 03 
   370)      7035.3  Rx         0014  5  00 00 8F 09 00 
   371)      7035.5  Rx         0013  5  22 00 02 14 02 
   372)      7035.7  Rx         0011  5  1E 00 DF 36 03 
   373)      7036.0  Rx         0012  5  00 00 00 00 00 
   374)      7036.2  Rx         0010  5  FF FF FF 3F 03 
   375)      7036.4  Rx         0015  8  FF 03 FF 03 FF 03 FB 03 
   376)      7036.6  Rx         0013  5  22 00 02 14 02 
   377)      7036.8  Rx         0011  5  1E 00 DF 36 03 
   378)      7037.0  Rx         0014  5  00 00 8F 09 00 
   379)      7037.2  Rx         0012  5  00 00 00 00 00 
   380)      7037.4  Rx         0010  5  FF FF FF 3F 03 
   381)      7037.7  Rx         0013  5  22 00 02 14 02 
   382)      7037.9  Rx         0011  5  1E 00 DF 36 03 
   383)      7038.1  Rx         0015  8  FF 03 FF 03 FF 03 FC 03 
   384)      7038.3  Rx         0012  5  00 00 00 00 00 
   385)      7038.5  Rx         0010  5  FF FF FF 3F 03 
   386)      7038.7  Rx         0014  5  00 00 8F 09 00 
   387)      7038.8  Rx         0013  5  22 00 02 14 02 
   388)      7039.0  Rx         0011  5  1E 00 DF 36 03 
   389)      7039.3  Rx         0012  5  00 00 00 00 00 
   390)      7039.5  Rx         0010  5  FF FF FF 3F 03 
   391)      7039.8  Rx         0015  8  FF 03 FF 03 FF 03 FC 03 
   392)      7040.0  Rx         0013  5  22 00 02 14 02 
   393)      7040.1  Rx         0011  5  1E 00 DF 36 03 
   394)      7040.3  Rx         0014  5  00 00 B3 09 00 
   395)      7040.6  Rx         0010  5  FF FF FF 3F 03 
   396)      7041.1  Rx         0011  5  1E 00 DF 36 03 
   397)      7041.3  Rx         0015  8  FC 03 FC 03 FC 03 F9 03 
   398)      7041.6  Rx         0010  5  FF FF FF 3F 03 
   399)      7041.8  Rx         0014  5  00 00 8F 09 00 
   400)      7042.0  Rx         0011  5  1E 00 DF 36 03 
   401)      7042.4  Rx         0016  6  16 00 CC 82 93 3C 
   402)      7042.6  Rx         0010  5  FF FF FF 3F 03 
   403)      7042.9  Rx         0015  8  FE 03 FE 03 FC 03 FB 03 
   404)      7043.1  Rx         0012  5  00 00 00 00 00 
   405)      7043.3  Rx         0011  5  1E 00 DF 36 03 
   406)      7043.5  Rx         0014  5  00 00 8F 09 00 
   407)      7043.6  Rx         0013  5  22 00 02 14 02 
   408)      7043.8  Rx         0010  5  FF FF FF 3F 03 
   409)      7044.1  Rx         0012  5  00 00 00 00 00 
   410)      7044.3  Rx         0011  5  1E 00 DF 36 03 
   411)      7044.5  Rx         0015  8  FF 03 FF 03 FE 03 FB 03 
   412)      7044.7  Rx         0013  5  22 00 02 14 02 
   413)      7044.9  Rx         0010  5  FF FF FF 3F 03 
   414)      7045.1  Rx         0014  5  00 00 8F 09 00 
   415)      7045.3  Rx         0012  5  00 00 00 00 00 
   416)      7045.5  Rx         0011  5  1E 00 DF 36 03 
   417)      7045.8  Rx         0013  5  22 00 02 14 02 
   418)      7046.0  Rx         0010  5  FF FF FF 3F 03 
   419)      7046.2  Rx         0015  8  FF 03 FF 03 FF 03 FB 03 
   420)      7046.4  Rx         0012  5  00 00 00 00 00 
   421)      7046.6  Rx         0011  5  1E 00 DF 36 03 
